
SetupTitle, idvg3.3
PrimitiveTest, I/V Sweep
TestParameter, Context.MainFrame, B1500A
TestParameter, Channel.UnitType, SMU, SMU, SMU, SMU
TestParameter, Channel.Unit, SMU2:HR, SMU1:HR, SMU3:HR, SMU4:HR
TestParameter, Channel.IName, Id, Ig, Is, Ibg
TestParameter, Channel.VName, Vd, Vg, Vs, Vbg
TestParameter, Channel.Mode, V, V, V, V
TestParameter, Channel.Func, CONST, VAR1, CONST, VAR2
TestParameter, Channel.Index, 
TestParameter, Channel.Time, 
TestParameter, Measurement.Port.Unit, SMU2:HR, SMU1:HR, SMU3:HR, SMU4:HR
TestParameter, Measurement.Port.SeriesResistor, NONE, NONE, NONE, NONE
TestParameter, Measurement.Port.Filter, ON, ON, ON, ON
TestParameter, Measurement.Port.OutputVoltageComparison, 0, 0, 0, 0
TestParameter, Measurement.Primary.Locus, Single
TestParameter, Measurement.Primary.Scale, LINEAR
TestParameter, Measurement.Primary.Start, -2.1
TestParameter, Measurement.Primary.Stop, 3.63
TestParameter, Measurement.Primary.Step, 0.03
TestParameter, Measurement.Primary.Compliance, 0.1
TestParameter, Measurement.Primary.PowerCompliance, 0
TestParameter, Measurement.Aborting.Condition, CONTINUE AT ANY
TestParameter, Measurement.PostOutput.Value, START
TestParameter, Measurement.PostOutput.Retention, OFF
TestParameter, Measurement.Secondary.Start, -2
TestParameter, Measurement.Secondary.Count, 5
TestParameter, Measurement.Secondary.Step, 2
TestParameter, Measurement.Secondary.Compliance, 0.1
TestParameter, Measurement.Secondary.PowerCompliance, 0
TestParameter, Measurement.Bias.Source, 3.3000000000000003, -2.1, 0, -2
TestParameter, Measurement.Bias.Compliance, 0.1, 0.1, 0.1, 0.1
TestParameter, Measurement.Monitor.Unit, SMU2:HR, SMU1:HR, SMU3:HR, SMU4:HR
TestParameter, Measurement.Monitor.Adc, HR ADC, HR ADC, HR ADC, HR ADC
TestParameter, Measurement.Monitor.Measurement, Compliance Side, Compliance Side, Compliance Side, Compliance Side
TestParameter, Measurement.Monitor.RangingMode, LIMITED, LIMITED, LIMITED, LIMITED
TestParameter, Measurement.Monitor.RangeBoundary, 1nA, 1nA, 1nA, 1nA
TestParameter, Measurement.Monitor.RangeRating, BY FULL RANGE, BY FULL RANGE, BY FULL RANGE, BY FULL RANGE
TestParameter, Measurement.Monitor.RangeRatingCoeff, 50, 50, 50, 50
TestParameter, Measurement.Timing.Hold, 0
TestParameter, Measurement.Timing.Delay, 0
TestParameter, Measurement.Adc.HighSpeed.Mode, AUTO
TestParameter, Measurement.Adc.HighSpeed.Coeff, 1
TestParameter, Measurement.Adc.HighResolution.AutoZero, OFF
TestParameter, Measurement.Adc.HighResolution.Mode, PLC
TestParameter, Measurement.Adc.HighResolution.Coeff, 1
TestParameter, Measurement.WaitTime.Source.Coeff, 1
TestParameter, Measurement.WaitTime.Source.Offset, 0
TestParameter, Measurement.WaitTime.Monitor.Coeff, 1
TestParameter, Measurement.WaitTime.Monitor.Offset, 0
TestParameter, Function.User.Name, gm, absId
TestParameter, Function.User.Unit, S, A
TestParameter, Function.User.Definition, diff(Id,Vg), abs(Id)
TestParameter, Output.Graph.Enabled, true
TestParameter, Output.Graph.AutoScaling, false
TestParameter, Output.Graph.XAxis.Data, Vg
TestParameter, Output.Graph.XAxis.Scale, Linear
TestParameter, Output.Graph.XAxis.Left, -3
TestParameter, Output.Graph.XAxis.Right, 3.63
TestParameter, Output.Graph.XAxis.RunTimeAutoScale, true
TestParameter, Output.Graph.YAxis.Data, Id, Ig, Ib
TestParameter, Output.Graph.YAxis.Scale, Log, Linear, Linear
TestParameter, Output.Graph.YAxis.Bottom, 0.001, -0.1, -0.1
TestParameter, Output.Graph.YAxis.Top, 0.01, 0.1, 0.1
TestParameter, Output.Graph.YAxis.Group, , , 
TestParameter, Output.Graph.YAxis.RunTimeAutoScale, true, true, true
TestParameter, Output.List.Data, Vg, Vd, Ig, Id, Ibg, Is, gm, Vbg, absId
TestParameter, AutoAnalysis.Interpolation, false
TestParameter, AutoAnalysis.Var2StepCount, 1
TestParameter, AutoAnalysis.Var2StepScript, 
TestParameter, AutoAnalysis.Line1.Enabled, false
TestParameter, AutoAnalysis.Line1.Type, 2
TestParameter, AutoAnalysis.Line1.Fix, True
TestParameter, AutoAnalysis.Line1.YAxis, 0
TestParameter, AutoAnalysis.Line1.Point1.Type, 1
TestParameter, AutoAnalysis.Line1.Point1.XY.X, 
TestParameter, AutoAnalysis.Line1.Point1.XY.Y, 
TestParameter, AutoAnalysis.Line1.Point1.Data.Var, Id
TestParameter, AutoAnalysis.Line1.Point1.Data.Condition, 
TestParameter, AutoAnalysis.Line1.Point1.Data.Start, false
TestParameter, AutoAnalysis.Line1.Point1.Data.StartVar, 
TestParameter, AutoAnalysis.Line1.Point1.Data.StartCondition, 
TestParameter, AutoAnalysis.Line1.Point2.Type, 0
TestParameter, AutoAnalysis.Line1.Point2.XY.X, 
TestParameter, AutoAnalysis.Line1.Point2.XY.Y, 
TestParameter, AutoAnalysis.Line1.Point2.Data.Var, 
TestParameter, AutoAnalysis.Line1.Point2.Data.Condition, 
TestParameter, AutoAnalysis.Line1.Point2.Data.Start, false
TestParameter, AutoAnalysis.Line1.Point2.Data.StartVar, 
TestParameter, AutoAnalysis.Line1.Point2.Data.StartCondition, 
TestParameter, AutoAnalysis.Line1.GradientExpr, 0
TestParameter, AutoAnalysis.Line2.Enabled, false
TestParameter, AutoAnalysis.Line2.Type, 1
TestParameter, AutoAnalysis.Line2.Fix, True
TestParameter, AutoAnalysis.Line2.YAxis, 0
TestParameter, AutoAnalysis.Line2.Point1.Type, 0
TestParameter, AutoAnalysis.Line2.Point1.XY.X, 
TestParameter, AutoAnalysis.Line2.Point1.XY.Y, 
TestParameter, AutoAnalysis.Line2.Point1.Data.Var, 
TestParameter, AutoAnalysis.Line2.Point1.Data.Condition, 
TestParameter, AutoAnalysis.Line2.Point1.Data.Start, false
TestParameter, AutoAnalysis.Line2.Point1.Data.StartVar, 
TestParameter, AutoAnalysis.Line2.Point1.Data.StartCondition, 
TestParameter, AutoAnalysis.Line2.Point2.Type, 0
TestParameter, AutoAnalysis.Line2.Point2.XY.X, 
TestParameter, AutoAnalysis.Line2.Point2.XY.Y, 
TestParameter, AutoAnalysis.Line2.Point2.Data.Var, 
TestParameter, AutoAnalysis.Line2.Point2.Data.Condition, 
TestParameter, AutoAnalysis.Line2.Point2.Data.Start, false
TestParameter, AutoAnalysis.Line2.Point2.Data.StartVar, 
TestParameter, AutoAnalysis.Line2.Point2.Data.StartCondition, 
TestParameter, AutoAnalysis.Line2.GradientExpr, 0
TestParameter, AutoAnalysis.Marker.Enabled, false
TestParameter, AutoAnalysis.Marker.Data.Var, 
TestParameter, AutoAnalysis.Marker.Data.Condition, 
TestParameter, AutoAnalysis.Marker.Data.Start, false
TestParameter, AutoAnalysis.Marker.Data.StartVar, 
TestParameter, AutoAnalysis.Marker.Data.StartCondition, 
MetaData, TestRecord.EntryPoint, true
MetaData, TestRecord.RecordTime, 01/16/2024 16:05:46
MetaData, TestRecord.TestTarget, P-0.22-0.35-298K
MetaData, TestRecord.IterationIndex, 2
MetaData, TestRecord.Preservation, true
MetaData, TestRecord.Flag, 
MetaData, TestRecord.Remarks, 
MetaData, TestRecord.LinkKey, 0c18e33b-b461-4cb6-b93a-36db722e1ce6
MetaData, TestRecord.Parameters, 
Dimension1, 192, 192, 192, 192, 192, 192, 192, 192, 192, 192
Dimension2, 5, 5, 5, 5, 5, 5, 5, 5, 5, 5
DataName, Vg, Vbg, Vd, Id, Ig, Is, Ibg, gm, absId, Ib
DataValue, -2.1, -2, 3.3000000000000003, 1.58935E-07, -4.72E-13, -1.5930000000000002E-12, -1.007E-12, -4.3733333333332269E-08, 1.58935E-07, 
DataValue, -2.07, -2, 3.3000000000000003, 1.57623E-07, -3.52E-13, -1.4740000000000002E-12, -1.023E-12, -3.2799999999999665E-08, 1.57623E-07, 
DataValue, -2.04, -2, 3.3000000000000003, 1.56967E-07, -3.0200000000000003E-13, -1.4740000000000002E-12, -9.52E-13, -5.1500000000001379E-09, 1.56967E-07, 
DataValue, -2.0100000000000002, -2, 3.3000000000000003, 1.57314E-07, -2.67E-13, -1.4760000000000002E-12, -8.6300000000000006E-13, 1.0283333333333073E-08, 1.57314E-07, 
DataValue, -1.98, -2, 3.3000000000000003, 1.57584E-07, -3.38E-13, -1.4220000000000002E-12, -9.4E-13, -9.9333333333335215E-09, 1.57584E-07, 
DataValue, -1.95, -2, 3.3000000000000003, 1.56718E-07, -2.43E-13, -1.435E-12, -9.1800000000000013E-13, -9.9333333333331179E-09, 1.56718E-07, 
DataValue, -1.92, -2, 3.3000000000000003, 1.56988E-07, -2.4100000000000003E-13, -1.446E-12, -8.26E-13, 9.1000000000001973E-09, 1.56988E-07, 
DataValue, -1.8900000000000001, -2, 3.3000000000000003, 1.57264E-07, -2.06E-13, -1.356E-12, -9.38E-13, 1.3949999999999976E-08, 1.57264E-07, 
DataValue, -1.86, -2, 3.3000000000000003, 1.57825E-07, -1.58E-13, -1.4530000000000002E-12, -8.3900000000000006E-13, 1.32666666666667E-08, 1.57825E-07, 
DataValue, -1.83, -2, 3.3000000000000003, 1.5806E-07, -2.4000000000000004E-13, -1.435E-12, -8E-13, -7.66666666666653E-10, 1.5806E-07, 
DataValue, -1.8, -2, 3.3000000000000003, 1.57779E-07, -2.0200000000000002E-13, -1.3940000000000001E-12, -9.21E-13, -4.0000000000001206E-10, 1.57779E-07, 
DataValue, -1.77, -2, 3.3000000000000003, 1.58036E-07, -1.4E-13, -1.5260000000000002E-12, -6.83E-13, 1.5666666666666771E-08, 1.58036E-07, 
DataValue, -1.74, -2, 3.3000000000000003, 1.58719E-07, -5.0000000000000008E-15, -1.4570000000000002E-12, -8.3400000000000008E-13, 2.226666666666675E-08, 1.58719E-07, 
DataValue, -1.71, -2, 3.3000000000000003, 1.59372E-07, -1.2600000000000002E-13, -1.5430000000000002E-12, -8.3700000000000007E-13, 1.2383333333333247E-08, 1.59372E-07, 
DataValue, -1.68, -2, 3.3000000000000003, 1.59462E-07, -8.9000000000000012E-14, -1.452E-12, -9.51E-13, -1.8216666666667081E-08, 1.59462E-07, 
DataValue, -1.6500000000000001, -2, 3.3000000000000003, 1.5827899999999998E-07, -2.18E-13, -1.3650000000000001E-12, -8.19E-13, -2.0733333333333519E-08, 1.5827899999999998E-07, 
DataValue, -1.62, -2, 3.3000000000000003, 1.58218E-07, -1.29E-13, -1.5180000000000002E-12, -8.26E-13, -2.4133333333332884E-08, 1.58218E-07, 
DataValue, -1.59, -2, 3.3000000000000003, 1.56831E-07, -1.0500000000000001E-13, -1.448E-12, -8.3400000000000008E-13, -1.4533333333333477E-08, 1.56831E-07, 
DataValue, -1.56, -2, 3.3000000000000003, 1.5734599999999999E-07, -1.3700000000000002E-13, -1.418E-12, -8.770000000000001E-13, 7.2166666666664616E-09, 1.5734599999999999E-07, 
DataValue, -1.53, -2, 3.3000000000000003, 1.57264E-07, -1.0400000000000001E-13, -1.441E-12, -9.1600000000000014E-13, -2.483333333333059E-09, 1.57264E-07, 
DataValue, -1.5, -2, 3.3000000000000003, 1.57197E-07, -1.4500000000000001E-13, -1.4950000000000002E-12, -9.38E-13, 1.6000000000000482E-09, 1.57197E-07, 
DataValue, -1.47, -2, 3.3000000000000003, 1.5736E-07, -1.57E-13, -1.4570000000000002E-12, -8.43E-13, 1.3333333333330793E-09, 1.5736E-07, 
DataValue, -1.44, -2, 3.3000000000000003, 1.5727699999999999E-07, -1.6000000000000003E-13, -1.51E-12, -9.11E-13, 3.0499999999999264E-09, 1.5727699999999999E-07, 
DataValue, -1.41, -2, 3.3000000000000003, 1.57543E-07, -9.0000000000000008E-14, -1.4470000000000002E-12, -8.89E-13, 9.1166666666668823E-09, 1.57543E-07, 
DataValue, -1.3800000000000001, -2, 3.3000000000000003, 1.57824E-07, -1.4300000000000002E-13, -1.4430000000000002E-12, -8.9900000000000011E-13, 2.4500000000001382E-09, 1.57824E-07, 
DataValue, -1.35, -2, 3.3000000000000003, 1.5769E-07, -1.3100000000000002E-13, -1.5360000000000001E-12, -8.9900000000000011E-13, 1.4499999999998782E-09, 1.5769E-07, 
DataValue, -1.32, -2, 3.3000000000000003, 1.57911E-07, -7.8000000000000008E-14, -1.41E-12, -8.71E-13, 5.9166666666667527E-09, 1.57911E-07, 
DataValue, -1.29, -2, 3.3000000000000003, 1.58045E-07, -1.1400000000000002E-13, -1.4530000000000002E-12, -9.74E-13, -1.1249999999999954E-08, 1.58045E-07, 
DataValue, -1.26, -2, 3.3000000000000003, 1.57236E-07, -9.7E-14, -1.7050000000000001E-12, -7.24E-13, -1.1166666666670495E-09, 1.57236E-07, 
DataValue, -1.23, -2, 3.3000000000000003, 1.57978E-07, -1.47E-13, -1.4010000000000002E-12, -8.23E-13, 1.3066666666666913E-08, 1.57978E-07, 
DataValue, -1.2, -2, 3.3000000000000003, 1.5802E-07, -7E-14, -1.4920000000000001E-12, -8.5000000000000011E-13, -5.4999999999974085E-10, 1.5802E-07, 
DataValue, -1.17, -2, 3.3000000000000003, 1.57945E-07, -8.7000000000000008E-14, -1.5280000000000002E-12, -7.75E-13, -1.4100000000000146E-08, 1.57945E-07, 
DataValue, -1.1400000000000001, -2, 3.3000000000000003, 1.57174E-07, -4.6000000000000006E-14, -1.464E-12, -8.8600000000000006E-13, 2.0099999999999909E-08, 1.57174E-07, 
DataValue, -1.11, -2, 3.3000000000000003, 1.59151E-07, -1.54E-13, -1.3500000000000001E-12, -8.47E-13, 3.4899999999999836E-08, 1.59151E-07, 
DataValue, -1.08, -2, 3.3000000000000003, 1.59268E-07, 2.0400000000000001E-13, -1.458E-12, -7.77E-13, 3.36333333333335E-08, 1.59268E-07, 
DataValue, -1.05, -2, 3.3000000000000003, 1.61169E-07, -8.5E-14, -1.55E-12, -7.6100000000000009E-13, 3.2616666666666565E-08, 1.61169E-07, 
DataValue, -1.02, -2, 3.3000000000000003, 1.61225E-07, -2.2900000000000003E-13, -1.3110000000000002E-12, -9.17E-13, -4.6666666666666605E-09, 1.61225E-07, 
DataValue, -0.99, -2, 3.3000000000000003, 1.60889E-07, -1.3200000000000002E-13, -1.297E-12, -8.6400000000000005E-13, -4.1333333333331636E-09, 1.60889E-07, 
DataValue, -0.96, -2, 3.3000000000000003, 1.60977E-07, -1.8000000000000002E-14, -1.5010000000000002E-12, -7.7000000000000005E-13, 6.4333333333331345E-09, 1.60977E-07, 
DataValue, -0.93, -2, 3.3000000000000003, 1.61275E-07, -7E-14, -1.429E-12, -7.72E-13, 5.33333333333321E-09, 1.61275E-07, 
DataValue, -0.9, -2, 3.3000000000000003, 1.61297E-07, -9.1E-14, -1.4760000000000002E-12, -8.540000000000001E-13, 6.3833333333335071E-09, 1.61297E-07, 
DataValue, -0.87, -2, 3.3000000000000003, 1.61658E-07, -1.8000000000000002E-14, -1.406E-12, -7E-13, 2.7833333333333988E-09, 1.61658E-07, 
DataValue, -0.84, -2, 3.3000000000000003, 1.61464E-07, -2.8E-14, -1.4930000000000002E-12, -7.98E-13, -1.0550000000000061E-08, 1.61464E-07, 
DataValue, -0.81, -2, 3.3000000000000003, 1.61025E-07, -5.1000000000000004E-14, -1.481E-12, -7.71E-13, -8.9333333333333256E-09, 1.61025E-07, 
DataValue, -0.78, -2, 3.3000000000000003, 1.60928E-07, -3.6000000000000004E-14, -1.4740000000000002E-12, -8.1100000000000008E-13, -1.0000000000002507E-09, 1.60928E-07, 
DataValue, -0.75, -2, 3.3000000000000003, 1.6096499999999999E-07, -3.4E-14, -1.6390000000000002E-12, -5.21E-13, 9.4000000000000627E-09, 1.6096499999999999E-07, 
DataValue, -0.72, -2, 3.3000000000000003, 1.61492E-07, 7.6E-14, -1.5510000000000002E-12, -4.89E-13, 5.2550000000000083E-08, 1.61492E-07, 
DataValue, -0.69000000000000006, -2, 3.3000000000000003, 1.64118E-07, -5.8E-14, -1.4320000000000002E-12, -8.8300000000000007E-13, 3.6950000000000023E-08, 1.64118E-07, 
DataValue, -0.66, -2, 3.3000000000000003, 1.63709E-07, 7E-14, -1.393E-12, -7.2000000000000006E-13, -1.4766666666666634E-08, 1.63709E-07, 
DataValue, -0.63, -2, 3.3000000000000003, 1.63232E-07, -1.06E-13, -1.4450000000000002E-12, -7.09E-13, -1.8999999999999471E-09, 1.63232E-07, 
DataValue, -0.6, -2, 3.3000000000000003, 1.63595E-07, -9.4E-14, -1.3190000000000001E-12, -7.9100000000000006E-13, 8.43333333333364E-09, 1.63595E-07, 
DataValue, -0.57000000000000006, -2, 3.3000000000000003, 1.63738E-07, 3.8E-14, -1.5470000000000002E-12, -7.100000000000001E-13, 9.3333333333333375E-09, 1.63738E-07, 
DataValue, -0.54, -2, 3.3000000000000003, 1.64155E-07, -5.4000000000000003E-14, -1.4880000000000001E-12, -7.830000000000001E-13, 8.083333333333227E-09, 1.64155E-07, 
DataValue, -0.51, -2, 3.3000000000000003, 1.64223E-07, -9.1E-14, -1.3840000000000002E-12, -8.5600000000000009E-13, -2.8000000000000842E-09, 1.64223E-07, 
DataValue, -0.48, -2, 3.3000000000000003, 1.63987E-07, -2.7000000000000002E-14, -1.6550000000000001E-12, -8.8100000000000008E-13, -2.1066666666666733E-08, 1.63987E-07, 
DataValue, -0.45, -2, 3.3000000000000003, 1.62959E-07, 3.8E-14, -1.5130000000000001E-12, -8.3600000000000007E-13, -8.3000000000001471E-09, 1.62959E-07, 
DataValue, -0.42, -2, 3.3000000000000003, 1.63489E-07, -9.0000000000000011E-15, -1.433E-12, -8.19E-13, 5.0499999999999915E-09, 1.63489E-07, 
DataValue, -0.39, -2, 3.3000000000000003, 1.63262E-07, 9.7E-14, -1.416E-12, -8.44E-13, -7.9833333333331219E-09, 1.63262E-07, 
DataValue, -0.36, -2, 3.3000000000000003, 1.6301E-07, 3.2E-14, -1.433E-12, -7.9000000000000007E-13, 2.6666666666666025E-09, 1.6301E-07, 
DataValue, -0.33, -2, 3.3000000000000003, 1.63422E-07, -4.8000000000000004E-14, -1.3550000000000002E-12, -8.44E-13, 3.3499999999998282E-09, 1.63422E-07, 
DataValue, -0.3, -2, 3.3000000000000003, 1.63211E-07, 2.2E-14, -1.412E-12, -7.6700000000000006E-13, -2.5666666666664891E-09, 1.63211E-07, 
DataValue, -0.27, -2, 3.3000000000000003, 1.63268E-07, 5.9E-14, -1.387E-12, -8.1500000000000006E-13, -1.0999999999999238E-09, 1.63268E-07, 
DataValue, -0.24, -2, 3.3000000000000003, 1.63145E-07, -8.5E-14, -1.385E-12, -8.3300000000000009E-13, 7.1333333333330366E-09, 1.63145E-07, 
DataValue, -0.21, -2, 3.3000000000000003, 1.6369599999999999E-07, -1.0500000000000001E-13, -1.341E-12, -6.880000000000001E-13, 1.4316666666666578E-08, 1.6369599999999999E-07, 
DataValue, -0.18, -2, 3.3000000000000003, 1.64004E-07, 1.7E-14, -1.4170000000000001E-12, -9.010000000000001E-13, -1.081666666666658E-08, 1.64004E-07, 
DataValue, -0.15, -2, 3.3000000000000003, 1.63047E-07, -7.2000000000000009E-14, -1.5010000000000002E-12, -7.4400000000000006E-13, -6.79999999999977E-09, 1.63047E-07, 
DataValue, -0.12, -2, 3.3000000000000003, 1.63596E-07, 3.6000000000000004E-14, -1.527E-12, -8.1400000000000007E-13, 6.4500000000002555E-09, 1.63596E-07, 
DataValue, -0.09, -2, 3.3000000000000003, 1.63434E-07, 1.36E-13, -1.4550000000000002E-12, -7.74E-13, 1.6666666666685566E-11, 1.63434E-07, 
DataValue, -0.06, -2, 3.3000000000000003, 1.63597E-07, 5.8E-14, -1.471E-12, -8.070000000000001E-13, 8.5333333333333039E-09, 1.63597E-07, 
DataValue, -0.03, -2, 3.3000000000000003, 1.63946E-07, 1.28E-13, -1.4650000000000001E-12, -4.91E-13, 2.5549999999999855E-08, 1.63946E-07, 
DataValue, 0, -2, 3.3000000000000003, 1.6513E-07, -1E-15, -1.431E-12, -7.4100000000000007E-13, 2.1899999999999687E-08, 1.6513E-07, 
DataValue, 0.03, -2, 3.3000000000000003, 1.6525999999999999E-07, 8.4000000000000008E-14, -2.085E-12, -6.6600000000000009E-13, -2.1950000000000187E-08, 1.6525999999999999E-07, 
DataValue, 0.06, -2, 3.3000000000000003, 1.6381299999999999E-07, 2.43E-13, -1.6410000000000002E-12, -8.6400000000000005E-13, -6.9333333333332548E-09, 1.6381299999999999E-07, 
DataValue, 0.09, -2, 3.3000000000000003, 1.64844E-07, 1.0000000000000002E-14, -1.73E-12, -9.1200000000000015E-13, -6.9333333333332548E-09, 1.64844E-07, 
DataValue, 0.12, -2, 3.3000000000000003, 1.63397E-07, 7.8000000000000008E-14, -1.466E-12, -8.5600000000000009E-13, -3.1566666666666731E-08, 1.63397E-07, 
DataValue, 0.15, -2, 3.3000000000000003, 1.6294999999999999E-07, 4.1900000000000003E-13, -1.41E-12, -7.6400000000000008E-13, 1.2133333333333416E-08, 1.6294999999999999E-07, 
DataValue, 0.18, -2, 3.3000000000000003, 1.64125E-07, -1.3000000000000001E-14, -1.3940000000000001E-12, -5.9700000000000008E-13, 1.6200000000000284E-08, 1.64125E-07, 
DataValue, 0.21, -2, 3.3000000000000003, 1.63922E-07, -6.0000000000000009E-14, -1.2960000000000001E-12, -8.1600000000000006E-13, 5.3333333333332049E-09, 1.63922E-07, 
DataValue, 0.24, -2, 3.3000000000000003, 1.64445E-07, -1.34E-13, -1.3920000000000001E-12, -8.1500000000000006E-13, 7.1666666666664082E-09, 1.64445E-07, 
DataValue, 0.27, -2, 3.3000000000000003, 1.64352E-07, 4.6000000000000006E-14, -1.579E-12, -6.12E-13, -1.3333333333330806E-09, 1.64352E-07, 
DataValue, 0.3, -2, 3.3000000000000003, 1.64365E-07, 4.7E-14, -1.552E-12, -6.76E-13, 1.1166666666666095E-09, 1.64365E-07, 
DataValue, 0.33, -2, 3.3000000000000003, 1.6441899999999999E-07, 9.0000000000000011E-15, -1.4280000000000002E-12, -7.6800000000000006E-13, -1.1166666666666095E-09, 1.6441899999999999E-07, 
DataValue, 0.36, -2, 3.3000000000000003, 1.64298E-07, 1.48E-13, -1.3900000000000001E-12, -8.3100000000000009E-13, -2.0999999999997343E-09, 1.64298E-07, 
DataValue, 0.39, -2, 3.3000000000000003, 1.64293E-07, 6.1E-14, -1.312E-12, -8.89E-13, -1.3166666666668362E-09, 1.64293E-07, 
DataValue, 0.42, -2, 3.3000000000000003, 1.64219E-07, 2.7000000000000002E-14, -1.4930000000000002E-12, -7.75E-13, -4.5333333333336213E-09, 1.64219E-07, 
DataValue, 0.45, -2, 3.3000000000000003, 1.6402099999999998E-07, 5.4000000000000003E-14, -1.652E-12, -7.8100000000000011E-13, -1.568333333333347E-08, 1.6402099999999998E-07, 
