
SetupTitle, PMOS-id-vd-vgs@vbs=0
PrimitiveTest, I/V Sweep
TestParameter, Context.MainFrame, B1500A
TestParameter, Channel.UnitType, SMU, SMU, SMU, SMU
TestParameter, Channel.Unit, SMU2:HR, SMU1:HR, SMU3:HR, SMU4:HR
TestParameter, Channel.IName, ib, is, ig, id
TestParameter, Channel.VName, vb, vs, vg, vd
TestParameter, Channel.Mode, V, COMMON, V, V
TestParameter, Channel.Func, CONST, CONST, VAR2, VAR1
TestParameter, Channel.Index, 
TestParameter, Channel.Time, 
TestParameter, Measurement.Port.Unit, SMU2:HR, SMU1:HR, SMU3:HR, SMU4:HR
TestParameter, Measurement.Port.SeriesResistor, NONE, NONE, NONE, NONE
TestParameter, Measurement.Port.Filter, ON, ON, ON, ON
TestParameter, Measurement.Port.OutputVoltageComparison, 0, 0, 0, 0
TestParameter, Measurement.Primary.Locus, Single
TestParameter, Measurement.Primary.Scale, LINEAR
TestParameter, Measurement.Primary.Start, 0
TestParameter, Measurement.Primary.Stop, -3.3000000000000003
TestParameter, Measurement.Primary.Step, -0.01
TestParameter, Measurement.Primary.Compliance, 0.1
TestParameter, Measurement.Primary.PowerCompliance, 0
TestParameter, Measurement.Aborting.Condition, SKIP AT ANY ABNORMAL
TestParameter, Measurement.PostOutput.Value, START
TestParameter, Measurement.PostOutput.Retention, OFF
TestParameter, Measurement.Secondary.Start, -0.3
TestParameter, Measurement.Secondary.Count, 6
TestParameter, Measurement.Secondary.Step, -0.6
TestParameter, Measurement.Secondary.Compliance, 0.1
TestParameter, Measurement.Secondary.PowerCompliance, 0
TestParameter, Measurement.Bias.Source, 0, 0, -0.3, 0
TestParameter, Measurement.Bias.Compliance, 0.1, 0.1, 0.1, 0.1
TestParameter, Measurement.Monitor.Unit, SMU2:HR, SMU1:HR, SMU3:HR, SMU4:HR
TestParameter, Measurement.Monitor.Adc, HR ADC, HR ADC, HR ADC, HR ADC
TestParameter, Measurement.Monitor.Measurement, Compliance Side, Compliance Side, Compliance Side, Compliance Side
TestParameter, Measurement.Monitor.RangingMode, LIMITED, LIMITED, LIMITED, LIMITED
TestParameter, Measurement.Monitor.RangeBoundary, 1nA, 1nA, 1nA, 1nA
TestParameter, Measurement.Monitor.RangeRating, BY FULL RANGE, BY FULL RANGE, BY FULL RANGE, BY FULL RANGE
TestParameter, Measurement.Monitor.RangeRatingCoeff, 50, 50, 50, 50
TestParameter, Measurement.Timing.Hold, 0
TestParameter, Measurement.Timing.Delay, 0
TestParameter, Measurement.Adc.HighSpeed.Mode, AUTO
TestParameter, Measurement.Adc.HighSpeed.Coeff, 1
TestParameter, Measurement.Adc.HighResolution.AutoZero, OFF
TestParameter, Measurement.Adc.HighResolution.Mode, AUTO
TestParameter, Measurement.Adc.HighResolution.Coeff, 6
TestParameter, Measurement.WaitTime.Source.Coeff, 1
TestParameter, Measurement.WaitTime.Source.Offset, 0
TestParameter, Measurement.WaitTime.Monitor.Coeff, 1
TestParameter, Measurement.WaitTime.Monitor.Offset, 0
TestParameter, Output.Graph.Enabled, true
TestParameter, Output.Graph.AutoScaling, false
TestParameter, Output.Graph.XAxis.Data, vd
TestParameter, Output.Graph.XAxis.Scale, Linear
TestParameter, Output.Graph.XAxis.Left, 0
TestParameter, Output.Graph.XAxis.Right, 1
TestParameter, Output.Graph.XAxis.RunTimeAutoScale, true
TestParameter, Output.Graph.YAxis.Data, id
TestParameter, Output.Graph.YAxis.Scale, Linear
TestParameter, Output.Graph.YAxis.Bottom, -0.1
TestParameter, Output.Graph.YAxis.Top, 0.1
TestParameter, Output.Graph.YAxis.Group, 
TestParameter, Output.Graph.YAxis.RunTimeAutoScale, true
TestParameter, AutoAnalysis.Interpolation, false
TestParameter, AutoAnalysis.Var2StepCount, 1
TestParameter, AutoAnalysis.Var2StepScript, 
TestParameter, AutoAnalysis.Line1.Enabled, false
TestParameter, AutoAnalysis.Line1.Type, 1
TestParameter, AutoAnalysis.Line1.Fix, True
TestParameter, AutoAnalysis.Line1.YAxis, 0
TestParameter, AutoAnalysis.Line1.Point1.Type, 0
TestParameter, AutoAnalysis.Line1.Point1.XY.X, 
TestParameter, AutoAnalysis.Line1.Point1.XY.Y, 
TestParameter, AutoAnalysis.Line1.Point1.Data.Var, 
TestParameter, AutoAnalysis.Line1.Point1.Data.Condition, 
TestParameter, AutoAnalysis.Line1.Point1.Data.Start, false
TestParameter, AutoAnalysis.Line1.Point1.Data.StartVar, 
TestParameter, AutoAnalysis.Line1.Point1.Data.StartCondition, 
TestParameter, AutoAnalysis.Line1.Point2.Type, 0
TestParameter, AutoAnalysis.Line1.Point2.XY.X, 
TestParameter, AutoAnalysis.Line1.Point2.XY.Y, 
TestParameter, AutoAnalysis.Line1.Point2.Data.Var, 
TestParameter, AutoAnalysis.Line1.Point2.Data.Condition, 
TestParameter, AutoAnalysis.Line1.Point2.Data.Start, false
TestParameter, AutoAnalysis.Line1.Point2.Data.StartVar, 
TestParameter, AutoAnalysis.Line1.Point2.Data.StartCondition, 
TestParameter, AutoAnalysis.Line1.GradientExpr, 0
TestParameter, AutoAnalysis.Line2.Enabled, false
TestParameter, AutoAnalysis.Line2.Type, 1
TestParameter, AutoAnalysis.Line2.Fix, True
TestParameter, AutoAnalysis.Line2.YAxis, 0
TestParameter, AutoAnalysis.Line2.Point1.Type, 0
TestParameter, AutoAnalysis.Line2.Point1.XY.X, 
TestParameter, AutoAnalysis.Line2.Point1.XY.Y, 
TestParameter, AutoAnalysis.Line2.Point1.Data.Var, 
TestParameter, AutoAnalysis.Line2.Point1.Data.Condition, 
TestParameter, AutoAnalysis.Line2.Point1.Data.Start, false
TestParameter, AutoAnalysis.Line2.Point1.Data.StartVar, 
TestParameter, AutoAnalysis.Line2.Point1.Data.StartCondition, 
TestParameter, AutoAnalysis.Line2.Point2.Type, 0
TestParameter, AutoAnalysis.Line2.Point2.XY.X, 
TestParameter, AutoAnalysis.Line2.Point2.XY.Y, 
TestParameter, AutoAnalysis.Line2.Point2.Data.Var, 
TestParameter, AutoAnalysis.Line2.Point2.Data.Condition, 
TestParameter, AutoAnalysis.Line2.Point2.Data.Start, false
TestParameter, AutoAnalysis.Line2.Point2.Data.StartVar, 
TestParameter, AutoAnalysis.Line2.Point2.Data.StartCondition, 
TestParameter, AutoAnalysis.Line2.GradientExpr, 0
TestParameter, AutoAnalysis.Marker.Enabled, false
TestParameter, AutoAnalysis.Marker.Data.Var, 
TestParameter, AutoAnalysis.Marker.Data.Condition, 
TestParameter, AutoAnalysis.Marker.Data.Start, false
TestParameter, AutoAnalysis.Marker.Data.StartVar, 
TestParameter, AutoAnalysis.Marker.Data.StartCondition, 
MetaData, TestRecord.EntryPoint, true
MetaData, TestRecord.RecordTime, 01/16/2024 16:03:08
MetaData, TestRecord.TestTarget, P-0.22-0.35-298K
MetaData, TestRecord.IterationIndex, 2
MetaData, TestRecord.Preservation, true
MetaData, TestRecord.Flag, 
MetaData, TestRecord.Remarks, 
MetaData, TestRecord.LinkKey, 7106b9ec-90eb-4079-9330-66fe7f81155e
MetaData, TestRecord.Parameters, 
Dimension1, 331, 331
Dimension2, 6, 6
DataName, vd, id
DataValue, 0, -4.0000000000000006E-14
DataValue, -0.01, -5.1500000000000005E-12
DataValue, -0.02, 4.7E-13
DataValue, -0.03, -7.0300000000000005E-12
DataValue, -0.04, 1.3500000000000001E-12
DataValue, -0.05, -9.13E-12
DataValue, -0.06, 2.46E-12
DataValue, -0.07, -1.0920000000000001E-11
DataValue, -0.08, 3.6400000000000006E-12
DataValue, -0.09, -1.181E-11
DataValue, -0.1, 4.0500000000000007E-12
DataValue, -0.11, -1.201E-11
DataValue, -0.12, 4.2500000000000007E-12
DataValue, -0.13, -1.1830000000000001E-11
DataValue, -0.14, 3.2E-12
DataValue, -0.15, -1.0440000000000002E-11
DataValue, -0.16, 2.16E-12
DataValue, -0.17, -8.63E-12
DataValue, -0.18, 3.3200000000000004E-12
DataValue, -0.19, -1.1110000000000001E-11
DataValue, -0.2, 2E-12
DataValue, -0.21, -9.37E-12
DataValue, -0.22, 8.0000000000000013E-14
DataValue, -0.23, -6.0700000000000006E-12
DataValue, -0.24, -3.1600000000000003E-12
DataValue, -0.25, -4.52E-12
DataValue, -0.26, -3.77E-12
DataValue, -0.27, -4.2900000000000005E-12
DataValue, -0.28, -3.92E-12
DataValue, -0.29, -4.03E-12
DataValue, -0.3, -3.9800000000000004E-12
DataValue, -0.31, -4.17E-12
DataValue, -0.32, -4.4500000000000006E-12
DataValue, -0.33, -3.67E-12
DataValue, -0.34, -4.5500000000000006E-12
DataValue, -0.35000000000000003, -3.3400000000000003E-12
DataValue, -0.36, -4.9000000000000005E-12
DataValue, -0.37, -2.5300000000000003E-12
DataValue, -0.38, -6.25E-12
DataValue, -0.39, -8.8000000000000009E-13
DataValue, -0.4, -7.5900000000000014E-12
DataValue, -0.41000000000000003, 8.1000000000000008E-13
DataValue, -0.42, -9.6900000000000009E-12
DataValue, -0.43, 2.42E-12
DataValue, -0.44, -1.1140000000000001E-11
DataValue, -0.45, 3.71E-12
DataValue, -0.46, -1.191E-11
DataValue, -0.47000000000000003, 4.01E-12
DataValue, -0.48, -1.1920000000000001E-11
DataValue, -0.49, 3.6400000000000006E-12
DataValue, -0.5, -1.1410000000000001E-11
DataValue, -0.51, 2.1200000000000003E-12
DataValue, -0.52, -9.5100000000000013E-12
DataValue, -0.53, -1.0000000000000002E-14
DataValue, -0.54, -6.1600000000000004E-12
DataValue, -0.55, -2.62E-12
DataValue, -0.56, -5.3000000000000004E-12
DataValue, -0.57000000000000006, -3.82E-12
DataValue, -0.58, -4.2400000000000005E-12
DataValue, -0.59, -3.6800000000000005E-12
DataValue, -0.6, -4.33E-12
DataValue, -0.61, -3.91E-12
DataValue, -0.62, -4.11E-12
DataValue, -0.63, -4.47E-12
DataValue, -0.64, -3.5700000000000003E-12
DataValue, -0.65, -5.04E-12
DataValue, -0.66, -2.7800000000000003E-12
DataValue, -0.67, -5.6E-12
DataValue, -0.68, -1.79E-12
DataValue, -0.69000000000000006, -6.9000000000000009E-12
DataValue, -0.70000000000000007, 0
DataValue, -0.71, -8.8800000000000009E-12
DataValue, -0.72, 1.13E-12
DataValue, -0.73, -1.0220000000000001E-11
DataValue, -0.74, 2.8900000000000004E-12
DataValue, -0.75, -1.1320000000000001E-11
DataValue, -0.76, 3.8E-12
DataValue, -0.77, -1.1450000000000002E-11
DataValue, -0.78, 3.86E-12
DataValue, -0.79, -1.2E-11
DataValue, -0.8, 4.21E-12
DataValue, -0.81, -1.2260000000000002E-11
DataValue, -0.82000000000000006, 3.7300000000000005E-12
DataValue, -0.83000000000000007, -1.1950000000000001E-11
DataValue, -0.84, 3.4000000000000005E-12
DataValue, -0.85, -1.117E-11
DataValue, -0.86, 2.28E-12
DataValue, -0.87, -9.5200000000000014E-12
DataValue, -0.88, 9.0000000000000008E-14
DataValue, -0.89, -7.43E-12
DataValue, -0.9, -2.31E-12
DataValue, -0.91, -5.54E-12
DataValue, -0.92, -3.33E-12
DataValue, -0.93, -4.18E-12
DataValue, -0.94000000000000006, -3.6400000000000006E-12
DataValue, -0.95000000000000007, -4.37E-12
DataValue, -0.96, -4.1000000000000007E-12
DataValue, -0.97, -4.38E-12
DataValue, -0.98, -4.21E-12
DataValue, -0.99, -4.2000000000000007E-12
DataValue, -1, -4.5400000000000004E-12
DataValue, -1.01, -3.6800000000000005E-12
DataValue, -1.02, -4.94E-12
DataValue, -1.03, -3.0400000000000004E-12
DataValue, -1.04, -6E-12
DataValue, -1.05, -2.1200000000000003E-12
DataValue, -1.06, -7.43E-12
DataValue, -1.07, -3.2000000000000005E-13
DataValue, -1.08, -8.5900000000000012E-12
DataValue, -1.09, 8.2E-13
DataValue, -1.1, -9.8300000000000015E-12
DataValue, -1.11, 1.98E-12
DataValue, -1.12, -1.119E-11
DataValue, -1.1300000000000001, 3.4200000000000004E-12
DataValue, -1.1400000000000001, -1.2270000000000002E-11
DataValue, -1.1500000000000001, 3.3400000000000003E-12
DataValue, -1.16, -1.198E-11
DataValue, -1.17, 3.8900000000000006E-12
DataValue, -1.18, -1.2020000000000001E-11
DataValue, -1.19, 3.43E-12
DataValue, -1.2, -1.1420000000000001E-11
DataValue, -1.21, 1.91E-12
DataValue, -1.22, -9.77E-12
DataValue, -1.23, 3.0000000000000005E-14
DataValue, -1.24, -7.41E-12
DataValue, -1.25, -2.44E-12
DataValue, -1.26, -5.84E-12
DataValue, -1.27, -3.3200000000000004E-12
DataValue, -1.28, -4.5900000000000004E-12
DataValue, -1.29, -3.7800000000000005E-12
DataValue, -1.3, -4.3500000000000006E-12
DataValue, -1.31, -3.9800000000000004E-12
DataValue, -1.32, -4.1500000000000007E-12
DataValue, -1.33, -4.3000000000000007E-12
DataValue, -1.34, -4.88E-12
DataValue, -1.35, -4.08E-12
DataValue, -1.36, -4.5500000000000006E-12
DataValue, -1.37, -4.27E-12
DataValue, -1.3800000000000001, -4.32E-12
DataValue, -1.3900000000000001, -4.6500000000000006E-12
DataValue, -1.4000000000000001, -3.85E-12
DataValue, -1.41, -4.89E-12
DataValue, -1.42, -3.6000000000000004E-12
DataValue, -1.43, -5.54E-12
DataValue, -1.44, -2.1200000000000003E-12
DataValue, -1.45, -5.48E-12
DataValue, -1.46, -2.9400000000000004E-12
DataValue, -1.47, -5.84E-12
DataValue, -1.48, -2.6600000000000004E-12
DataValue, -1.49, -6.8500000000000009E-12
DataValue, -1.5, -1.0100000000000001E-12
DataValue, -1.51, -8.34E-12
DataValue, -1.52, 9.2000000000000012E-13
DataValue, -1.53, -1.0210000000000001E-11
DataValue, -1.54, 2.1000000000000003E-12
DataValue, -1.55, -1.1450000000000002E-11
DataValue, -1.56, 3.5900000000000003E-12
DataValue, -1.57, -1.2530000000000001E-11
DataValue, -1.58, 4.0500000000000007E-12
DataValue, -1.59, -1.2320000000000001E-11
DataValue, -1.6, 3.63E-12
DataValue, -1.61, -1.198E-11
DataValue, -1.62, 2.0500000000000004E-12
DataValue, -1.6300000000000001, -9.9300000000000015E-12
DataValue, -1.6400000000000001, 1.2000000000000002E-13
DataValue, -1.6500000000000001, -7.1300000000000005E-12
DataValue, -1.6600000000000001, -2.44E-12
DataValue, -1.67, -5.4700000000000007E-12
DataValue, -1.68, -3.4700000000000004E-12
DataValue, -1.69, -4.6600000000000007E-12
DataValue, -1.7, -4.2000000000000007E-12
DataValue, -1.71, -4.32E-12
DataValue, -1.72, -4.23E-12
DataValue, -1.73, -4.6000000000000006E-12
DataValue, -1.74, -4.2500000000000007E-12
DataValue, -1.75, -4.13E-12
DataValue, -1.76, -4.7000000000000006E-12
DataValue, -1.77, -4.5000000000000006E-12
DataValue, -1.78, -4.89E-12
DataValue, -1.79, -3.7800000000000005E-12
DataValue, -1.8, -5.54E-12
DataValue, -1.81, -2.9300000000000002E-12
DataValue, -1.82, -6.2300000000000007E-12
DataValue, -1.83, -1.93E-12
DataValue, -1.84, -8.1000000000000014E-12
DataValue, -1.85, -9.0000000000000008E-14
DataValue, -1.86, -9.900000000000001E-12
DataValue, -1.87, 1.65E-12
DataValue, -1.8800000000000001, -1.118E-11
DataValue, -1.8900000000000001, 2.92E-12
DataValue, -1.9000000000000001, -1.249E-11
DataValue, -1.9100000000000001, 3.6400000000000006E-12
DataValue, -1.92, -1.2070000000000002E-11
DataValue, -1.93, 3.7400000000000006E-12
DataValue, -1.94, -1.2130000000000001E-11
DataValue, -1.95, 3.02E-12
DataValue, -1.96, -1.0300000000000001E-11
DataValue, -1.97, 3.4E-13
DataValue, -1.98, -8.33E-12
DataValue, -1.99, -1.4400000000000001E-12
DataValue, -2, -6.14E-12
DataValue, -2.0100000000000002, -3.9400000000000006E-12
DataValue, -2.02, -4.9500000000000005E-12
DataValue, -2.0300000000000002, -4.3000000000000007E-12
DataValue, -2.04, -4.82E-12
DataValue, -2.05, -4.57E-12
DataValue, -2.06, -4.6100000000000008E-12
DataValue, -2.07, -4.84E-12
DataValue, -2.08, -4.43E-12
DataValue, -2.09, -5.0500000000000005E-12
DataValue, -2.1, -3.96E-12
DataValue, -2.11, -5.58E-12
DataValue, -2.12, -2.92E-12
DataValue, -2.13, -6.7300000000000006E-12
DataValue, -2.14, -1.6200000000000002E-12
DataValue, -2.15, -8.32E-12
DataValue, -2.16, 1.4E-13
DataValue, -2.17, -9.97E-12
DataValue, -2.18, 1.6700000000000002E-12
DataValue, -2.19, -1.1730000000000001E-11
DataValue, -2.2, 3.1900000000000003E-12
DataValue, -2.21, -1.25E-11
DataValue, -2.22, 3.95E-12
DataValue, -2.23, -1.2260000000000002E-11
DataValue, -2.24, 3.1E-12
DataValue, -2.25, -1.2530000000000001E-11
DataValue, -2.2600000000000002, 3.77E-12
DataValue, -2.27, -1.242E-11
DataValue, -2.2800000000000002, 3.43E-12
DataValue, -2.29, -1.2160000000000002E-11
DataValue, -2.3000000000000003, 2.4500000000000003E-12
DataValue, -2.31, -1.1E-11
DataValue, -2.32, 1E-12
DataValue, -2.33, -1.249E-11
DataValue, -2.34, 3.2200000000000004E-12
DataValue, -2.35, -1.2550000000000001E-11
DataValue, -2.36, 3.6800000000000005E-12
DataValue, -2.37, -1.2320000000000001E-11
DataValue, -2.38, 3.18E-12
DataValue, -2.39, -1.116E-11
DataValue, -2.4, 9.2000000000000012E-13
DataValue, -2.41, -8.51E-12
DataValue, -2.42, -1.5800000000000001E-12
DataValue, -2.43, -6.4300000000000007E-12
DataValue, -2.44, -3.58E-12
DataValue, -2.45, -5.8300000000000008E-12
DataValue, -2.46, -2.16E-12
DataValue, -2.47, -5.74E-12
DataValue, -2.48, -4.13E-12
DataValue, -2.49, -5.0100000000000007E-12
DataValue, -2.5, -4.3500000000000006E-12
DataValue, -2.5100000000000002, -5.23E-12
DataValue, -2.52, -4.7600000000000007E-12
DataValue, -2.5300000000000002, -4.6100000000000008E-12
DataValue, -2.54, -4.8600000000000007E-12
DataValue, -2.5500000000000003, -4.2500000000000007E-12
DataValue, -2.56, -5.07E-12
DataValue, -2.57, -4.12E-12
DataValue, -2.58, -5.33E-12
DataValue, -2.59, -3.2200000000000004E-12
DataValue, -2.6, -6.4E-12
DataValue, -2.61, -2.2700000000000002E-12
DataValue, -2.62, -7.51E-12
DataValue, -2.63, -1.1000000000000002E-12
DataValue, -2.64, -8.52E-12
DataValue, -2.65, -4.4000000000000004E-13
DataValue, -2.66, -9.63E-12
DataValue, -2.67, 9.1000000000000016E-13
DataValue, -2.68, -1.149E-11
DataValue, -2.69, 2.54E-12
DataValue, -2.7, -1.2170000000000002E-11
DataValue, -2.71, 3.3700000000000004E-12
DataValue, -2.72, -1.26E-11
DataValue, -2.73, 3.4900000000000003E-12
DataValue, -2.74, -1.2450000000000001E-11
DataValue, -2.75, 2.47E-12
DataValue, -2.7600000000000002, -1.129E-11
DataValue, -2.77, 8.9E-13
DataValue, -2.7800000000000002, -9.44E-12
DataValue, -2.79, -1.31E-12
DataValue, -2.8000000000000003, -6.5200000000000005E-12
DataValue, -2.81, -3.6200000000000003E-12
DataValue, -2.82, -5.7100000000000005E-12
DataValue, -2.83, -4.57E-12
DataValue, -2.84, -5.28E-12
DataValue, -2.85, -4.3500000000000006E-12
DataValue, -2.86, -5.03E-12
DataValue, -2.87, -4.8600000000000007E-12
DataValue, -2.88, -4.5900000000000004E-12
DataValue, -2.89, -5.14E-12
DataValue, -2.9, -2.9100000000000003E-12
DataValue, -2.91, -7.2800000000000013E-12
DataValue, -2.92, -2.03E-12
DataValue, -2.93, -8.64E-12
DataValue, -2.94, -2.2500000000000003E-12
DataValue, -2.95, -7.54E-12
DataValue, -2.96, -1.26E-12
DataValue, -2.97, -9.15E-12
DataValue, -2.98, 4.4000000000000004E-13
DataValue, -2.99, -1.039E-11
DataValue, -3, 1.69E-12
DataValue, -3.0100000000000002, -1.179E-11
DataValue, -3.02, 3.1200000000000004E-12
DataValue, -3.0300000000000002, -1.291E-11
DataValue, -3.04, 2.75E-12
DataValue, -3.0500000000000003, -1.282E-11
DataValue, -3.06, 3.1E-12
DataValue, -3.0700000000000003, -1.28E-11
DataValue, -3.08, 3.1200000000000004E-12
DataValue, -3.09, -1.2780000000000002E-11
DataValue, -3.1, 2.85E-12
DataValue, -3.11, -1.181E-11
DataValue, -3.12, 1.02E-12
DataValue, -3.13, -9.4100000000000013E-12
DataValue, -3.14, -1.4300000000000002E-12
DataValue, -3.15, -6.7300000000000006E-12
DataValue, -3.16, -3.6200000000000003E-12
DataValue, -3.17, -5.5700000000000007E-12
DataValue, -3.18, -4.5400000000000004E-12
DataValue, -3.19, -5.04E-12
DataValue, -3.2, -4.4400000000000005E-12
DataValue, -3.21, -5.04E-12
DataValue, -3.22, -4.79E-12
DataValue, -3.23, -4.7500000000000006E-12
DataValue, -3.24, -5.4000000000000004E-12
DataValue, -3.25, -3.72E-12
DataValue, -3.2600000000000002, -6.15E-12
DataValue, -3.27, -3.3700000000000004E-12
DataValue, -3.2800000000000002, -6.8700000000000004E-12
DataValue, -3.29, -2.3200000000000002E-12
DataValue, -3.3000000000000003, -7.9600000000000008E-12
DataValue, 0, 7.3624E-10
DataValue, -0.01, -5.2151199999999993E-08
DataValue, -0.02, -9.8949799999999985E-08
DataValue, -0.03, -1.413E-07
DataValue, -0.04, -1.801E-07
DataValue, -0.05, -2.1424E-07
DataValue, -0.06, -2.4508E-07
DataValue, -0.07, -2.7212E-07
DataValue, -0.08, -2.964E-07
DataValue, -0.09, -3.1746E-07
DataValue, -0.1, -3.3592E-07
DataValue, -0.11, -3.5198E-07
DataValue, -0.12, -3.6536E-07
DataValue, -0.13, -3.7742E-07
DataValue, -0.14, -3.8718E-07
DataValue, -0.15, -3.9622E-07
DataValue, -0.16, -4.0348E-07
DataValue, -0.17, -4.0955999999999997E-07
DataValue, -0.18, -4.1458E-07
DataValue, -0.19, -4.1864E-07
DataValue, -0.2, -4.222E-07
DataValue, -0.21, -4.2564E-07
DataValue, -0.22, -4.2855999999999997E-07
DataValue, -0.23, -4.3026E-07
DataValue, -0.24, -4.3247999999999997E-07
DataValue, -0.25, -4.3436E-07
DataValue, -0.26, -4.3666E-07
DataValue, -0.27, -4.37E-07
DataValue, -0.28, -4.3858E-07
DataValue, -0.29, -4.394E-07
DataValue, -0.3, -4.3984E-07
DataValue, -0.31, -4.4072E-07
DataValue, -0.32, -4.4202E-07
DataValue, -0.33, -4.4293999999999997E-07
DataValue, -0.34, -4.4356E-07
DataValue, -0.35000000000000003, -4.4447999999999997E-07
DataValue, -0.36, -4.4482E-07
DataValue, -0.37, -4.4572E-07
DataValue, -0.38, -4.468E-07
DataValue, -0.39, -4.4748E-07
