
SetupTitle, idvg3.3
PrimitiveTest, I/V Sweep
TestParameter, Context.MainFrame, B1500A
TestParameter, Channel.UnitType, SMU, SMU, SMU, SMU
TestParameter, Channel.Unit, SMU2:HR, SMU1:HR, SMU3:HR, SMU4:HR
TestParameter, Channel.IName, Id, Ig, Is, Ibg
TestParameter, Channel.VName, Vd, Vg, Vs, Vbg
TestParameter, Channel.Mode, V, V, V, V
TestParameter, Channel.Func, CONST, VAR1, CONST, VAR2
TestParameter, Channel.Index, 
TestParameter, Channel.Time, 
TestParameter, Measurement.Port.Unit, SMU2:HR, SMU1:HR, SMU3:HR, SMU4:HR
TestParameter, Measurement.Port.SeriesResistor, NONE, NONE, NONE, NONE
TestParameter, Measurement.Port.Filter, ON, ON, ON, ON
TestParameter, Measurement.Port.OutputVoltageComparison, 0, 0, 0, 0
TestParameter, Measurement.Primary.Locus, Single
TestParameter, Measurement.Primary.Scale, LINEAR
TestParameter, Measurement.Primary.Start, -2.1
TestParameter, Measurement.Primary.Stop, 3.63
TestParameter, Measurement.Primary.Step, 0.03
TestParameter, Measurement.Primary.Compliance, 0.1
TestParameter, Measurement.Primary.PowerCompliance, 0
TestParameter, Measurement.Aborting.Condition, CONTINUE AT ANY
TestParameter, Measurement.PostOutput.Value, START
TestParameter, Measurement.PostOutput.Retention, OFF
TestParameter, Measurement.Secondary.Start, -2
TestParameter, Measurement.Secondary.Count, 5
TestParameter, Measurement.Secondary.Step, 2
TestParameter, Measurement.Secondary.Compliance, 0.1
TestParameter, Measurement.Secondary.PowerCompliance, 0
TestParameter, Measurement.Bias.Source, 3.3000000000000003, -2.1, 0, -2
TestParameter, Measurement.Bias.Compliance, 0.1, 0.1, 0.1, 0.1
TestParameter, Measurement.Monitor.Unit, SMU2:HR, SMU1:HR, SMU3:HR, SMU4:HR
TestParameter, Measurement.Monitor.Adc, HR ADC, HR ADC, HR ADC, HR ADC
TestParameter, Measurement.Monitor.Measurement, Compliance Side, Compliance Side, Compliance Side, Compliance Side
TestParameter, Measurement.Monitor.RangingMode, LIMITED, LIMITED, LIMITED, LIMITED
TestParameter, Measurement.Monitor.RangeBoundary, 1nA, 1nA, 1nA, 1nA
TestParameter, Measurement.Monitor.RangeRating, BY FULL RANGE, BY FULL RANGE, BY FULL RANGE, BY FULL RANGE
TestParameter, Measurement.Monitor.RangeRatingCoeff, 50, 50, 50, 50
TestParameter, Measurement.Timing.Hold, 0
TestParameter, Measurement.Timing.Delay, 0
TestParameter, Measurement.Adc.HighSpeed.Mode, AUTO
TestParameter, Measurement.Adc.HighSpeed.Coeff, 1
TestParameter, Measurement.Adc.HighResolution.AutoZero, OFF
TestParameter, Measurement.Adc.HighResolution.Mode, PLC
TestParameter, Measurement.Adc.HighResolution.Coeff, 1
TestParameter, Measurement.WaitTime.Source.Coeff, 1
TestParameter, Measurement.WaitTime.Source.Offset, 0
TestParameter, Measurement.WaitTime.Monitor.Coeff, 1
TestParameter, Measurement.WaitTime.Monitor.Offset, 0
TestParameter, Function.User.Name, gm, absId
TestParameter, Function.User.Unit, S, A
TestParameter, Function.User.Definition, diff(Id,Vg), abs(Id)
TestParameter, Output.Graph.Enabled, true
TestParameter, Output.Graph.AutoScaling, false
TestParameter, Output.Graph.XAxis.Data, Vg
TestParameter, Output.Graph.XAxis.Scale, Linear
TestParameter, Output.Graph.XAxis.Left, -3
TestParameter, Output.Graph.XAxis.Right, 3.63
TestParameter, Output.Graph.XAxis.RunTimeAutoScale, true
TestParameter, Output.Graph.YAxis.Data, Id, Ig, Ib
TestParameter, Output.Graph.YAxis.Scale, Log, Linear, Linear
TestParameter, Output.Graph.YAxis.Bottom, 0.001, -0.1, -0.1
TestParameter, Output.Graph.YAxis.Top, 0.01, 0.1, 0.1
TestParameter, Output.Graph.YAxis.Group, , , 
TestParameter, Output.Graph.YAxis.RunTimeAutoScale, true, true, true
TestParameter, Output.List.Data, Vg, Vd, Ig, Id, Ibg, Is, gm, Vbg, absId
TestParameter, AutoAnalysis.Interpolation, false
TestParameter, AutoAnalysis.Var2StepCount, 1
TestParameter, AutoAnalysis.Var2StepScript, 
TestParameter, AutoAnalysis.Line1.Enabled, false
TestParameter, AutoAnalysis.Line1.Type, 2
TestParameter, AutoAnalysis.Line1.Fix, True
TestParameter, AutoAnalysis.Line1.YAxis, 0
TestParameter, AutoAnalysis.Line1.Point1.Type, 1
TestParameter, AutoAnalysis.Line1.Point1.XY.X, 
TestParameter, AutoAnalysis.Line1.Point1.XY.Y, 
TestParameter, AutoAnalysis.Line1.Point1.Data.Var, Id
TestParameter, AutoAnalysis.Line1.Point1.Data.Condition, 
TestParameter, AutoAnalysis.Line1.Point1.Data.Start, false
TestParameter, AutoAnalysis.Line1.Point1.Data.StartVar, 
TestParameter, AutoAnalysis.Line1.Point1.Data.StartCondition, 
TestParameter, AutoAnalysis.Line1.Point2.Type, 0
TestParameter, AutoAnalysis.Line1.Point2.XY.X, 
TestParameter, AutoAnalysis.Line1.Point2.XY.Y, 
TestParameter, AutoAnalysis.Line1.Point2.Data.Var, 
TestParameter, AutoAnalysis.Line1.Point2.Data.Condition, 
TestParameter, AutoAnalysis.Line1.Point2.Data.Start, false
TestParameter, AutoAnalysis.Line1.Point2.Data.StartVar, 
TestParameter, AutoAnalysis.Line1.Point2.Data.StartCondition, 
TestParameter, AutoAnalysis.Line1.GradientExpr, 0
TestParameter, AutoAnalysis.Line2.Enabled, false
TestParameter, AutoAnalysis.Line2.Type, 1
TestParameter, AutoAnalysis.Line2.Fix, True
TestParameter, AutoAnalysis.Line2.YAxis, 0
TestParameter, AutoAnalysis.Line2.Point1.Type, 0
TestParameter, AutoAnalysis.Line2.Point1.XY.X, 
TestParameter, AutoAnalysis.Line2.Point1.XY.Y, 
TestParameter, AutoAnalysis.Line2.Point1.Data.Var, 
TestParameter, AutoAnalysis.Line2.Point1.Data.Condition, 
TestParameter, AutoAnalysis.Line2.Point1.Data.Start, false
TestParameter, AutoAnalysis.Line2.Point1.Data.StartVar, 
TestParameter, AutoAnalysis.Line2.Point1.Data.StartCondition, 
TestParameter, AutoAnalysis.Line2.Point2.Type, 0
TestParameter, AutoAnalysis.Line2.Point2.XY.X, 
TestParameter, AutoAnalysis.Line2.Point2.XY.Y, 
TestParameter, AutoAnalysis.Line2.Point2.Data.Var, 
TestParameter, AutoAnalysis.Line2.Point2.Data.Condition, 
TestParameter, AutoAnalysis.Line2.Point2.Data.Start, false
TestParameter, AutoAnalysis.Line2.Point2.Data.StartVar, 
TestParameter, AutoAnalysis.Line2.Point2.Data.StartCondition, 
TestParameter, AutoAnalysis.Line2.GradientExpr, 0
TestParameter, AutoAnalysis.Marker.Enabled, false
TestParameter, AutoAnalysis.Marker.Data.Var, 
TestParameter, AutoAnalysis.Marker.Data.Condition, 
TestParameter, AutoAnalysis.Marker.Data.Start, false
TestParameter, AutoAnalysis.Marker.Data.StartVar, 
TestParameter, AutoAnalysis.Marker.Data.StartCondition, 
MetaData, TestRecord.EntryPoint, true
MetaData, TestRecord.RecordTime, 01/15/2024 15:39:56
MetaData, TestRecord.TestTarget, P-20-1-298K
MetaData, TestRecord.IterationIndex, 1
MetaData, TestRecord.Preservation, true
MetaData, TestRecord.Flag, 
MetaData, TestRecord.Remarks, 
MetaData, TestRecord.LinkKey, d4b67e8f-7738-4c2c-b72b-4875130f1572
MetaData, TestRecord.Parameters, 
Dimension1, 192, 192, 192, 192, 192, 192, 192, 192, 192, 192
Dimension2, 5, 5, 5, 5, 5, 5, 5, 5, 5, 5
DataName, Vg, Vbg, Vd, Id, Ig, Is, Ibg, gm, absId, Ib
DataValue, -2.1, -2, 3.3000000000000003, 1.82584E-07, -1.7483E-11, -7.6500000000000007E-13, -9.84E-12, 1.8333333333336324E-09, 1.82584E-07, 
DataValue, -2.07, -2, 3.3000000000000003, 1.82639E-07, -1.7229000000000003E-11, -5.9700000000000008E-13, -1.0038E-11, 1.8500000000003315E-09, 1.82639E-07, 
DataValue, -2.04, -2, 3.3000000000000003, 1.82695E-07, -1.7174000000000003E-11, -6.9500000000000007E-13, -9.7770000000000008E-12, 1.5333333333333173E-09, 1.82695E-07, 
DataValue, -2.0100000000000002, -2, 3.3000000000000003, 1.82731E-07, -1.7041000000000002E-11, -6.7000000000000007E-13, -9.7880000000000015E-12, -5.8333333333355311E-10, 1.82731E-07, 
DataValue, -1.98, -2, 3.3000000000000003, 1.8266E-07, -1.6879000000000002E-11, -6.59E-13, -9.795E-12, -6.4999999999985176E-10, 1.8266E-07, 
DataValue, -1.95, -2, 3.3000000000000003, 1.82692E-07, -1.6746E-11, -6.2500000000000006E-13, -9.7200000000000014E-12, 2.2333333333332168E-09, 1.82692E-07, 
DataValue, -1.92, -2, 3.3000000000000003, 1.82794E-07, -1.6519000000000003E-11, -6.7500000000000005E-13, -9.8130000000000011E-12, 1.2166666666667262E-09, 1.82794E-07, 
DataValue, -1.8900000000000001, -2, 3.3000000000000003, 1.82765E-07, -1.6406000000000003E-11, -5.92E-13, -9.7710000000000011E-12, -1.1833333333333549E-09, 1.82765E-07, 
DataValue, -1.86, -2, 3.3000000000000003, 1.82723E-07, -1.6519000000000003E-11, -5.93E-13, -9.7460000000000015E-12, -3.8000000000003351E-09, 1.82723E-07, 
DataValue, -1.83, -2, 3.3000000000000003, 1.82537E-07, -1.6205E-11, -7.07E-13, -9.802E-12, -2.583333333333172E-09, 1.82537E-07, 
DataValue, -1.8, -2, 3.3000000000000003, 1.82568E-07, -1.635E-11, -7.33E-13, -9.7650000000000013E-12, -6.1666666666648307E-10, 1.82568E-07, 
DataValue, -1.77, -2, 3.3000000000000003, 1.825E-07, -1.6180000000000003E-11, -5.0900000000000005E-13, -9.756E-12, -1.4333333333331927E-09, 1.825E-07, 
DataValue, -1.74, -2, 3.3000000000000003, 1.82482E-07, -1.6191E-11, -6.4500000000000008E-13, -9.883E-12, -1.1499999999999795E-09, 1.82482E-07, 
DataValue, -1.71, -2, 3.3000000000000003, 1.82431E-07, -1.5919000000000003E-11, -7.26E-13, -9.7490000000000014E-12, -2.000000000002266E-10, 1.82431E-07, 
DataValue, -1.68, -2, 3.3000000000000003, 1.8247E-07, -1.5872E-11, -6.29E-13, -9.8000000000000011E-12, 1.7333333333330978E-09, 1.8247E-07, 
DataValue, -1.6500000000000001, -2, 3.3000000000000003, 1.8253499999999999E-07, -1.5818000000000002E-11, -5.66E-13, -9.802E-12, 8.1666666666671265E-10, 1.8253499999999999E-07, 
DataValue, -1.62, -2, 3.3000000000000003, 1.82519E-07, -1.5782E-11, -6.82E-13, -9.898E-12, 1.2166666666667216E-09, 1.82519E-07, 
DataValue, -1.59, -2, 3.3000000000000003, 1.82608E-07, -1.5761E-11, -6.84E-13, -9.6750000000000015E-12, 3.283333333333524E-09, 1.82608E-07, 
DataValue, -1.56, -2, 3.3000000000000003, 1.82716E-07, -1.5663E-11, -6.400000000000001E-13, -9.8070000000000013E-12, 3.5166666666666808E-09, 1.82716E-07, 
DataValue, -1.53, -2, 3.3000000000000003, 1.82819E-07, -1.5619E-11, -6.400000000000001E-13, -9.7940000000000013E-12, 1.0666666666665517E-09, 1.82819E-07, 
DataValue, -1.5, -2, 3.3000000000000003, 1.8278E-07, -1.5692E-11, -5.88E-13, -9.9320000000000009E-12, -2.0666666666663613E-09, 1.8278E-07, 
DataValue, -1.47, -2, 3.3000000000000003, 1.82695E-07, -1.5678E-11, -5.9700000000000008E-13, -9.7350000000000008E-12, -3.5166666666666808E-09, 1.82695E-07, 
DataValue, -1.44, -2, 3.3000000000000003, 1.82569E-07, -1.5478E-11, -6.82E-13, -9.7650000000000013E-12, -4.6666666666675429E-10, 1.82569E-07, 
DataValue, -1.41, -2, 3.3000000000000003, 1.82667E-07, -1.5453000000000002E-11, -6.9000000000000009E-13, -9.764E-12, 1.7000000000001678E-09, 1.82667E-07, 
DataValue, -1.3800000000000001, -2, 3.3000000000000003, 1.82671E-07, -1.5422E-11, -6.36E-13, -9.9170000000000015E-12, -7.4999999999997022E-10, 1.82671E-07, 
DataValue, -1.35, -2, 3.3000000000000003, 1.82622E-07, -1.5366000000000002E-11, -6.86E-13, -9.7900000000000009E-12, 1.2833333333330226E-09, 1.82622E-07, 
DataValue, -1.32, -2, 3.3000000000000003, 1.82748E-07, -1.5354000000000003E-11, -6.77E-13, -9.924E-12, 1.0833333333332374E-09, 1.82748E-07, 
DataValue, -1.29, -2, 3.3000000000000003, 1.82687E-07, -1.5235E-11, -5.86E-13, -9.8490000000000014E-12, -4.8333333333343982E-10, 1.82687E-07, 
DataValue, -1.26, -2, 3.3000000000000003, 1.8271899999999998E-07, -1.511E-11, -7.340000000000001E-13, -9.86E-12, -7.1666666666659636E-10, 1.8271899999999998E-07, 
DataValue, -1.23, -2, 3.3000000000000003, 1.82644E-07, -1.5091000000000002E-11, -6.53E-13, -9.796E-12, -1.383333333333136E-09, 1.82644E-07, 
DataValue, -1.2, -2, 3.3000000000000003, 1.82636E-07, -1.502E-11, -6.2000000000000008E-13, -9.858000000000001E-12, 1.1499999999999795E-09, 1.82636E-07, 
DataValue, -1.17, -2, 3.3000000000000003, 1.82713E-07, -1.5028E-11, -7.05E-13, -9.772E-12, 1.8833333333332683E-09, 1.82713E-07, 
DataValue, -1.1400000000000001, -2, 3.3000000000000003, 1.82749E-07, -1.5061E-11, -6.8E-13, -9.8910000000000014E-12, -1.6666666666685611E-10, 1.82749E-07, 
DataValue, -1.11, -2, 3.3000000000000003, 1.82703E-07, -1.495E-11, -7.94E-13, -9.818E-12, -1.7999999999998337E-09, 1.82703E-07, 
DataValue, -1.08, -2, 3.3000000000000003, 1.82641E-07, -1.4926000000000002E-11, -6.410000000000001E-13, -9.8190000000000009E-12, -9.83333333333124E-10, 1.82641E-07, 
DataValue, -1.05, -2, 3.3000000000000003, 1.82644E-07, -1.4821000000000002E-11, -6.9400000000000007E-13, -9.893E-12, 1.0333333333331807E-09, 1.82644E-07, 
DataValue, -1.02, -2, 3.3000000000000003, 1.82703E-07, -1.4891000000000002E-11, -7.33E-13, -9.838E-12, 5.3333333333305532E-10, 1.82703E-07, 
DataValue, -0.99, -2, 3.3000000000000003, 1.82676E-07, -1.4884E-11, -5.7500000000000007E-13, -9.7710000000000011E-12, -1.6666666666641434E-10, 1.82676E-07, 
DataValue, -0.96, -2, 3.3000000000000003, 1.82693E-07, -1.4827000000000002E-11, -6.9500000000000007E-13, -9.916000000000001E-12, -1.2499999999996539E-09, 1.82693E-07, 
DataValue, -0.93, -2, 3.3000000000000003, 1.82601E-07, -1.4843E-11, -6.76E-13, -9.789E-12, -3.4000000000003295E-09, 1.82601E-07, 
DataValue, -0.9, -2, 3.3000000000000003, 1.82489E-07, -1.4694000000000002E-11, -5.4E-13, -9.8130000000000011E-12, -2.9000000000001976E-09, 1.82489E-07, 
DataValue, -0.87, -2, 3.3000000000000003, 1.82427E-07, -1.4628E-11, -6.640000000000001E-13, -9.695E-12, -4.1666666666669759E-10, 1.82427E-07, 
DataValue, -0.84, -2, 3.3000000000000003, 1.8246399999999999E-07, -1.4624000000000002E-11, -7.51E-13, -9.9100000000000012E-12, 2.2166666666665351E-09, 1.8246399999999999E-07, 
DataValue, -0.81, -2, 3.3000000000000003, 1.8256E-07, -1.4596E-11, -7.1500000000000008E-13, -9.934E-12, 2.5333333333335616E-09, 1.8256E-07, 
DataValue, -0.78, -2, 3.3000000000000003, 1.82616E-07, -1.4607000000000002E-11, -6.9800000000000006E-13, -9.8910000000000014E-12, 1.3666666666668917E-09, 1.82616E-07, 
DataValue, -0.75, -2, 3.3000000000000003, 1.82642E-07, -1.4472E-11, -7.54E-13, -9.838E-12, -7.66666666666653E-10, 1.82642E-07, 
DataValue, -0.72, -2, 3.3000000000000003, 1.8257E-07, -1.4535000000000001E-11, -7.6500000000000007E-13, -9.8910000000000014E-12, -1.6000000000000511E-09, 1.8257E-07, 
DataValue, -0.69000000000000006, -2, 3.3000000000000003, 1.82546E-07, -1.4405000000000001E-11, -7.110000000000001E-13, -9.811E-12, -2.5333333333335616E-09, 1.82546E-07, 
DataValue, -0.66, -2, 3.3000000000000003, 1.8241799999999999E-07, -1.4436000000000002E-11, -6.59E-13, -9.78E-12, -2.5166666666668712E-09, 1.8241799999999999E-07, 
DataValue, -0.63, -2, 3.3000000000000003, 1.8239499999999999E-07, -1.4300000000000002E-11, -6.410000000000001E-13, -9.843E-12, 1.3500000000002061E-09, 1.8239499999999999E-07, 
DataValue, -0.6, -2, 3.3000000000000003, 1.82499E-07, -1.4359E-11, -6.81E-13, -9.915E-12, 2.8000000000000896E-09, 1.82499E-07, 
DataValue, -0.57000000000000006, -2, 3.3000000000000003, 1.82563E-07, -1.4441000000000001E-11, -6.84E-13, -9.9430000000000016E-12, 2.816666666666775E-09, 1.82563E-07, 
DataValue, -0.54, -2, 3.3000000000000003, 1.82668E-07, -1.4254000000000001E-11, -7.100000000000001E-13, -9.795E-12, 3.8499999999999509E-09, 1.82668E-07, 
DataValue, -0.51, -2, 3.3000000000000003, 1.82794E-07, -1.4314E-11, -7.74E-13, -9.734E-12, 1.9666666666666892E-09, 1.82794E-07, 
DataValue, -0.48, -2, 3.3000000000000003, 1.82786E-07, -1.4393000000000001E-11, -6.32E-13, -9.816000000000001E-12, 2.5000000000028348E-10, 1.82786E-07, 
DataValue, -0.45, -2, 3.3000000000000003, 1.82809E-07, -1.4470000000000001E-11, -6.57E-13, -9.906E-12, -9.1666666666682377E-10, 1.82809E-07, 
DataValue, -0.42, -2, 3.3000000000000003, 1.82731E-07, -1.4110000000000002E-11, -7.26E-13, -9.841E-12, -2.0333333333334334E-09, 1.82731E-07, 
DataValue, -0.39, -2, 3.3000000000000003, 1.82687E-07, -1.4243E-11, -6.53E-13, -9.953E-12, -8.5000000000008154E-10, 1.82687E-07, 
DataValue, -0.36, -2, 3.3000000000000003, 1.8268E-07, -1.4100000000000002E-11, -6.28E-13, -9.84E-12, 1.1666666666679898E-10, 1.8268E-07, 
DataValue, -0.33, -2, 3.3000000000000003, 1.82694E-07, -1.4092000000000001E-11, -8.2700000000000011E-13, -9.834E-12, 7.8333333333333931E-10, 1.82694E-07, 
DataValue, -0.3, -2, 3.3000000000000003, 1.82727E-07, -1.4136E-11, -6.53E-13, -9.8810000000000012E-12, 2.1666666666664768E-09, 1.82727E-07, 
DataValue, -0.27, -2, 3.3000000000000003, 1.82824E-07, -1.4173000000000001E-11, -5.35E-13, -9.683E-12, 1.4833333333332507E-09, 1.82824E-07, 
DataValue, -0.24, -2, 3.3000000000000003, 1.82816E-07, -1.4127E-11, -7.53E-13, -9.847E-12, -2.1999999999998468E-09, 1.82816E-07, 
DataValue, -0.21, -2, 3.3000000000000003, 1.82692E-07, -1.4015000000000001E-11, -6.36E-13, -9.921E-12, -1.5833333333333641E-09, 1.82692E-07, 
DataValue, -0.18, -2, 3.3000000000000003, 1.8272099999999999E-07, -1.4077000000000002E-11, -6.79E-13, -9.8030000000000009E-12, 2.0499999999996776E-09, 1.8272099999999999E-07, 
DataValue, -0.15, -2, 3.3000000000000003, 1.8281499999999999E-07, -1.4108000000000001E-11, -6.9100000000000008E-13, -9.75E-12, 5.8333333333355362E-10, 1.8281499999999999E-07, 
DataValue, -0.12, -2, 3.3000000000000003, 1.82756E-07, -1.4005000000000001E-11, -6.8900000000000009E-13, -9.914E-12, -1.1666666666666662E-09, 1.82756E-07, 
DataValue, -0.09, -2, 3.3000000000000003, 1.8274499999999999E-07, -1.3878E-11, -6.7200000000000006E-13, -9.918E-12, -1.0999999999999238E-09, 1.8274499999999999E-07, 
DataValue, -0.06, -2, 3.3000000000000003, 1.8269E-07, -1.4022000000000001E-11, -6.1800000000000009E-13, -9.802E-12, -1.2999999999997095E-09, 1.8269E-07, 
DataValue, -0.03, -2, 3.3000000000000003, 1.82667E-07, -1.3893000000000002E-11, -8.95E-13, -9.809E-12, -6.1666666666692479E-10, 1.82667E-07, 
DataValue, 0, -2, 3.3000000000000003, 1.82653E-07, -1.3938000000000001E-11, -7.52E-13, -9.8910000000000014E-12, -1.0999999999999238E-09, 1.82653E-07, 
DataValue, 0.03, -2, 3.3000000000000003, 1.82601E-07, -1.3896000000000001E-11, -6.31E-13, -9.886E-12, -1.4999999999972894E-10, 1.82601E-07, 
DataValue, 0.06, -2, 3.3000000000000003, 1.82644E-07, -1.3862E-11, -6.34E-13, -9.854E-12, 2.1666666666664768E-09, 1.82644E-07, 
DataValue, 0.09, -2, 3.3000000000000003, 1.82731E-07, -1.3899000000000001E-11, -7.78E-13, -9.899E-12, 1.2833333333330239E-09, 1.82731E-07, 
DataValue, 0.12, -2, 3.3000000000000003, 1.8272099999999999E-07, -1.3839E-11, -7.97E-13, -9.853E-12, 4.666666666667547E-10, 1.8272099999999999E-07, 
DataValue, 0.15, -2, 3.3000000000000003, 1.82759E-07, -1.3815000000000001E-11, -6.56E-13, -9.906E-12, 1.666666666666792E-09, 1.82759E-07, 
DataValue, 0.18, -2, 3.3000000000000003, 1.82821E-07, -1.3878E-11, -6.15E-13, -9.941E-12, 2.7833333333334013E-09, 1.82821E-07, 
DataValue, 0.21, -2, 3.3000000000000003, 1.82926E-07, -1.3964000000000002E-11, -6.38E-13, -9.9170000000000015E-12, 2.1000000000001756E-09, 1.82926E-07, 
DataValue, 0.24, -2, 3.3000000000000003, 1.82947E-07, -1.3802000000000001E-11, -7.48E-13, -9.976E-12, -2.6666666666696891E-10, 1.82947E-07, 
DataValue, 0.27, -2, 3.3000000000000003, 1.8291E-07, -1.3907E-11, -6.1900000000000009E-13, -9.7750000000000015E-12, -9.83333333333566E-10, 1.8291E-07, 
DataValue, 0.3, -2, 3.3000000000000003, 1.82888E-07, -1.3696000000000001E-11, -6.81E-13, -9.969E-12, -2.4999999999984233E-10, 1.82888E-07, 
DataValue, 0.33, -2, 3.3000000000000003, 1.82895E-07, -1.3775E-11, -7.1500000000000008E-13, -9.7590000000000015E-12, 1.2000000000000372E-09, 1.82895E-07, 
DataValue, 0.36, -2, 3.3000000000000003, 1.8296E-07, -1.3774000000000002E-11, -7.78E-13, -9.8390000000000012E-12, 2.3333333333315675E-10, 1.8296E-07, 
DataValue, 0.39, -2, 3.3000000000000003, 1.82909E-07, -1.3674000000000002E-11, -6.82E-13, -9.885E-12, -1.8166666666665208E-09, 1.82909E-07, 
DataValue, 0.42, -2, 3.3000000000000003, 1.82851E-07, -1.3745000000000002E-11, -7.24E-13, -9.8620000000000014E-12, -1.4833333333332507E-09, 1.82851E-07, 
DataValue, 0.45, -2, 3.3000000000000003, 1.8282E-07, -1.3778E-11, -6.58E-13, -9.927E-12, -1.0333333333336228E-09, 1.8282E-07, 
DataValue, 0.48, -2, 3.3000000000000003, 1.8278899999999998E-07, -1.372E-11, -7.28E-13, -9.905E-12, -9.4999999999975374E-10, 1.8278899999999998E-07, 
