
SetupTitle, NMOS-id-vd-vgs@vbs=0
PrimitiveTest, I/V Sweep
TestParameter, Context.MainFrame, B1500A
TestParameter, Channel.UnitType, SMU, SMU, SMU, SMU
TestParameter, Channel.Unit, SMU2:HR, SMU1:HR, SMU3:HR, SMU4:HR
TestParameter, Channel.IName, ib, is, ig, id
TestParameter, Channel.VName, vb, vs, vg, vd
TestParameter, Channel.Mode, V, COMMON, V, V
TestParameter, Channel.Func, CONST, CONST, VAR2, VAR1
TestParameter, Channel.Index, 
TestParameter, Channel.Time, 
TestParameter, Measurement.Port.Unit, SMU2:HR, SMU1:HR, SMU3:HR, SMU4:HR
TestParameter, Measurement.Port.SeriesResistor, NONE, NONE, NONE, NONE
TestParameter, Measurement.Port.Filter, ON, ON, ON, ON
TestParameter, Measurement.Port.OutputVoltageComparison, 0, 0, 0, 0
TestParameter, Measurement.Primary.Locus, Single
TestParameter, Measurement.Primary.Scale, LINEAR
TestParameter, Measurement.Primary.Start, 0
TestParameter, Measurement.Primary.Stop, 3.3000000000000003
TestParameter, Measurement.Primary.Step, 0.01
TestParameter, Measurement.Primary.Compliance, 0.1
TestParameter, Measurement.Primary.PowerCompliance, 0
TestParameter, Measurement.Aborting.Condition, SKIP AT ANY ABNORMAL
TestParameter, Measurement.PostOutput.Value, START
TestParameter, Measurement.PostOutput.Retention, OFF
TestParameter, Measurement.Secondary.Start, 0.3
TestParameter, Measurement.Secondary.Count, 6
TestParameter, Measurement.Secondary.Step, 0.6
TestParameter, Measurement.Secondary.Compliance, 0.1
TestParameter, Measurement.Secondary.PowerCompliance, 0
TestParameter, Measurement.Bias.Source, 0, 0, 0.3, 0
TestParameter, Measurement.Bias.Compliance, 0.1, 0.1, 0.1, 0.1
TestParameter, Measurement.Monitor.Unit, SMU2:HR, SMU1:HR, SMU3:HR, SMU4:HR
TestParameter, Measurement.Monitor.Adc, HR ADC, HR ADC, HR ADC, HR ADC
TestParameter, Measurement.Monitor.Measurement, Compliance Side, Compliance Side, Compliance Side, Compliance Side
TestParameter, Measurement.Monitor.RangingMode, LIMITED, LIMITED, LIMITED, LIMITED
TestParameter, Measurement.Monitor.RangeBoundary, 1nA, 1nA, 1nA, 1nA
TestParameter, Measurement.Monitor.RangeRating, BY FULL RANGE, BY FULL RANGE, BY FULL RANGE, BY FULL RANGE
TestParameter, Measurement.Monitor.RangeRatingCoeff, 50, 50, 50, 50
TestParameter, Measurement.Timing.Hold, 0
TestParameter, Measurement.Timing.Delay, 0
TestParameter, Measurement.Adc.HighSpeed.Mode, AUTO
TestParameter, Measurement.Adc.HighSpeed.Coeff, 1
TestParameter, Measurement.Adc.HighResolution.AutoZero, OFF
TestParameter, Measurement.Adc.HighResolution.Mode, AUTO
TestParameter, Measurement.Adc.HighResolution.Coeff, 6
TestParameter, Measurement.WaitTime.Source.Coeff, 1
TestParameter, Measurement.WaitTime.Source.Offset, 0
TestParameter, Measurement.WaitTime.Monitor.Coeff, 1
TestParameter, Measurement.WaitTime.Monitor.Offset, 0
TestParameter, Output.Graph.Enabled, true
TestParameter, Output.Graph.AutoScaling, false
TestParameter, Output.Graph.XAxis.Data, vd
TestParameter, Output.Graph.XAxis.Scale, Linear
TestParameter, Output.Graph.XAxis.Left, 0
TestParameter, Output.Graph.XAxis.Right, 1
TestParameter, Output.Graph.XAxis.RunTimeAutoScale, true
TestParameter, Output.Graph.YAxis.Data, id
TestParameter, Output.Graph.YAxis.Scale, Linear
TestParameter, Output.Graph.YAxis.Bottom, -0.1
TestParameter, Output.Graph.YAxis.Top, 0.1
TestParameter, Output.Graph.YAxis.Group, 
TestParameter, Output.Graph.YAxis.RunTimeAutoScale, true
TestParameter, AutoAnalysis.Interpolation, false
TestParameter, AutoAnalysis.Var2StepCount, 1
TestParameter, AutoAnalysis.Var2StepScript, 
TestParameter, AutoAnalysis.Line1.Enabled, false
TestParameter, AutoAnalysis.Line1.Type, 1
TestParameter, AutoAnalysis.Line1.Fix, True
TestParameter, AutoAnalysis.Line1.YAxis, 0
TestParameter, AutoAnalysis.Line1.Point1.Type, 0
TestParameter, AutoAnalysis.Line1.Point1.XY.X, 
TestParameter, AutoAnalysis.Line1.Point1.XY.Y, 
TestParameter, AutoAnalysis.Line1.Point1.Data.Var, 
TestParameter, AutoAnalysis.Line1.Point1.Data.Condition, 
TestParameter, AutoAnalysis.Line1.Point1.Data.Start, false
TestParameter, AutoAnalysis.Line1.Point1.Data.StartVar, 
TestParameter, AutoAnalysis.Line1.Point1.Data.StartCondition, 
TestParameter, AutoAnalysis.Line1.Point2.Type, 0
TestParameter, AutoAnalysis.Line1.Point2.XY.X, 
TestParameter, AutoAnalysis.Line1.Point2.XY.Y, 
TestParameter, AutoAnalysis.Line1.Point2.Data.Var, 
TestParameter, AutoAnalysis.Line1.Point2.Data.Condition, 
TestParameter, AutoAnalysis.Line1.Point2.Data.Start, false
TestParameter, AutoAnalysis.Line1.Point2.Data.StartVar, 
TestParameter, AutoAnalysis.Line1.Point2.Data.StartCondition, 
TestParameter, AutoAnalysis.Line1.GradientExpr, 0
TestParameter, AutoAnalysis.Line2.Enabled, false
TestParameter, AutoAnalysis.Line2.Type, 1
TestParameter, AutoAnalysis.Line2.Fix, True
TestParameter, AutoAnalysis.Line2.YAxis, 0
TestParameter, AutoAnalysis.Line2.Point1.Type, 0
TestParameter, AutoAnalysis.Line2.Point1.XY.X, 
TestParameter, AutoAnalysis.Line2.Point1.XY.Y, 
TestParameter, AutoAnalysis.Line2.Point1.Data.Var, 
TestParameter, AutoAnalysis.Line2.Point1.Data.Condition, 
TestParameter, AutoAnalysis.Line2.Point1.Data.Start, false
TestParameter, AutoAnalysis.Line2.Point1.Data.StartVar, 
TestParameter, AutoAnalysis.Line2.Point1.Data.StartCondition, 
TestParameter, AutoAnalysis.Line2.Point2.Type, 0
TestParameter, AutoAnalysis.Line2.Point2.XY.X, 
TestParameter, AutoAnalysis.Line2.Point2.XY.Y, 
TestParameter, AutoAnalysis.Line2.Point2.Data.Var, 
TestParameter, AutoAnalysis.Line2.Point2.Data.Condition, 
TestParameter, AutoAnalysis.Line2.Point2.Data.Start, false
TestParameter, AutoAnalysis.Line2.Point2.Data.StartVar, 
TestParameter, AutoAnalysis.Line2.Point2.Data.StartCondition, 
TestParameter, AutoAnalysis.Line2.GradientExpr, 0
TestParameter, AutoAnalysis.Marker.Enabled, false
TestParameter, AutoAnalysis.Marker.Data.Var, 
TestParameter, AutoAnalysis.Marker.Data.Condition, 
TestParameter, AutoAnalysis.Marker.Data.Start, false
TestParameter, AutoAnalysis.Marker.Data.StartVar, 
TestParameter, AutoAnalysis.Marker.Data.StartCondition, 
MetaData, TestRecord.EntryPoint, true
MetaData, TestRecord.RecordTime, 01/16/2024 16:59:03
MetaData, TestRecord.TestTarget, N-1-1-298K
MetaData, TestRecord.IterationIndex, 5
MetaData, TestRecord.Preservation, true
MetaData, TestRecord.Flag, 
MetaData, TestRecord.Remarks, 
MetaData, TestRecord.LinkKey, c6780f2e-829b-45d0-b964-9d1ccca4c5ec
MetaData, TestRecord.Parameters, 
Dimension1, 331, 331
Dimension2, 6, 6
DataName, vd, id
DataValue, 0, 9.27E-12
DataValue, 0.01, 6.1800000000000007E-12
DataValue, 0.02, 1.3040000000000001E-11
DataValue, 0.03, 5.34E-12
DataValue, 0.04, 1.582E-11
DataValue, 0.05, 4.56E-12
DataValue, 0.06, 1.75E-11
DataValue, 0.07, 3.35E-12
DataValue, 0.08, 1.8930000000000003E-11
DataValue, 0.09, 2.7300000000000003E-12
DataValue, 0.1, 1.97E-11
DataValue, 0.11, 3.43E-12
DataValue, 0.12, 1.9270000000000002E-11
DataValue, 0.13, 2.47E-12
DataValue, 0.14, 1.963E-11
DataValue, 0.15, 2.24E-12
DataValue, 0.16, 1.9440000000000003E-11
DataValue, 0.17, 3.5200000000000003E-12
DataValue, 0.18, 1.7690000000000002E-11
DataValue, 0.19, 5.89E-12
DataValue, 0.2, 1.5230000000000002E-11
DataValue, 0.21, 8.0900000000000013E-12
DataValue, 0.22, 1.3550000000000001E-11
DataValue, 0.23, 1.016E-11
DataValue, 0.24, 1.188E-11
DataValue, 0.25, 1.0710000000000001E-11
DataValue, 0.26, 1.2030000000000001E-11
DataValue, 0.27, 1.1E-11
DataValue, 0.28, 1.17E-11
DataValue, 0.29, 1.1020000000000001E-11
DataValue, 0.3, 1.1440000000000001E-11
DataValue, 0.31, 1.1430000000000001E-11
DataValue, 0.32, 1.0740000000000002E-11
DataValue, 0.33, 1.1950000000000001E-11
DataValue, 0.34, 1.065E-11
DataValue, 0.35000000000000003, 1.2680000000000002E-11
DataValue, 0.36, 9.2100000000000013E-12
DataValue, 0.37, 1.443E-11
DataValue, 0.38, 7.360000000000001E-12
DataValue, 0.39, 1.5890000000000003E-11
DataValue, 0.4, 5.6E-12
DataValue, 0.41000000000000003, 1.442E-11
DataValue, 0.42, 7.51E-12
DataValue, 0.43, 1.601E-11
DataValue, 0.44, 6.14E-12
DataValue, 0.45, 1.746E-11
DataValue, 0.46, 5.8600000000000005E-12
DataValue, 0.47000000000000003, 1.71E-11
DataValue, 0.48, 4.7100000000000007E-12
DataValue, 0.49, 1.8690000000000002E-11
DataValue, 0.5, 3.4100000000000002E-12
DataValue, 0.51, 1.906E-11
DataValue, 0.52, 2.8E-12
DataValue, 0.53, 1.968E-11
DataValue, 0.54, 2.7000000000000002E-12
DataValue, 0.55, 1.9640000000000003E-11
DataValue, 0.56, 2.5300000000000003E-12
DataValue, 0.57000000000000006, 1.937E-11
DataValue, 0.58, 4.0900000000000005E-12
DataValue, 0.59, 1.797E-11
DataValue, 0.6, 5.8200000000000006E-12
DataValue, 0.61, 1.573E-11
DataValue, 0.62, 7.970000000000001E-12
DataValue, 0.63, 1.3540000000000001E-11
DataValue, 0.64, 1.026E-11
DataValue, 0.65, 1.2320000000000001E-11
DataValue, 0.66, 1.077E-11
DataValue, 0.67, 1.1430000000000001E-11
DataValue, 0.68, 1.1050000000000002E-11
DataValue, 0.69000000000000006, 1.1350000000000002E-11
DataValue, 0.70000000000000007, 1.158E-11
DataValue, 0.71, 1.1530000000000001E-11
DataValue, 0.72, 1.2E-11
DataValue, 0.73, 1.076E-11
DataValue, 0.74, 1.238E-11
DataValue, 0.75, 1.0090000000000001E-11
DataValue, 0.76, 1.3550000000000001E-11
DataValue, 0.77, 8.76E-12
DataValue, 0.78, 1.5030000000000002E-11
DataValue, 0.79, 7.16E-12
DataValue, 0.8, 1.6430000000000002E-11
DataValue, 0.81, 5.55E-12
DataValue, 0.82000000000000006, 1.7510000000000003E-11
DataValue, 0.83000000000000007, 4.43E-12
DataValue, 0.84, 1.897E-11
DataValue, 0.85, 3.23E-12
DataValue, 0.86, 1.957E-11
DataValue, 0.87, 2.9900000000000004E-12
DataValue, 0.88, 1.979E-11
DataValue, 0.89, 3.1900000000000003E-12
DataValue, 0.9, 1.939E-11
DataValue, 0.91, 4.7000000000000006E-12
DataValue, 0.92, 1.7180000000000002E-11
DataValue, 0.93, 6.5800000000000006E-12
DataValue, 0.94000000000000006, 1.469E-11
DataValue, 0.95000000000000007, 1.0120000000000001E-11
DataValue, 0.96, 1.2750000000000001E-11
DataValue, 0.97, 1.1040000000000001E-11
DataValue, 0.98, 1.2130000000000001E-11
DataValue, 0.99, 1.1360000000000002E-11
DataValue, 1, 1.199E-11
DataValue, 1.01, 1.137E-11
DataValue, 1.02, 1.1820000000000001E-11
DataValue, 1.03, 1.1530000000000001E-11
DataValue, 1.04, 1.1750000000000001E-11
DataValue, 1.05, 1.191E-11
DataValue, 1.06, 1.1210000000000001E-11
DataValue, 1.07, 1.2550000000000001E-11
DataValue, 1.08, 1.0540000000000002E-11
DataValue, 1.09, 1.351E-11
DataValue, 1.1, 9.2200000000000015E-12
DataValue, 1.11, 1.48E-11
DataValue, 1.12, 7.91E-12
DataValue, 1.1300000000000001, 1.6540000000000002E-11
DataValue, 1.1400000000000001, 5.6E-12
DataValue, 1.1500000000000001, 1.7760000000000002E-11
DataValue, 1.16, 4.2900000000000005E-12
DataValue, 1.17, 1.9400000000000002E-11
DataValue, 1.18, 3.3600000000000002E-12
DataValue, 1.19, 1.9930000000000003E-11
DataValue, 1.2, 3.23E-12
DataValue, 1.21, 2.0200000000000002E-11
DataValue, 1.22, 3.61E-12
DataValue, 1.23, 1.9600000000000002E-11
DataValue, 1.24, 4.31E-12
DataValue, 1.25, 1.7930000000000003E-11
DataValue, 1.26, 6.7900000000000008E-12
DataValue, 1.27, 1.5650000000000002E-11
DataValue, 1.28, 9.12E-12
DataValue, 1.29, 1.8730000000000003E-11
DataValue, 1.3, 5.7600000000000005E-12
DataValue, 1.31, 1.622E-11
DataValue, 1.32, 8.54E-12
DataValue, 1.33, 1.3700000000000002E-11
DataValue, 1.34, 1.0510000000000001E-11
DataValue, 1.35, 1.2550000000000001E-11
DataValue, 1.36, 1.139E-11
DataValue, 1.37, 1.228E-11
DataValue, 1.3800000000000001, 1.1750000000000001E-11
DataValue, 1.3900000000000001, 1.1970000000000002E-11
DataValue, 1.4000000000000001, 1.1860000000000002E-11
DataValue, 1.41, 1.198E-11
DataValue, 1.42, 1.189E-11
DataValue, 1.43, 1.188E-11
DataValue, 1.44, 1.281E-11
DataValue, 1.45, 1.0920000000000001E-11
DataValue, 1.46, 1.3560000000000001E-11
DataValue, 1.47, 9.190000000000001E-12
DataValue, 1.48, 1.4280000000000001E-11
DataValue, 1.49, 8.0800000000000011E-12
DataValue, 1.5, 1.6340000000000002E-11
DataValue, 1.51, 9.57E-12
DataValue, 1.52, 1.486E-11
DataValue, 1.53, 8.03E-12
DataValue, 1.54, 1.651E-11
DataValue, 1.55, 6.2E-12
DataValue, 1.56, 1.825E-11
DataValue, 1.57, 4.18E-12
DataValue, 1.58, 1.9440000000000003E-11
DataValue, 1.59, 3.7300000000000005E-12
DataValue, 1.6, 2.01E-11
DataValue, 1.61, 3.3700000000000004E-12
DataValue, 1.62, 2.0110000000000002E-11
DataValue, 1.6300000000000001, 3.28E-12
DataValue, 1.6400000000000001, 2.0090000000000002E-11
DataValue, 1.6500000000000001, 4.43E-12
DataValue, 1.6600000000000001, 1.85E-11
DataValue, 1.67, 5.9200000000000006E-12
DataValue, 1.68, 1.6140000000000002E-11
DataValue, 1.69, 8.42E-12
DataValue, 1.7, 1.422E-11
DataValue, 1.71, 1.075E-11
DataValue, 1.72, 1.2850000000000001E-11
DataValue, 1.73, 1.18E-11
DataValue, 1.74, 1.2320000000000001E-11
DataValue, 1.75, 1.168E-11
DataValue, 1.76, 1.21E-11
DataValue, 1.77, 1.209E-11
DataValue, 1.78, 1.17E-11
DataValue, 1.79, 1.211E-11
DataValue, 1.8, 1.1330000000000001E-11
DataValue, 1.81, 1.353E-11
DataValue, 1.82, 1.0720000000000001E-11
DataValue, 1.83, 1.3870000000000001E-11
DataValue, 1.84, 9.06E-12
DataValue, 1.85, 1.535E-11
DataValue, 1.86, 7.5700000000000011E-12
DataValue, 1.87, 1.721E-11
DataValue, 1.8800000000000001, 5.58E-12
DataValue, 1.8900000000000001, 1.914E-11
DataValue, 1.9000000000000001, 7.53E-12
DataValue, 1.9100000000000001, 1.677E-11
DataValue, 1.92, 5.8300000000000008E-12
DataValue, 1.93, 1.872E-11
DataValue, 1.94, 4.6500000000000006E-12
DataValue, 1.95, 1.8690000000000002E-11
DataValue, 1.96, 4.62E-12
DataValue, 1.97, 2.0040000000000003E-11
DataValue, 1.98, 3.67E-12
DataValue, 1.99, 2.0460000000000003E-11
DataValue, 2, 3.3900000000000003E-12
DataValue, 2.0100000000000002, 2.038E-11
DataValue, 2.02, 3.7300000000000005E-12
DataValue, 2.0300000000000002, 2.052E-11
DataValue, 2.04, 3.66E-12
DataValue, 2.05, 1.899E-11
DataValue, 2.06, 5.48E-12
DataValue, 2.07, 1.753E-11
DataValue, 2.08, 7.95E-12
DataValue, 2.09, 1.506E-11
DataValue, 2.1, 1.048E-11
DataValue, 2.11, 1.292E-11
DataValue, 2.12, 1.148E-11
DataValue, 2.13, 1.2650000000000001E-11
DataValue, 2.14, 1.1850000000000001E-11
DataValue, 2.15, 1.2580000000000002E-11
DataValue, 2.16, 1.171E-11
DataValue, 2.17, 1.238E-11
DataValue, 2.18, 1.1820000000000001E-11
DataValue, 2.19, 1.1830000000000001E-11
DataValue, 2.2, 1.289E-11
DataValue, 2.21, 1.1650000000000002E-11
DataValue, 2.22, 1.3140000000000001E-11
DataValue, 2.23, 1.075E-11
DataValue, 2.24, 1.4250000000000001E-11
DataValue, 2.25, 9.5000000000000011E-12
DataValue, 2.2600000000000002, 1.6E-11
DataValue, 2.27, 7.33E-12
DataValue, 2.2800000000000002, 1.777E-11
DataValue, 2.29, 5.2000000000000005E-12
DataValue, 2.3000000000000003, 1.988E-11
DataValue, 2.31, 3.77E-12
DataValue, 2.32, 2.098E-11
DataValue, 2.33, 3.28E-12
DataValue, 2.34, 2.0770000000000003E-11
DataValue, 2.35, 3.4900000000000003E-12
DataValue, 2.36, 2.045E-11
DataValue, 2.37, 4.46E-12
DataValue, 2.38, 1.9240000000000003E-11
DataValue, 2.39, 6.7400000000000008E-12
DataValue, 2.4, 1.65E-11
DataValue, 2.41, 9.3800000000000008E-12
DataValue, 2.42, 1.48E-11
DataValue, 2.43, 1.1120000000000001E-11
DataValue, 2.44, 1.2960000000000001E-11
DataValue, 2.45, 1.23E-11
DataValue, 2.46, 1.2880000000000002E-11
DataValue, 2.47, 1.1960000000000002E-11
DataValue, 2.48, 1.321E-11
DataValue, 2.49, 1.211E-11
DataValue, 2.5, 1.292E-11
DataValue, 2.5100000000000002, 1.279E-11
DataValue, 2.52, 1.3180000000000002E-11
DataValue, 2.5300000000000002, 1.201E-11
DataValue, 2.54, 1.252E-11
DataValue, 2.5500000000000003, 1.1970000000000002E-11
DataValue, 2.56, 1.23E-11
DataValue, 2.57, 1.2340000000000001E-11
DataValue, 2.58, 1.252E-11
DataValue, 2.59, 1.3E-11
DataValue, 2.6, 1.1860000000000002E-11
DataValue, 2.61, 1.32E-11
DataValue, 2.62, 1.1540000000000001E-11
DataValue, 2.63, 1.3700000000000002E-11
DataValue, 2.64, 1.0850000000000002E-11
DataValue, 2.65, 1.524E-11
DataValue, 2.66, 9.16E-12
DataValue, 2.67, 1.672E-11
DataValue, 2.68, 7.3800000000000013E-12
DataValue, 2.69, 1.826E-11
DataValue, 2.7, 7.1400000000000007E-12
DataValue, 2.71, 1.442E-11
DataValue, 2.72, 9.67E-12
DataValue, 2.73, 1.6050000000000002E-11
DataValue, 2.74, 8.14E-12
DataValue, 2.75, 1.7780000000000002E-11
DataValue, 2.7600000000000002, 6.26E-12
DataValue, 2.77, 1.9270000000000002E-11
DataValue, 2.7800000000000002, 4.97E-12
DataValue, 2.79, 2.0690000000000002E-11
DataValue, 2.8000000000000003, 3.51E-12
DataValue, 2.81, 2.1130000000000002E-11
DataValue, 2.82, 3.8300000000000004E-12
DataValue, 2.83, 2.0770000000000003E-11
DataValue, 2.84, 5.2000000000000005E-12
DataValue, 2.85, 2.1090000000000002E-11
DataValue, 2.86, 4.3400000000000005E-12
DataValue, 2.87, 2.054E-11
DataValue, 2.88, 5.6100000000000005E-12
DataValue, 2.89, 1.8330000000000003E-11
DataValue, 2.9, 7.8900000000000013E-12
DataValue, 2.91, 1.61E-11
DataValue, 2.92, 1.0800000000000001E-11
DataValue, 2.93, 1.3380000000000002E-11
DataValue, 2.94, 1.2360000000000002E-11
DataValue, 2.95, 1.32E-11
DataValue, 2.96, 1.2320000000000001E-11
DataValue, 2.97, 1.3850000000000001E-11
DataValue, 2.98, 1.228E-11
DataValue, 2.99, 1.322E-11
DataValue, 3, 1.2330000000000001E-11
DataValue, 3.0100000000000002, 1.3080000000000002E-11
DataValue, 3.02, 1.2770000000000002E-11
DataValue, 3.0300000000000002, 1.3030000000000001E-11
DataValue, 3.04, 1.3190000000000002E-11
DataValue, 3.0500000000000003, 1.228E-11
DataValue, 3.06, 1.3870000000000001E-11
DataValue, 3.0700000000000003, 1.147E-11
DataValue, 3.08, 1.459E-11
DataValue, 3.09, 1.0000000000000001E-11
DataValue, 3.1, 1.6980000000000002E-11
DataValue, 3.11, 1.0840000000000002E-11
DataValue, 3.12, 1.53E-11
DataValue, 3.13, 9.9100000000000012E-12
DataValue, 3.14, 1.692E-11
DataValue, 3.15, 8.14E-12
DataValue, 3.16, 1.8580000000000002E-11
DataValue, 3.17, 5.99E-12
DataValue, 3.18, 2.045E-11
DataValue, 3.19, 4.3000000000000007E-12
DataValue, 3.2, 2.1390000000000003E-11
DataValue, 3.21, 4.0400000000000006E-12
DataValue, 3.22, 2.181E-11
DataValue, 3.23, 5.08E-12
DataValue, 3.24, 1.988E-11
DataValue, 3.25, 6.41E-12
DataValue, 3.2600000000000002, 1.828E-11
DataValue, 3.27, 8.77E-12
DataValue, 3.2800000000000002, 1.622E-11
DataValue, 3.29, 8.3900000000000012E-12
DataValue, 3.3000000000000003, 1.683E-11
DataValue, 0, 1.7455E-09
DataValue, 0.01, 1.9076E-07
DataValue, 0.02, 3.5728E-07
DataValue, 0.03, 5.07E-07
DataValue, 0.04, 6.374E-07
DataValue, 0.05, 7.515E-07
DataValue, 0.06, 8.4937999999999995E-07
DataValue, 0.07, 9.3466E-07
DataValue, 0.08, 1.00466E-06
DataValue, 0.09, 1.0657E-06
DataValue, 0.1, 1.1163E-06
DataValue, 0.11, 1.1586E-06
DataValue, 0.12, 1.1936E-06
DataValue, 0.13, 1.2213E-06
DataValue, 0.14, 1.244E-06
DataValue, 0.15, 1.2621000000000002E-06
DataValue, 0.16, 1.2775E-06
DataValue, 0.17, 1.2903000000000002E-06
DataValue, 0.18, 1.2984000000000001E-06
DataValue, 0.19, 1.3068000000000001E-06
DataValue, 0.2, 1.3154000000000002E-06
DataValue, 0.21, 1.3198E-06
DataValue, 0.22, 1.323E-06
DataValue, 0.23, 1.3283E-06
DataValue, 0.24, 1.3319000000000001E-06
DataValue, 0.25, 1.3325000000000002E-06
DataValue, 0.26, 1.3351000000000001E-06
DataValue, 0.27, 1.3380000000000002E-06
DataValue, 0.28, 1.3396E-06
DataValue, 0.29, 1.3427E-06
DataValue, 0.3, 1.3440000000000002E-06
DataValue, 0.31, 1.3452E-06
DataValue, 0.32, 1.3465000000000002E-06
DataValue, 0.33, 1.3477E-06
DataValue, 0.34, 1.3491000000000001E-06
DataValue, 0.35000000000000003, 1.3505000000000002E-06
DataValue, 0.36, 1.3546000000000001E-06
DataValue, 0.37, 1.3512E-06
DataValue, 0.38, 1.3542E-06
DataValue, 0.39, 1.3541E-06
DataValue, 0.4, 1.3551000000000002E-06
DataValue, 0.41000000000000003, 1.3555000000000002E-06
DataValue, 0.42, 1.3559000000000002E-06
DataValue, 0.43, 1.3560000000000002E-06
DataValue, 0.44, 1.3573000000000001E-06
DataValue, 0.45, 1.3579000000000002E-06
DataValue, 0.46, 1.3592E-06
DataValue, 0.47000000000000003, 1.3602000000000001E-06
DataValue, 0.48, 1.3604000000000001E-06
DataValue, 0.49, 1.3602000000000001E-06
DataValue, 0.5, 1.3618000000000002E-06
DataValue, 0.51, 1.3608000000000002E-06
DataValue, 0.52, 1.3645000000000002E-06
DataValue, 0.53, 1.3632000000000001E-06
DataValue, 0.54, 1.3632000000000001E-06
DataValue, 0.55, 1.3629000000000001E-06
