
SetupTitle, NMOS-id-vg-vbs@vds=0.05
PrimitiveTest, I/V Sweep
TestParameter, Context.MainFrame, B1500A
TestParameter, Channel.UnitType, SMU, SMU, SMU, SMU
TestParameter, Channel.Unit, SMU2:HR, SMU1:HR, SMU3:HR, SMU4:HR
TestParameter, Channel.IName, ib, is, ig, id
TestParameter, Channel.VName, vb, vs, vg, vd
TestParameter, Channel.Mode, V, COMMON, V, V
TestParameter, Channel.Func, VAR2, CONST, VAR1, CONST
TestParameter, Channel.Index, 
TestParameter, Channel.Time, 
TestParameter, Measurement.Port.Unit, SMU2:HR, SMU1:HR, SMU3:HR, SMU4:HR
TestParameter, Measurement.Port.SeriesResistor, NONE, NONE, NONE, NONE
TestParameter, Measurement.Port.Filter, ON, ON, ON, ON
TestParameter, Measurement.Port.OutputVoltageComparison, 0, 0, 0, 0
TestParameter, Measurement.Primary.Locus, Single
TestParameter, Measurement.Primary.Scale, LINEAR
TestParameter, Measurement.Primary.Start, -0.5
TestParameter, Measurement.Primary.Stop, 3.3000000000000003
TestParameter, Measurement.Primary.Step, 0.01
TestParameter, Measurement.Primary.Compliance, 0.001
TestParameter, Measurement.Primary.PowerCompliance, 0
TestParameter, Measurement.Aborting.Condition, SKIP AT ANY ABNORMAL
TestParameter, Measurement.PostOutput.Value, START
TestParameter, Measurement.PostOutput.Retention, OFF
TestParameter, Measurement.Secondary.Start, 0
TestParameter, Measurement.Secondary.Count, 7
TestParameter, Measurement.Secondary.Step, -0.6
TestParameter, Measurement.Secondary.Compliance, 0.1
TestParameter, Measurement.Secondary.PowerCompliance, 0
TestParameter, Measurement.Bias.Source, 0, 0, -0.5, 0.05
TestParameter, Measurement.Bias.Compliance, 0.1, 0.1, 0.001, 0.1
TestParameter, Measurement.Monitor.Unit, SMU2:HR, SMU1:HR, SMU3:HR, SMU4:HR
TestParameter, Measurement.Monitor.Adc, HR ADC, HR ADC, HR ADC, HR ADC
TestParameter, Measurement.Monitor.Measurement, Compliance Side, Compliance Side, Compliance Side, Compliance Side
TestParameter, Measurement.Monitor.RangingMode, LIMITED, LIMITED, LIMITED, LIMITED
TestParameter, Measurement.Monitor.RangeBoundary, 1nA, 1nA, 1nA, 1nA
TestParameter, Measurement.Monitor.RangeRating, BY FULL RANGE, BY FULL RANGE, BY FULL RANGE, BY FULL RANGE
TestParameter, Measurement.Monitor.RangeRatingCoeff, 50, 50, 50, 50
TestParameter, Measurement.Timing.Hold, 0
TestParameter, Measurement.Timing.Delay, 0
TestParameter, Measurement.Adc.HighSpeed.Mode, AUTO
TestParameter, Measurement.Adc.HighSpeed.Coeff, 1
TestParameter, Measurement.Adc.HighResolution.AutoZero, OFF
TestParameter, Measurement.Adc.HighResolution.Mode, AUTO
TestParameter, Measurement.Adc.HighResolution.Coeff, 6
TestParameter, Measurement.WaitTime.Source.Coeff, 1
TestParameter, Measurement.WaitTime.Source.Offset, 0
TestParameter, Measurement.WaitTime.Monitor.Coeff, 1
TestParameter, Measurement.WaitTime.Monitor.Offset, 0
TestParameter, Output.Graph.Enabled, true
TestParameter, Output.Graph.AutoScaling, false
TestParameter, Output.Graph.XAxis.Data, vg
TestParameter, Output.Graph.XAxis.Scale, Linear
TestParameter, Output.Graph.XAxis.Left, 0
TestParameter, Output.Graph.XAxis.Right, 0.9
TestParameter, Output.Graph.XAxis.RunTimeAutoScale, true
TestParameter, Output.Graph.YAxis.Data, id
TestParameter, Output.Graph.YAxis.Scale, Linear
TestParameter, Output.Graph.YAxis.Bottom, -0.1
TestParameter, Output.Graph.YAxis.Top, 0.1
TestParameter, Output.Graph.YAxis.Group, 
TestParameter, Output.Graph.YAxis.RunTimeAutoScale, true
TestParameter, AutoAnalysis.Interpolation, false
TestParameter, AutoAnalysis.Var2StepCount, 1
TestParameter, AutoAnalysis.Var2StepScript, 
TestParameter, AutoAnalysis.Line1.Enabled, false
TestParameter, AutoAnalysis.Line1.Type, 1
TestParameter, AutoAnalysis.Line1.Fix, True
TestParameter, AutoAnalysis.Line1.YAxis, 0
TestParameter, AutoAnalysis.Line1.Point1.Type, 0
TestParameter, AutoAnalysis.Line1.Point1.XY.X, 
TestParameter, AutoAnalysis.Line1.Point1.XY.Y, 
TestParameter, AutoAnalysis.Line1.Point1.Data.Var, 
TestParameter, AutoAnalysis.Line1.Point1.Data.Condition, 
TestParameter, AutoAnalysis.Line1.Point1.Data.Start, false
TestParameter, AutoAnalysis.Line1.Point1.Data.StartVar, 
TestParameter, AutoAnalysis.Line1.Point1.Data.StartCondition, 
TestParameter, AutoAnalysis.Line1.Point2.Type, 0
TestParameter, AutoAnalysis.Line1.Point2.XY.X, 
TestParameter, AutoAnalysis.Line1.Point2.XY.Y, 
TestParameter, AutoAnalysis.Line1.Point2.Data.Var, 
TestParameter, AutoAnalysis.Line1.Point2.Data.Condition, 
TestParameter, AutoAnalysis.Line1.Point2.Data.Start, false
TestParameter, AutoAnalysis.Line1.Point2.Data.StartVar, 
TestParameter, AutoAnalysis.Line1.Point2.Data.StartCondition, 
TestParameter, AutoAnalysis.Line1.GradientExpr, 0
TestParameter, AutoAnalysis.Line2.Enabled, false
TestParameter, AutoAnalysis.Line2.Type, 1
TestParameter, AutoAnalysis.Line2.Fix, True
TestParameter, AutoAnalysis.Line2.YAxis, 0
TestParameter, AutoAnalysis.Line2.Point1.Type, 0
TestParameter, AutoAnalysis.Line2.Point1.XY.X, 
TestParameter, AutoAnalysis.Line2.Point1.XY.Y, 
TestParameter, AutoAnalysis.Line2.Point1.Data.Var, 
TestParameter, AutoAnalysis.Line2.Point1.Data.Condition, 
TestParameter, AutoAnalysis.Line2.Point1.Data.Start, false
TestParameter, AutoAnalysis.Line2.Point1.Data.StartVar, 
TestParameter, AutoAnalysis.Line2.Point1.Data.StartCondition, 
TestParameter, AutoAnalysis.Line2.Point2.Type, 0
TestParameter, AutoAnalysis.Line2.Point2.XY.X, 
TestParameter, AutoAnalysis.Line2.Point2.XY.Y, 
TestParameter, AutoAnalysis.Line2.Point2.Data.Var, 
TestParameter, AutoAnalysis.Line2.Point2.Data.Condition, 
TestParameter, AutoAnalysis.Line2.Point2.Data.Start, false
TestParameter, AutoAnalysis.Line2.Point2.Data.StartVar, 
TestParameter, AutoAnalysis.Line2.Point2.Data.StartCondition, 
TestParameter, AutoAnalysis.Line2.GradientExpr, 0
TestParameter, AutoAnalysis.Marker.Enabled, false
TestParameter, AutoAnalysis.Marker.Data.Var, 
TestParameter, AutoAnalysis.Marker.Data.Condition, 
TestParameter, AutoAnalysis.Marker.Data.Start, false
TestParameter, AutoAnalysis.Marker.Data.StartVar, 
TestParameter, AutoAnalysis.Marker.Data.StartCondition, 
MetaData, TestRecord.EntryPoint, true
MetaData, TestRecord.RecordTime, 01/16/2024 16:58:17
MetaData, TestRecord.TestTarget, N-1-1-298K
MetaData, TestRecord.IterationIndex, 5
MetaData, TestRecord.Preservation, true
MetaData, TestRecord.Flag, 
MetaData, TestRecord.Remarks, 
MetaData, TestRecord.LinkKey, ad55ccbb-8f1d-40f8-93d7-286d81565ac8
MetaData, TestRecord.Parameters, 
Dimension1, 381, 381
Dimension2, 7, 7
DataName, vg, id
DataValue, -0.5, 7.5600000000000009E-12
DataValue, -0.49, 1.007E-11
DataValue, -0.48, -1.65E-12
DataValue, -0.47000000000000003, 7.970000000000001E-12
DataValue, -0.46, 8.4000000000000014E-12
DataValue, -0.45, -1.36E-12
DataValue, -0.44, 8.6900000000000011E-12
DataValue, -0.43, 7.71E-12
DataValue, -0.42, -9.000000000000001E-13
DataValue, -0.41000000000000003, 1.0900000000000001E-11
DataValue, -0.4, 7.21E-12
DataValue, -0.39, 1.4E-13
DataValue, -0.38, 1.3790000000000002E-11
DataValue, -0.37, 6.8800000000000006E-12
DataValue, -0.36, 2.0500000000000004E-12
DataValue, -0.35000000000000003, 1.49E-11
DataValue, -0.34, 6.9800000000000006E-12
DataValue, -0.33, 3.86E-12
DataValue, -0.32, 1.5670000000000002E-11
DataValue, -0.31, 6.8200000000000004E-12
DataValue, -0.3, 7.1000000000000008E-12
DataValue, -0.29, 1.3270000000000001E-11
DataValue, -0.28, 6.6E-13
DataValue, -0.27, 7.72E-12
DataValue, -0.26, 1.179E-11
DataValue, -0.25, -1.12E-12
DataValue, -0.24, 7.2800000000000013E-12
DataValue, -0.23, 1.008E-11
DataValue, -0.22, -1.3300000000000002E-12
DataValue, -0.21, 7.95E-12
DataValue, -0.2, 8.77E-12
DataValue, -0.19, -1.3300000000000002E-12
DataValue, -0.18, 8.76E-12
DataValue, -0.17, 8.36E-12
DataValue, -0.16, 2.44E-12
DataValue, -0.15, 1.4870000000000003E-11
DataValue, -0.14, 7.0500000000000009E-12
DataValue, -0.13, 4.3000000000000007E-12
DataValue, -0.12, 1.566E-11
DataValue, -0.11, 6.71E-12
DataValue, -0.1, 5.2500000000000004E-12
DataValue, -0.09, 1.5780000000000003E-11
DataValue, -0.08, 5.6800000000000008E-12
DataValue, -0.07, 6.46E-12
DataValue, -0.06, 1.4740000000000002E-11
DataValue, -0.05, 3.2200000000000004E-12
DataValue, -0.04, 6.9400000000000007E-12
DataValue, -0.03, 1.007E-11
DataValue, -0.02, -1.55E-12
DataValue, -0.01, 7.75E-12
DataValue, 0, 9.33E-12
DataValue, 0.01, -1.46E-12
DataValue, 0.02, 7.5900000000000014E-12
DataValue, 0.03, 1.4280000000000001E-11
DataValue, 0.04, 1.64E-12
DataValue, 0.05, 6.4700000000000005E-12
DataValue, 0.06, 1.577E-11
DataValue, 0.07, 7.22E-12
DataValue, 0.08, 1.31E-12
DataValue, 0.09, 1.4000000000000002E-11
DataValue, 0.1, 7.64E-12
DataValue, 0.11, -1.09E-12
DataValue, 0.12, 8.12E-12
DataValue, 0.13, 1.168E-11
DataValue, 0.14, -1.18E-12
DataValue, 0.15, 7.61E-12
DataValue, 0.16, 1.4170000000000001E-11
DataValue, 0.17, 5.23E-12
DataValue, 0.18, 5.7300000000000008E-12
DataValue, 0.19, 1.5940000000000002E-11
DataValue, 0.2, 7.0400000000000007E-12
DataValue, 0.21, 2.92E-12
DataValue, 0.22, 1.228E-11
DataValue, 0.23, 9.16E-12
DataValue, 0.24, -7.7000000000000005E-13
DataValue, 0.25, 8.95E-12
DataValue, 0.26, 1.208E-11
DataValue, 0.27, 2.6100000000000004E-12
DataValue, 0.28, 9.2000000000000012E-12
DataValue, 0.29, 1.57E-11
DataValue, 0.3, 7.3E-12
DataValue, 0.31, 9.6100000000000013E-12
DataValue, 0.32, 2.038E-11
DataValue, 0.33, 1.3460000000000001E-11
DataValue, 0.34, 1.2070000000000002E-11
DataValue, 0.35000000000000003, 2.3860000000000002E-11
DataValue, 0.36, 1.9420000000000002E-11
DataValue, 0.37, 1.4260000000000001E-11
DataValue, 0.38, 2.7430000000000002E-11
DataValue, 0.39, 3.3380000000000005E-11
DataValue, 0.4, 3.0790000000000004E-11
DataValue, 0.41000000000000003, 4.8060000000000006E-11
DataValue, 0.42, 6.385E-11
DataValue, 0.43, 6.648E-11
DataValue, 0.44, 9.09E-11
DataValue, 0.45, 1.2054E-10
DataValue, 0.46, 1.4156E-10
DataValue, 0.47000000000000003, 1.8721000000000002E-10
DataValue, 0.48, 2.4173E-10
DataValue, 0.49, 3.0157E-10
DataValue, 0.5, 3.7756000000000004E-10
DataValue, 0.51, 4.8754000000000006E-10
DataValue, 0.52, 6.1295E-10
DataValue, 0.53, 7.775900000000001E-10
DataValue, 0.54, 1.00373E-09
DataValue, 0.55, 1.373E-09
DataValue, 0.56, 1.6552E-09
DataValue, 0.57000000000000006, 2.2052E-09
DataValue, 0.58, 2.7192E-09
DataValue, 0.59, 3.4739E-09
DataValue, 0.6, 4.4034E-09
DataValue, 0.61, 5.6214E-09
DataValue, 0.62, 7.1577E-09
DataValue, 0.63, 9.0696E-09
DataValue, 0.64, 1.2145199999999998E-08
DataValue, 0.65, 1.5300799999999998E-08
DataValue, 0.66, 1.9227599999999997E-08
DataValue, 0.67, 2.4589799999999996E-08
DataValue, 0.68, 3.01404E-08
DataValue, 0.69000000000000006, 3.7416599999999995E-08
DataValue, 0.70000000000000007, 4.61096E-08
DataValue, 0.71, 5.6360599999999996E-08
DataValue, 0.72, 6.857939999999999E-08
DataValue, 0.73, 8.2790199999999987E-08
DataValue, 0.74, 9.9583599999999992E-08
DataValue, 0.75, 1.1872E-07
DataValue, 0.76, 1.4036E-07
DataValue, 0.77, 1.6578E-07
DataValue, 0.78, 1.9324E-07
DataValue, 0.79, 2.2382E-07
DataValue, 0.8, 2.5693999999999997E-07
DataValue, 0.81, 2.9342E-07
DataValue, 0.82000000000000006, 3.3358E-07
DataValue, 0.83000000000000007, 3.7668E-07
DataValue, 0.84, 4.2292E-07
DataValue, 0.85, 4.7155999999999997E-07
DataValue, 0.86, 5.243E-07
DataValue, 0.87, 5.7854E-07
DataValue, 0.88, 6.3554E-07
DataValue, 0.89, 6.9546E-07
DataValue, 0.9, 7.5746E-07
DataValue, 0.91, 8.2256E-07
DataValue, 0.92, 8.8926E-07
DataValue, 0.93, 9.5952E-07
DataValue, 0.94000000000000006, 1.028E-06
DataValue, 0.95000000000000007, 1.0996E-06
DataValue, 0.96, 1.1718000000000002E-06
DataValue, 0.97, 1.2491E-06
DataValue, 0.98, 1.3228E-06
DataValue, 0.99, 1.4013000000000003E-06
DataValue, 1, 1.4766000000000002E-06
DataValue, 1.01, 1.5627E-06
DataValue, 1.02, 1.6350000000000002E-06
DataValue, 1.03, 1.7186000000000002E-06
DataValue, 1.04, 1.7985000000000002E-06
DataValue, 1.05, 1.8793000000000002E-06
DataValue, 1.06, 1.9599E-06
DataValue, 1.07, 2.0439E-06
DataValue, 1.08, 2.1248000000000004E-06
DataValue, 1.09, 2.2075E-06
DataValue, 1.1, 2.2930000000000003E-06
DataValue, 1.11, 2.3752E-06
DataValue, 1.12, 2.4578000000000004E-06
DataValue, 1.1300000000000001, 2.5408000000000003E-06
DataValue, 1.1400000000000001, 2.6263E-06
DataValue, 1.1500000000000001, 2.7092000000000003E-06
DataValue, 1.16, 2.7914E-06
DataValue, 1.17, 2.8753000000000002E-06
DataValue, 1.18, 2.9596000000000004E-06
DataValue, 1.19, 3.0409000000000004E-06
DataValue, 1.2, 3.1232000000000004E-06
DataValue, 1.21, 3.2078000000000004E-06
DataValue, 1.22, 3.2883000000000003E-06
DataValue, 1.23, 3.3707E-06
DataValue, 1.24, 3.4550000000000004E-06
DataValue, 1.25, 3.5365000000000004E-06
DataValue, 1.26, 3.6162E-06
DataValue, 1.27, 3.6985000000000002E-06
DataValue, 1.28, 3.7807000000000005E-06
DataValue, 1.29, 3.8624000000000005E-06
DataValue, 1.3, 3.9434E-06
DataValue, 1.31, 4.0233E-06
DataValue, 1.32, 4.1061E-06
DataValue, 1.33, 4.1854000000000006E-06
DataValue, 1.34, 4.2631000000000007E-06
DataValue, 1.35, 4.3437000000000004E-06
DataValue, 1.36, 4.4231E-06
DataValue, 1.37, 4.505E-06
DataValue, 1.3800000000000001, 4.5805000000000004E-06
DataValue, 1.3900000000000001, 4.6607E-06
DataValue, 1.4000000000000001, 4.7361E-06
DataValue, 1.41, 4.8139000000000006E-06
DataValue, 1.42, 4.8922E-06
DataValue, 1.43, 4.971E-06
DataValue, 1.44, 5.0451E-06
DataValue, 1.45, 5.1212E-06
DataValue, 1.46, 5.2009000000000005E-06
DataValue, 1.47, 5.2761E-06
DataValue, 1.48, 5.3491E-06
DataValue, 1.49, 5.4270000000000007E-06
DataValue, 1.5, 5.503600000000001E-06
DataValue, 1.51, 5.576600000000001E-06
DataValue, 1.52, 5.6506000000000006E-06
DataValue, 1.53, 5.7277E-06
DataValue, 1.54, 5.7992E-06
DataValue, 1.55, 5.8755000000000008E-06
DataValue, 1.56, 5.9474000000000009E-06
DataValue, 1.57, 6.019300000000001E-06
DataValue, 1.58, 6.0915000000000009E-06
DataValue, 1.59, 6.1649000000000009E-06
DataValue, 1.6, 6.2348000000000009E-06
DataValue, 1.61, 6.307900000000001E-06
DataValue, 1.62, 6.3796000000000007E-06
DataValue, 1.6300000000000001, 6.4472000000000007E-06
DataValue, 1.6400000000000001, 6.5201000000000005E-06
DataValue, 1.6500000000000001, 6.5928000000000006E-06
DataValue, 1.6600000000000001, 6.6583E-06
DataValue, 1.67, 6.7300000000000008E-06
DataValue, 1.68, 6.8019000000000009E-06
DataValue, 1.69, 6.8664000000000009E-06
DataValue, 1.7, 6.933300000000001E-06
DataValue, 1.71, 7.005900000000001E-06
DataValue, 1.72, 7.0717E-06
DataValue, 1.73, 7.1386000000000006E-06
DataValue, 1.74, 7.208700000000001E-06
DataValue, 1.75, 7.274400000000001E-06
DataValue, 1.76, 7.3402000000000005E-06
DataValue, 1.77, 7.4087000000000007E-06
DataValue, 1.78, 7.4750000000000004E-06
DataValue, 1.79, 7.5366000000000008E-06
DataValue, 1.8, 7.6051000000000011E-06
DataValue, 1.81, 7.6705E-06
DataValue, 1.82, 7.7329E-06
DataValue, 1.83, 7.7987E-06
DataValue, 1.84, 7.8678000000000011E-06
DataValue, 1.85, 7.9259000000000015E-06
DataValue, 1.86, 7.9881E-06
DataValue, 1.87, 8.0539000000000009E-06
DataValue, 1.8800000000000001, 8.1177E-06
DataValue, 1.8900000000000001, 8.1762000000000014E-06
DataValue, 1.9000000000000001, 8.2385E-06
DataValue, 1.9100000000000001, 8.3034E-06
DataValue, 1.92, 8.3631000000000013E-06
DataValue, 1.93, 8.423E-06
DataValue, 1.94, 8.4856E-06
DataValue, 1.95, 8.5485000000000012E-06
DataValue, 1.96, 8.6074000000000016E-06
DataValue, 1.97, 8.6650000000000009E-06
DataValue, 1.98, 8.7288E-06
DataValue, 1.99, 8.7858000000000015E-06
DataValue, 2, 8.8419E-06
DataValue, 2.0100000000000002, 8.9016000000000013E-06
DataValue, 2.02, 8.9631E-06
DataValue, 2.0300000000000002, 9.0139E-06
DataValue, 2.04, 9.0741E-06
DataValue, 2.05, 9.1357000000000013E-06
DataValue, 2.06, 9.1918E-06
DataValue, 2.07, 9.2431000000000013E-06
DataValue, 2.08, 9.3E-06
DataValue, 2.09, 9.3578E-06
DataValue, 2.1, 9.4118E-06
DataValue, 2.11, 9.4661E-06
DataValue, 2.12, 9.5238E-06
DataValue, 2.13, 9.5787E-06
DataValue, 2.14, 9.6280000000000017E-06
DataValue, 2.15, 9.6869E-06
DataValue, 2.16, 9.7432E-06
DataValue, 2.17, 9.7912E-06
DataValue, 2.18, 9.8433000000000011E-06
DataValue, 2.19, 9.8992000000000017E-06
DataValue, 2.2, 9.9539000000000014E-06
DataValue, 2.21, 1.0001800000000001E-05
DataValue, 2.22, 1.0050400000000001E-05
DataValue, 2.23, 1.0106900000000001E-05
DataValue, 2.24, 1.0154600000000001E-05
DataValue, 2.25, 1.0203500000000002E-05
DataValue, 2.2600000000000002, 1.0258500000000002E-05
DataValue, 2.27, 1.03098E-05
DataValue, 2.2800000000000002, 1.0354000000000001E-05
DataValue, 2.29, 1.0402700000000001E-05
DataValue, 2.3000000000000003, 1.0456300000000002E-05
DataValue, 2.31, 1.0506300000000001E-05
DataValue, 2.32, 1.0548100000000002E-05
DataValue, 2.33, 1.06024E-05
DataValue, 2.34, 1.06518E-05
DataValue, 2.35, 1.0696E-05
DataValue, 2.36, 1.07416E-05
DataValue, 2.37, 1.0793600000000001E-05
DataValue, 2.38, 1.08405E-05
DataValue, 2.39, 1.0883300000000001E-05
DataValue, 2.4, 1.0930600000000002E-05
DataValue, 2.41, 1.0975400000000002E-05
DataValue, 2.42, 1.10281E-05
DataValue, 2.43, 1.1069500000000001E-05
DataValue, 2.44, 1.1107500000000002E-05
DataValue, 2.45, 1.11533E-05
DataValue, 2.46, 1.1200200000000002E-05
DataValue, 2.47, 1.1240300000000002E-05
DataValue, 2.48, 1.1287E-05
DataValue, 2.49, 1.13358E-05
DataValue, 2.5, 1.1370700000000001E-05
DataValue, 2.5100000000000002, 1.1415900000000002E-05
DataValue, 2.52, 1.1467200000000001E-05
DataValue, 2.5300000000000002, 1.14995E-05
DataValue, 2.54, 1.1534E-05
DataValue, 2.5500000000000003, 1.1580000000000001E-05
DataValue, 2.56, 1.1622E-05
DataValue, 2.57, 1.1668E-05
DataValue, 2.58, 1.1704E-05
DataValue, 2.59, 1.1744E-05
DataValue, 2.6, 1.1784000000000001E-05
DataValue, 2.61, 1.183E-05
DataValue, 2.62, 1.1868E-05
DataValue, 2.63, 1.1902E-05
DataValue, 2.64, 1.1948E-05
DataValue, 2.65, 1.1984E-05
DataValue, 2.66, 1.2022000000000001E-05
DataValue, 2.67, 1.206E-05
DataValue, 2.68, 1.2100000000000001E-05
DataValue, 2.69, 1.2136E-05
DataValue, 2.7, 1.2174E-05
DataValue, 2.71, 1.2212000000000001E-05
DataValue, 2.72, 1.2248E-05
DataValue, 2.73, 1.2288E-05
DataValue, 2.74, 1.2318E-05
DataValue, 2.75, 1.235E-05
DataValue, 2.7600000000000002, 1.239E-05
DataValue, 2.77, 1.2428E-05
DataValue, 2.7800000000000002, 1.2460000000000001E-05
DataValue, 2.79, 1.2488E-05
DataValue, 2.8000000000000003, 1.2534E-05
DataValue, 2.81, 1.2572000000000001E-05
DataValue, 2.82, 1.2602E-05
DataValue, 2.83, 1.2632E-05
DataValue, 2.84, 1.2674000000000001E-05
DataValue, 2.85, 1.27E-05
DataValue, 2.86, 1.2732000000000001E-05
DataValue, 2.87, 1.2772E-05
DataValue, 2.88, 1.2802E-05
DataValue, 2.89, 1.2834000000000001E-05
DataValue, 2.9, 1.2868000000000001E-05
DataValue, 2.91, 1.2902000000000001E-05
DataValue, 2.92, 1.2934E-05
DataValue, 2.93, 1.2964E-05
DataValue, 2.94, 1.2998E-05
DataValue, 2.95, 1.3026E-05
DataValue, 2.96, 1.3052E-05
DataValue, 2.97, 1.3094E-05
DataValue, 2.98, 1.3118E-05
DataValue, 2.99, 1.3150000000000001E-05
DataValue, 3, 1.3176E-05
DataValue, 3.0100000000000002, 1.3212E-05
DataValue, 3.02, 1.3238000000000001E-05
DataValue, 3.0300000000000002, 1.3262000000000001E-05
DataValue, 3.04, 1.3304E-05
DataValue, 3.0500000000000003, 1.3328E-05
DataValue, 3.06, 1.3352E-05
DataValue, 3.0700000000000003, 1.3382E-05
DataValue, 3.08, 1.341E-05
DataValue, 3.09, 1.3438E-05
DataValue, 3.1, 1.3464E-05
DataValue, 3.11, 1.3490000000000001E-05
DataValue, 3.12, 1.3524000000000001E-05
DataValue, 3.13, 1.3546E-05
DataValue, 3.14, 1.357E-05
DataValue, 3.15, 1.3612000000000001E-05
DataValue, 3.16, 1.363E-05
DataValue, 3.17, 1.3652E-05
DataValue, 3.18, 1.3686E-05
DataValue, 3.19, 1.3704000000000001E-05
DataValue, 3.2, 1.3728E-05
DataValue, 3.21, 1.3752E-05
DataValue, 3.22, 1.3782000000000001E-05
DataValue, 3.23, 1.381E-05
DataValue, 3.24, 1.3834E-05
DataValue, 3.25, 1.3852E-05
DataValue, 3.2600000000000002, 1.3884000000000001E-05
DataValue, 3.27, 1.3906E-05
DataValue, 3.2800000000000002, 1.3924000000000001E-05
DataValue, 3.29, 1.3952000000000001E-05
DataValue, 3.3000000000000003, 1.3976E-05
DataValue, -0.5, 8.3700000000000009E-12
DataValue, -0.49, 8.2900000000000012E-12
DataValue, -0.48, 2.77E-12
