
SetupTitle, NMOS-id-vg-vbs@vds=3.3
PrimitiveTest, I/V Sweep
TestParameter, Context.MainFrame, B1500A
TestParameter, Channel.UnitType, SMU, SMU, SMU, SMU
TestParameter, Channel.Unit, SMU2:HR, SMU1:HR, SMU3:HR, SMU4:HR
TestParameter, Channel.IName, ib, is, ig, id
TestParameter, Channel.VName, vb, vs, vg, vd
TestParameter, Channel.Mode, V, COMMON, V, V
TestParameter, Channel.Func, VAR2, CONST, VAR1, CONST
TestParameter, Channel.Index, 
TestParameter, Channel.Time, 
TestParameter, Measurement.Port.Unit, SMU2:HR, SMU1:HR, SMU3:HR, SMU4:HR
TestParameter, Measurement.Port.SeriesResistor, NONE, NONE, NONE, NONE
TestParameter, Measurement.Port.Filter, ON, ON, ON, ON
TestParameter, Measurement.Port.OutputVoltageComparison, 0, 0, 0, 0
TestParameter, Measurement.Primary.Locus, Single
TestParameter, Measurement.Primary.Scale, LINEAR
TestParameter, Measurement.Primary.Start, -0.5
TestParameter, Measurement.Primary.Stop, 3.3000000000000003
TestParameter, Measurement.Primary.Step, 0.01
TestParameter, Measurement.Primary.Compliance, 0.001
TestParameter, Measurement.Primary.PowerCompliance, 0
TestParameter, Measurement.Aborting.Condition, SKIP AT ANY ABNORMAL
TestParameter, Measurement.PostOutput.Value, START
TestParameter, Measurement.PostOutput.Retention, OFF
TestParameter, Measurement.Secondary.Start, 0
TestParameter, Measurement.Secondary.Count, 7
TestParameter, Measurement.Secondary.Step, -0.6
TestParameter, Measurement.Secondary.Compliance, 0.1
TestParameter, Measurement.Secondary.PowerCompliance, 0
TestParameter, Measurement.Bias.Source, 0, 0, -0.5, 3.3000000000000003
TestParameter, Measurement.Bias.Compliance, 0.1, 0.1, 0.001, 0.1
TestParameter, Measurement.Monitor.Unit, SMU2:HR, SMU1:HR, SMU3:HR, SMU4:HR
TestParameter, Measurement.Monitor.Adc, HR ADC, HR ADC, HR ADC, HR ADC
TestParameter, Measurement.Monitor.Measurement, Compliance Side, Compliance Side, Compliance Side, Compliance Side
TestParameter, Measurement.Monitor.RangingMode, LIMITED, LIMITED, LIMITED, LIMITED
TestParameter, Measurement.Monitor.RangeBoundary, 1nA, 1nA, 1nA, 1nA
TestParameter, Measurement.Monitor.RangeRating, BY FULL RANGE, BY FULL RANGE, BY FULL RANGE, BY FULL RANGE
TestParameter, Measurement.Monitor.RangeRatingCoeff, 50, 50, 50, 50
TestParameter, Measurement.Timing.Hold, 0
TestParameter, Measurement.Timing.Delay, 0
TestParameter, Measurement.Adc.HighSpeed.Mode, AUTO
TestParameter, Measurement.Adc.HighSpeed.Coeff, 1
TestParameter, Measurement.Adc.HighResolution.AutoZero, OFF
TestParameter, Measurement.Adc.HighResolution.Mode, AUTO
TestParameter, Measurement.Adc.HighResolution.Coeff, 6
TestParameter, Measurement.WaitTime.Source.Coeff, 1
TestParameter, Measurement.WaitTime.Source.Offset, 0
TestParameter, Measurement.WaitTime.Monitor.Coeff, 1
TestParameter, Measurement.WaitTime.Monitor.Offset, 0
TestParameter, Output.Graph.Enabled, true
TestParameter, Output.Graph.AutoScaling, false
TestParameter, Output.Graph.XAxis.Data, vg
TestParameter, Output.Graph.XAxis.Scale, Linear
TestParameter, Output.Graph.XAxis.Left, 0
TestParameter, Output.Graph.XAxis.Right, 0.9
TestParameter, Output.Graph.XAxis.RunTimeAutoScale, true
TestParameter, Output.Graph.YAxis.Data, id
TestParameter, Output.Graph.YAxis.Scale, Linear
TestParameter, Output.Graph.YAxis.Bottom, -0.1
TestParameter, Output.Graph.YAxis.Top, 0.1
TestParameter, Output.Graph.YAxis.Group, 
TestParameter, Output.Graph.YAxis.RunTimeAutoScale, true
TestParameter, AutoAnalysis.Interpolation, false
TestParameter, AutoAnalysis.Var2StepCount, 1
TestParameter, AutoAnalysis.Var2StepScript, 
TestParameter, AutoAnalysis.Line1.Enabled, false
TestParameter, AutoAnalysis.Line1.Type, 1
TestParameter, AutoAnalysis.Line1.Fix, True
TestParameter, AutoAnalysis.Line1.YAxis, 0
TestParameter, AutoAnalysis.Line1.Point1.Type, 0
TestParameter, AutoAnalysis.Line1.Point1.XY.X, 
TestParameter, AutoAnalysis.Line1.Point1.XY.Y, 
TestParameter, AutoAnalysis.Line1.Point1.Data.Var, 
TestParameter, AutoAnalysis.Line1.Point1.Data.Condition, 
TestParameter, AutoAnalysis.Line1.Point1.Data.Start, false
TestParameter, AutoAnalysis.Line1.Point1.Data.StartVar, 
TestParameter, AutoAnalysis.Line1.Point1.Data.StartCondition, 
TestParameter, AutoAnalysis.Line1.Point2.Type, 0
TestParameter, AutoAnalysis.Line1.Point2.XY.X, 
TestParameter, AutoAnalysis.Line1.Point2.XY.Y, 
TestParameter, AutoAnalysis.Line1.Point2.Data.Var, 
TestParameter, AutoAnalysis.Line1.Point2.Data.Condition, 
TestParameter, AutoAnalysis.Line1.Point2.Data.Start, false
TestParameter, AutoAnalysis.Line1.Point2.Data.StartVar, 
TestParameter, AutoAnalysis.Line1.Point2.Data.StartCondition, 
TestParameter, AutoAnalysis.Line1.GradientExpr, 0
TestParameter, AutoAnalysis.Line2.Enabled, false
TestParameter, AutoAnalysis.Line2.Type, 1
TestParameter, AutoAnalysis.Line2.Fix, True
TestParameter, AutoAnalysis.Line2.YAxis, 0
TestParameter, AutoAnalysis.Line2.Point1.Type, 0
TestParameter, AutoAnalysis.Line2.Point1.XY.X, 
TestParameter, AutoAnalysis.Line2.Point1.XY.Y, 
TestParameter, AutoAnalysis.Line2.Point1.Data.Var, 
TestParameter, AutoAnalysis.Line2.Point1.Data.Condition, 
TestParameter, AutoAnalysis.Line2.Point1.Data.Start, false
TestParameter, AutoAnalysis.Line2.Point1.Data.StartVar, 
TestParameter, AutoAnalysis.Line2.Point1.Data.StartCondition, 
TestParameter, AutoAnalysis.Line2.Point2.Type, 0
TestParameter, AutoAnalysis.Line2.Point2.XY.X, 
TestParameter, AutoAnalysis.Line2.Point2.XY.Y, 
TestParameter, AutoAnalysis.Line2.Point2.Data.Var, 
TestParameter, AutoAnalysis.Line2.Point2.Data.Condition, 
TestParameter, AutoAnalysis.Line2.Point2.Data.Start, false
TestParameter, AutoAnalysis.Line2.Point2.Data.StartVar, 
TestParameter, AutoAnalysis.Line2.Point2.Data.StartCondition, 
TestParameter, AutoAnalysis.Line2.GradientExpr, 0
TestParameter, AutoAnalysis.Marker.Enabled, false
TestParameter, AutoAnalysis.Marker.Data.Var, 
TestParameter, AutoAnalysis.Marker.Data.Condition, 
TestParameter, AutoAnalysis.Marker.Data.Start, false
TestParameter, AutoAnalysis.Marker.Data.StartVar, 
TestParameter, AutoAnalysis.Marker.Data.StartCondition, 
MetaData, TestRecord.EntryPoint, true
MetaData, TestRecord.RecordTime, 01/15/2024 18:57:50
MetaData, TestRecord.TestTarget, N-1-1-298K
MetaData, TestRecord.IterationIndex, 1
MetaData, TestRecord.Preservation, true
MetaData, TestRecord.Flag, 
MetaData, TestRecord.Remarks, 
MetaData, TestRecord.LinkKey, 8c4b5664-c652-499e-91bd-5b378546ba13
MetaData, TestRecord.Parameters, 
Dimension1, 381, 381
Dimension2, 7, 7
DataName, vg, id
DataValue, -0.5, 1.17E-12
DataValue, -0.49, 1.1E-11
DataValue, -0.48, 1.209E-11
DataValue, -0.47000000000000003, 1.3400000000000002E-12
DataValue, -0.46, 1.2020000000000001E-11
DataValue, -0.45, 1.0740000000000002E-11
DataValue, -0.44, 1.8700000000000003E-12
DataValue, -0.43, 1.475E-11
DataValue, -0.42, 1.0910000000000001E-11
DataValue, -0.41000000000000003, 3.4700000000000004E-12
DataValue, -0.4, 1.77E-11
DataValue, -0.39, 1.047E-11
DataValue, -0.38, 5.95E-12
DataValue, -0.37, 1.903E-11
DataValue, -0.36, 9.96E-12
DataValue, -0.35000000000000003, 7.61E-12
DataValue, -0.34, 1.9620000000000002E-11
DataValue, -0.33, 9.5000000000000011E-12
DataValue, -0.32, 8.85E-12
DataValue, -0.31, 1.8870000000000002E-11
DataValue, -0.3, 8.04E-12
DataValue, -0.29, 9.7300000000000016E-12
DataValue, -0.28, 1.7690000000000002E-11
DataValue, -0.27, 5.19E-12
DataValue, -0.26, 1.0130000000000002E-11
DataValue, -0.25, 1.2740000000000001E-11
DataValue, -0.24, 1.0600000000000001E-12
DataValue, -0.23, 1.1230000000000001E-11
DataValue, -0.22, 1.1350000000000002E-11
DataValue, -0.21, 1.1500000000000002E-12
DataValue, -0.2, 1.2980000000000002E-11
DataValue, -0.19, 1.067E-11
DataValue, -0.18, 2.85E-12
DataValue, -0.17, 1.5630000000000002E-11
DataValue, -0.16, 1.036E-11
DataValue, -0.15, 4.68E-12
DataValue, -0.14, 1.814E-11
DataValue, -0.13, 9.9100000000000012E-12
DataValue, -0.12, 5.9200000000000006E-12
DataValue, -0.11, 1.886E-11
DataValue, -0.1, 1.0020000000000001E-11
DataValue, -0.09, 8.01E-12
DataValue, -0.08, 1.8980000000000002E-11
DataValue, -0.07, 9.3800000000000008E-12
DataValue, -0.06, 8.8800000000000009E-12
DataValue, -0.05, 1.8840000000000003E-11
DataValue, -0.04, 8.1000000000000014E-12
DataValue, -0.03, 9.53E-12
DataValue, -0.02, 1.777E-11
DataValue, -0.01, 5.9E-12
DataValue, 0, 1.036E-11
DataValue, 0.01, 1.613E-11
DataValue, 0.02, 3.4100000000000002E-12
DataValue, 0.03, 9.8000000000000011E-12
DataValue, 0.04, 1.703E-11
DataValue, 0.05, 4.33E-12
DataValue, 0.06, 1.0540000000000002E-11
DataValue, 0.07, 1.8110000000000003E-11
DataValue, 0.08, 9.16E-12
DataValue, 0.09, 8.87E-12
DataValue, 0.1, 1.8780000000000002E-11
DataValue, 0.11, 7.770000000000001E-12
DataValue, 0.12, 9.8200000000000014E-12
DataValue, 0.13, 1.768E-11
DataValue, 0.14, 5.1000000000000005E-12
DataValue, 0.15, 1.029E-11
DataValue, 0.16, 1.579E-11
DataValue, 0.17, 2.9400000000000004E-12
DataValue, 0.18, 1.0520000000000001E-11
DataValue, 0.19, 1.4810000000000002E-11
DataValue, 0.2, 1.79E-12
DataValue, 0.21, 1.1050000000000002E-11
DataValue, 0.22, 1.3870000000000001E-11
DataValue, 0.23, 1.12E-12
DataValue, 0.24, 1.1920000000000001E-11
DataValue, 0.25, 1.2970000000000002E-11
DataValue, 0.26, 3.0100000000000003E-12
DataValue, 0.27, 1.209E-11
DataValue, 0.28, 2.0060000000000003E-11
DataValue, 0.29, 1.21E-11
DataValue, 0.3, 1.322E-11
DataValue, 0.31, 2.4060000000000002E-11
DataValue, 0.32, 1.6490000000000003E-11
DataValue, 0.33, 1.549E-11
DataValue, 0.34, 2.8220000000000004E-11
DataValue, 0.35000000000000003, 2.3080000000000003E-11
DataValue, 0.36, 1.9420000000000002E-11
DataValue, 0.37, 3.3230000000000004E-11
DataValue, 0.38, 3.722E-11
DataValue, 0.39, 3.543E-11
DataValue, 0.4, 5.576E-11
DataValue, 0.41000000000000003, 6.859E-11
DataValue, 0.42, 7.3270000000000009E-11
DataValue, 0.43, 1.0168E-10
DataValue, 0.44, 1.3231E-10
DataValue, 0.45, 1.5556E-10
DataValue, 0.46, 2.001E-10
DataValue, 0.47000000000000003, 2.6320000000000003E-10
DataValue, 0.48, 3.2339E-10
DataValue, 0.49, 4.1074E-10
DataValue, 0.5, 5.5326E-10
DataValue, 0.51, 6.7017000000000008E-10
DataValue, 0.52, 8.4626E-10
DataValue, 0.53, 1.10115E-09
DataValue, 0.54, 1.5017E-09
DataValue, 0.55, 1.815E-09
DataValue, 0.56, 2.3191E-09
DataValue, 0.57000000000000006, 2.9739E-09
DataValue, 0.58, 3.843E-09
DataValue, 0.59, 4.8668E-09
DataValue, 0.6, 6.2337E-09
DataValue, 0.61, 8.1888E-09
DataValue, 0.62, 1.00849E-08
DataValue, 0.63, 1.3513399999999998E-08
DataValue, 0.64, 1.71474E-08
DataValue, 0.65, 2.1663999999999998E-08
DataValue, 0.66, 2.73042E-08
DataValue, 0.67, 3.5090799999999995E-08
DataValue, 0.68, 4.3018599999999995E-08
DataValue, 0.69000000000000006, 5.35792E-08
DataValue, 0.70000000000000007, 6.6296599999999993E-08
DataValue, 0.71, 8.1783999999999986E-08
DataValue, 0.72, 1.0020719999999999E-07
DataValue, 0.73, 1.2224E-07
DataValue, 0.74, 1.4812E-07
DataValue, 0.75, 1.7848E-07
DataValue, 0.76, 2.1362E-07
DataValue, 0.77, 2.5508E-07
DataValue, 0.78, 3.0096E-07
DataValue, 0.79, 3.5374E-07
DataValue, 0.8, 4.1739999999999997E-07
DataValue, 0.81, 4.8098E-07
DataValue, 0.82000000000000006, 5.561E-07
DataValue, 0.83000000000000007, 6.3942E-07
DataValue, 0.84, 7.3248E-07
DataValue, 0.85, 8.3324E-07
DataValue, 0.86, 9.4398E-07
DataValue, 0.87, 1.06424E-06
DataValue, 0.88, 1.1984E-06
DataValue, 0.89, 1.334E-06
DataValue, 0.9, 1.4843000000000001E-06
DataValue, 0.91, 1.6495000000000003E-06
DataValue, 0.92, 1.8223000000000001E-06
DataValue, 0.93, 2.0069000000000002E-06
DataValue, 0.94000000000000006, 2.2023E-06
DataValue, 0.95000000000000007, 2.4087000000000003E-06
DataValue, 0.96, 2.6288E-06
DataValue, 0.97, 2.8638000000000004E-06
DataValue, 0.98, 3.1071000000000003E-06
DataValue, 0.99, 3.3595E-06
DataValue, 1, 3.6273000000000004E-06
DataValue, 1.01, 3.9066E-06
DataValue, 1.02, 4.1972E-06
DataValue, 1.03, 4.5E-06
DataValue, 1.04, 4.8229000000000009E-06
DataValue, 1.05, 5.1499000000000004E-06
DataValue, 1.06, 5.4979E-06
DataValue, 1.07, 5.844E-06
DataValue, 1.08, 6.2103000000000005E-06
DataValue, 1.09, 6.5869E-06
DataValue, 1.1, 6.9836E-06
DataValue, 1.11, 7.3881000000000005E-06
DataValue, 1.12, 7.8026E-06
DataValue, 1.1300000000000001, 8.2276E-06
DataValue, 1.1400000000000001, 8.6699000000000015E-06
DataValue, 1.1500000000000001, 9.1209000000000011E-06
DataValue, 1.16, 9.5839000000000015E-06
DataValue, 1.17, 1.00679E-05
DataValue, 1.18, 1.0555200000000002E-05
DataValue, 1.19, 1.10553E-05
DataValue, 1.2, 1.1564E-05
DataValue, 1.21, 1.2088E-05
DataValue, 1.22, 1.2626E-05
DataValue, 1.23, 1.3170000000000001E-05
DataValue, 1.24, 1.3742E-05
DataValue, 1.25, 1.432E-05
DataValue, 1.26, 1.4900000000000001E-05
DataValue, 1.27, 1.5494E-05
DataValue, 1.28, 1.6100000000000002E-05
DataValue, 1.29, 1.6718E-05
DataValue, 1.3, 1.7358000000000002E-05
DataValue, 1.31, 1.8E-05
DataValue, 1.32, 1.8652E-05
DataValue, 1.33, 1.9318E-05
DataValue, 1.34, 1.9986E-05
DataValue, 1.35, 2.0676E-05
DataValue, 1.36, 2.1374000000000002E-05
DataValue, 1.37, 2.209E-05
DataValue, 1.3800000000000001, 2.281E-05
DataValue, 1.3900000000000001, 2.3534000000000002E-05
DataValue, 1.4000000000000001, 2.4276E-05
DataValue, 1.41, 2.5026E-05
DataValue, 1.42, 2.5788E-05
DataValue, 1.43, 2.6578000000000002E-05
DataValue, 1.44, 2.7354E-05
DataValue, 1.45, 2.8144E-05
DataValue, 1.46, 2.8950000000000002E-05
DataValue, 1.47, 2.976E-05
DataValue, 1.48, 3.0578000000000004E-05
DataValue, 1.49, 3.1416E-05
DataValue, 1.5, 3.2274E-05
DataValue, 1.51, 3.3122E-05
DataValue, 1.52, 3.3984E-05
DataValue, 1.53, 3.4856E-05
DataValue, 1.54, 3.573E-05
DataValue, 1.55, 3.6622E-05
DataValue, 1.56, 3.7538E-05
DataValue, 1.57, 3.845E-05
DataValue, 1.58, 3.9362E-05
DataValue, 1.59, 4.0294000000000004E-05
DataValue, 1.6, 4.1228E-05
DataValue, 1.61, 4.2166E-05
DataValue, 1.62, 4.312E-05
DataValue, 1.6300000000000001, 4.4088E-05
DataValue, 1.6400000000000001, 4.5058E-05
DataValue, 1.6500000000000001, 4.6052E-05
DataValue, 1.6600000000000001, 4.703E-05
DataValue, 1.67, 4.8034E-05
DataValue, 1.68, 4.9042E-05
DataValue, 1.69, 5.0044000000000004E-05
DataValue, 1.7, 5.1062E-05
DataValue, 1.71, 5.2098E-05
DataValue, 1.72, 5.3134E-05
DataValue, 1.73, 5.4176000000000004E-05
DataValue, 1.74, 5.5246E-05
DataValue, 1.75, 5.6304E-05
DataValue, 1.76, 5.737E-05
DataValue, 1.77, 5.8438000000000005E-05
DataValue, 1.78, 5.9518E-05
DataValue, 1.79, 6.0616000000000004E-05
DataValue, 1.8, 6.1712000000000008E-05
DataValue, 1.81, 6.2804E-05
DataValue, 1.82, 6.3898E-05
DataValue, 1.83, 6.506E-05
DataValue, 1.84, 6.6182E-05
DataValue, 1.85, 6.7302E-05
DataValue, 1.86, 6.8448E-05
DataValue, 1.87, 6.9586000000000008E-05
DataValue, 1.8800000000000001, 7.0748000000000008E-05
DataValue, 1.8900000000000001, 7.1896E-05
DataValue, 1.9000000000000001, 7.3046E-05
DataValue, 1.9100000000000001, 7.4222000000000009E-05
DataValue, 1.92, 7.5404E-05
DataValue, 1.93, 7.66E-05
DataValue, 1.94, 7.778E-05
DataValue, 1.95, 7.8986E-05
DataValue, 1.96, 8.0174000000000009E-05
DataValue, 1.97, 8.1372E-05
DataValue, 1.98, 8.258E-05
DataValue, 1.99, 8.3798E-05
DataValue, 2, 8.501400000000001E-05
DataValue, 2.0100000000000002, 8.6246E-05
DataValue, 2.02, 8.7506E-05
DataValue, 2.0300000000000002, 8.8736E-05
DataValue, 2.04, 8.9970000000000008E-05
DataValue, 2.05, 9.1218E-05
DataValue, 2.06, 9.246800000000001E-05
DataValue, 2.07, 9.3736E-05
DataValue, 2.08, 9.4992E-05
DataValue, 2.09, 9.6254E-05
DataValue, 2.1, 9.7522E-05
DataValue, 2.11, 9.883E-05
DataValue, 2.12, 0.000100104
DataValue, 2.13, 0.00010139200000000001
DataValue, 2.14, 0.00010267800000000001
DataValue, 2.15, 0.00010397000000000001
DataValue, 2.16, 0.00010527
DataValue, 2.17, 0.000106568
DataValue, 2.18, 0.000107874
DataValue, 2.19, 0.00010916800000000001
DataValue, 2.2, 0.000110518
DataValue, 2.21, 0.000111846
DataValue, 2.22, 0.000113168
DataValue, 2.23, 0.000114506
DataValue, 2.24, 0.00011564000000000001
DataValue, 2.25, 0.00011698000000000001
DataValue, 2.2600000000000002, 0.00011832
DataValue, 2.27, 0.00011958
DataValue, 2.2800000000000002, 0.00012098000000000001
DataValue, 2.29, 0.00012236000000000001
DataValue, 2.3000000000000003, 0.00012372000000000002
DataValue, 2.31, 0.00012508000000000002
DataValue, 2.32, 0.00012644000000000002
DataValue, 2.33, 0.00012780000000000002
DataValue, 2.34, 0.00012916000000000002
DataValue, 2.35, 0.00013052000000000002
DataValue, 2.36, 0.00013188000000000002
DataValue, 2.37, 0.00013326
DataValue, 2.38, 0.00013468
DataValue, 2.39, 0.00013602000000000002
DataValue, 2.4, 0.0001374
DataValue, 2.41, 0.00013878
DataValue, 2.42, 0.00014020000000000002
DataValue, 2.43, 0.00014156000000000002
DataValue, 2.44, 0.00014298000000000002
DataValue, 2.45, 0.00014438
DataValue, 2.46, 0.00014578
DataValue, 2.47, 0.00014716000000000002
DataValue, 2.48, 0.00014858000000000002
DataValue, 2.49, 0.00014996
DataValue, 2.5, 0.00015136000000000001
DataValue, 2.5100000000000002, 0.0001528
DataValue, 2.52, 0.00015418000000000002
DataValue, 2.5300000000000002, 0.00015564000000000002
DataValue, 2.54, 0.00015708
DataValue, 2.5500000000000003, 0.00015846
DataValue, 2.56, 0.00015984000000000002
DataValue, 2.57, 0.00016122
DataValue, 2.58, 0.0001627
DataValue, 2.59, 0.00016414
DataValue, 2.6, 0.00016556
DataValue, 2.61, 0.00016700000000000002
DataValue, 2.62, 0.00016842000000000002
DataValue, 2.63, 0.00016986
DataValue, 2.64, 0.00017126
DataValue, 2.65, 0.00017274
DataValue, 2.66, 0.00017416
DataValue, 2.67, 0.00017558000000000002
DataValue, 2.68, 0.00017704
DataValue, 2.69, 0.0001785
DataValue, 2.7, 0.0001799
DataValue, 2.71, 0.00018130000000000002
DataValue, 2.72, 0.00018278
DataValue, 2.73, 0.00018424
DataValue, 2.74, 0.00018564000000000002
DataValue, 2.75, 0.00018712
DataValue, 2.7600000000000002, 0.00018856000000000002
DataValue, 2.77, 0.00019002
DataValue, 2.7800000000000002, 0.00019148
DataValue, 2.79, 0.00019296000000000002
DataValue, 2.8000000000000003, 0.0001944
DataValue, 2.81, 0.00019582
DataValue, 2.82, 0.00019730000000000003
DataValue, 2.83, 0.00019876
DataValue, 2.84, 0.00020020000000000001
DataValue, 2.85, 0.00020172
DataValue, 2.86, 0.00020318000000000002
DataValue, 2.87, 0.00020462
DataValue, 2.88, 0.00020608
DataValue, 2.89, 0.00020754
DataValue, 2.9, 0.00020904000000000002
DataValue, 2.91, 0.00021046000000000001
DataValue, 2.92, 0.00021196000000000002
DataValue, 2.93, 0.00021338000000000002
DataValue, 2.94, 0.00021488
DataValue, 2.95, 0.00021634
DataValue, 2.96, 0.00021782000000000003
DataValue, 2.97, 0.00021930000000000002
DataValue, 2.98, 0.00022072000000000001
DataValue, 2.99, 0.00022226
DataValue, 3, 0.00022372
DataValue, 3.0100000000000002, 0.00022520000000000003
DataValue, 3.02, 0.00022662000000000002
DataValue, 3.0300000000000002, 0.00022812
DataValue, 3.04, 0.00022956000000000002
DataValue, 3.0500000000000003, 0.00023108000000000002
DataValue, 3.06, 0.00023256
DataValue, 3.0700000000000003, 0.00023398
DataValue, 3.08, 0.00023546000000000003
DataValue, 3.09, 0.00023698000000000003
DataValue, 3.1, 0.00023838
DataValue, 3.11, 0.00023992000000000002
DataValue, 3.12, 0.00024138000000000002
DataValue, 3.13, 0.00024286000000000002
DataValue, 3.14, 0.00024430000000000003
DataValue, 3.15, 0.00024582
DataValue, 3.16, 0.00024728
DataValue, 3.17, 0.00024876
DataValue, 3.18, 0.00025022
DataValue, 3.19, 0.00025168
DataValue, 3.2, 0.00025316
DataValue, 3.21, 0.0002547
DataValue, 3.22, 0.00025608
DataValue, 3.23, 0.00025760000000000003
DataValue, 3.24, 0.00025908
DataValue, 3.25, 0.00026052000000000003
DataValue, 3.2600000000000002, 0.00026196
DataValue, 3.27, 0.00026344000000000004
DataValue, 3.2800000000000002, 0.00026496
DataValue, 3.29, 0.00026644
DataValue, 3.3000000000000003, 0.00026788
DataValue, -0.5, 1.0920000000000001E-11
DataValue, -0.49, 1.5540000000000002E-11
DataValue, -0.48, 1.79E-12
DataValue, -0.47000000000000003, 1.471E-11
DataValue, -0.46, 1.0710000000000001E-11
DataValue, -0.45, 9.6200000000000014E-12
DataValue, -0.44, 1.8510000000000003E-11
DataValue, -0.43, 2.26E-12
DataValue, -0.42, 1.19E-11
DataValue, -0.41000000000000003, 1.1510000000000001E-11
DataValue, -0.4, 5.7600000000000005E-12
