
SetupTitle, NMOS-id-vd-vgs@vbs=0
PrimitiveTest, I/V Sweep
TestParameter, Context.MainFrame, B1500A
TestParameter, Channel.UnitType, SMU, SMU, SMU, SMU
TestParameter, Channel.Unit, SMU2:HR, SMU1:HR, SMU3:HR, SMU4:HR
TestParameter, Channel.IName, ib, is, ig, id
TestParameter, Channel.VName, vb, vs, vg, vd
TestParameter, Channel.Mode, V, COMMON, V, V
TestParameter, Channel.Func, CONST, CONST, VAR2, VAR1
TestParameter, Channel.Index, 
TestParameter, Channel.Time, 
TestParameter, Measurement.Port.Unit, SMU2:HR, SMU1:HR, SMU3:HR, SMU4:HR
TestParameter, Measurement.Port.SeriesResistor, NONE, NONE, NONE, NONE
TestParameter, Measurement.Port.Filter, ON, ON, ON, ON
TestParameter, Measurement.Port.OutputVoltageComparison, 0, 0, 0, 0
TestParameter, Measurement.Primary.Locus, Single
TestParameter, Measurement.Primary.Scale, LINEAR
TestParameter, Measurement.Primary.Start, 0
TestParameter, Measurement.Primary.Stop, 3.3000000000000003
TestParameter, Measurement.Primary.Step, 0.01
TestParameter, Measurement.Primary.Compliance, 0.1
TestParameter, Measurement.Primary.PowerCompliance, 0
TestParameter, Measurement.Aborting.Condition, SKIP AT ANY ABNORMAL
TestParameter, Measurement.PostOutput.Value, START
TestParameter, Measurement.PostOutput.Retention, OFF
TestParameter, Measurement.Secondary.Start, 0.3
TestParameter, Measurement.Secondary.Count, 6
TestParameter, Measurement.Secondary.Step, 0.6
TestParameter, Measurement.Secondary.Compliance, 0.1
TestParameter, Measurement.Secondary.PowerCompliance, 0
TestParameter, Measurement.Bias.Source, 0, 0, 0.3, 0
TestParameter, Measurement.Bias.Compliance, 0.1, 0.1, 0.1, 0.1
TestParameter, Measurement.Monitor.Unit, SMU2:HR, SMU1:HR, SMU3:HR, SMU4:HR
TestParameter, Measurement.Monitor.Adc, HR ADC, HR ADC, HR ADC, HR ADC
TestParameter, Measurement.Monitor.Measurement, Compliance Side, Compliance Side, Compliance Side, Compliance Side
TestParameter, Measurement.Monitor.RangingMode, LIMITED, LIMITED, LIMITED, LIMITED
TestParameter, Measurement.Monitor.RangeBoundary, 1nA, 1nA, 1nA, 1nA
TestParameter, Measurement.Monitor.RangeRating, BY FULL RANGE, BY FULL RANGE, BY FULL RANGE, BY FULL RANGE
TestParameter, Measurement.Monitor.RangeRatingCoeff, 50, 50, 50, 50
TestParameter, Measurement.Timing.Hold, 0
TestParameter, Measurement.Timing.Delay, 0
TestParameter, Measurement.Adc.HighSpeed.Mode, AUTO
TestParameter, Measurement.Adc.HighSpeed.Coeff, 1
TestParameter, Measurement.Adc.HighResolution.AutoZero, OFF
TestParameter, Measurement.Adc.HighResolution.Mode, AUTO
TestParameter, Measurement.Adc.HighResolution.Coeff, 6
TestParameter, Measurement.WaitTime.Source.Coeff, 1
TestParameter, Measurement.WaitTime.Source.Offset, 0
TestParameter, Measurement.WaitTime.Monitor.Coeff, 1
TestParameter, Measurement.WaitTime.Monitor.Offset, 0
TestParameter, Output.Graph.Enabled, true
TestParameter, Output.Graph.AutoScaling, false
TestParameter, Output.Graph.XAxis.Data, vd
TestParameter, Output.Graph.XAxis.Scale, Linear
TestParameter, Output.Graph.XAxis.Left, 0
TestParameter, Output.Graph.XAxis.Right, 1
TestParameter, Output.Graph.XAxis.RunTimeAutoScale, true
TestParameter, Output.Graph.YAxis.Data, id
TestParameter, Output.Graph.YAxis.Scale, Linear
TestParameter, Output.Graph.YAxis.Bottom, -0.1
TestParameter, Output.Graph.YAxis.Top, 0.1
TestParameter, Output.Graph.YAxis.Group, 
TestParameter, Output.Graph.YAxis.RunTimeAutoScale, true
TestParameter, AutoAnalysis.Interpolation, false
TestParameter, AutoAnalysis.Var2StepCount, 1
TestParameter, AutoAnalysis.Var2StepScript, 
TestParameter, AutoAnalysis.Line1.Enabled, false
TestParameter, AutoAnalysis.Line1.Type, 1
TestParameter, AutoAnalysis.Line1.Fix, True
TestParameter, AutoAnalysis.Line1.YAxis, 0
TestParameter, AutoAnalysis.Line1.Point1.Type, 0
TestParameter, AutoAnalysis.Line1.Point1.XY.X, 
TestParameter, AutoAnalysis.Line1.Point1.XY.Y, 
TestParameter, AutoAnalysis.Line1.Point1.Data.Var, 
TestParameter, AutoAnalysis.Line1.Point1.Data.Condition, 
TestParameter, AutoAnalysis.Line1.Point1.Data.Start, false
TestParameter, AutoAnalysis.Line1.Point1.Data.StartVar, 
TestParameter, AutoAnalysis.Line1.Point1.Data.StartCondition, 
TestParameter, AutoAnalysis.Line1.Point2.Type, 0
TestParameter, AutoAnalysis.Line1.Point2.XY.X, 
TestParameter, AutoAnalysis.Line1.Point2.XY.Y, 
TestParameter, AutoAnalysis.Line1.Point2.Data.Var, 
TestParameter, AutoAnalysis.Line1.Point2.Data.Condition, 
TestParameter, AutoAnalysis.Line1.Point2.Data.Start, false
TestParameter, AutoAnalysis.Line1.Point2.Data.StartVar, 
TestParameter, AutoAnalysis.Line1.Point2.Data.StartCondition, 
TestParameter, AutoAnalysis.Line1.GradientExpr, 0
TestParameter, AutoAnalysis.Line2.Enabled, false
TestParameter, AutoAnalysis.Line2.Type, 1
TestParameter, AutoAnalysis.Line2.Fix, True
TestParameter, AutoAnalysis.Line2.YAxis, 0
TestParameter, AutoAnalysis.Line2.Point1.Type, 0
TestParameter, AutoAnalysis.Line2.Point1.XY.X, 
TestParameter, AutoAnalysis.Line2.Point1.XY.Y, 
TestParameter, AutoAnalysis.Line2.Point1.Data.Var, 
TestParameter, AutoAnalysis.Line2.Point1.Data.Condition, 
TestParameter, AutoAnalysis.Line2.Point1.Data.Start, false
TestParameter, AutoAnalysis.Line2.Point1.Data.StartVar, 
TestParameter, AutoAnalysis.Line2.Point1.Data.StartCondition, 
TestParameter, AutoAnalysis.Line2.Point2.Type, 0
TestParameter, AutoAnalysis.Line2.Point2.XY.X, 
TestParameter, AutoAnalysis.Line2.Point2.XY.Y, 
TestParameter, AutoAnalysis.Line2.Point2.Data.Var, 
TestParameter, AutoAnalysis.Line2.Point2.Data.Condition, 
TestParameter, AutoAnalysis.Line2.Point2.Data.Start, false
TestParameter, AutoAnalysis.Line2.Point2.Data.StartVar, 
TestParameter, AutoAnalysis.Line2.Point2.Data.StartCondition, 
TestParameter, AutoAnalysis.Line2.GradientExpr, 0
TestParameter, AutoAnalysis.Marker.Enabled, false
TestParameter, AutoAnalysis.Marker.Data.Var, 
TestParameter, AutoAnalysis.Marker.Data.Condition, 
TestParameter, AutoAnalysis.Marker.Data.Start, false
TestParameter, AutoAnalysis.Marker.Data.StartVar, 
TestParameter, AutoAnalysis.Marker.Data.StartCondition, 
MetaData, TestRecord.EntryPoint, true
MetaData, TestRecord.RecordTime, 01/16/2024 15:10:44
MetaData, TestRecord.TestTarget, N-5-0.35-298K
MetaData, TestRecord.IterationIndex, 1
MetaData, TestRecord.Preservation, true
MetaData, TestRecord.Flag, 
MetaData, TestRecord.Remarks, 
MetaData, TestRecord.LinkKey, 04914a31-b92f-488e-bc51-952a85aaeb9b
MetaData, TestRecord.Parameters, 
Dimension1, 331, 331
Dimension2, 6, 6
DataName, vd, id
DataValue, 0, 3.001E-11
DataValue, 0.01, 2.7600000000000004E-11
DataValue, 0.02, 3.6550000000000006E-11
DataValue, 0.03, 3.595E-11
DataValue, 0.04, 4.0120000000000006E-11
DataValue, 0.05, 4.016E-11
DataValue, 0.06, 4.145E-11
DataValue, 0.07, 4.1790000000000005E-11
DataValue, 0.08, 4.2440000000000004E-11
DataValue, 0.09, 4.232E-11
DataValue, 0.1, 4.3610000000000005E-11
DataValue, 0.11, 4.298E-11
DataValue, 0.12, 4.3400000000000007E-11
DataValue, 0.13, 4.3790000000000005E-11
DataValue, 0.14, 4.279E-11
DataValue, 0.15, 4.5070000000000006E-11
DataValue, 0.16, 4.1710000000000004E-11
DataValue, 0.17, 4.6130000000000006E-11
DataValue, 0.18, 4.0080000000000005E-11
DataValue, 0.19, 4.967E-11
DataValue, 0.2, 3.663E-11
DataValue, 0.21, 5.1370000000000006E-11
DataValue, 0.22, 3.619E-11
DataValue, 0.23, 5.106E-11
DataValue, 0.24, 3.6320000000000004E-11
DataValue, 0.25, 5.1320000000000003E-11
DataValue, 0.26, 3.6980000000000004E-11
DataValue, 0.27, 5.08E-11
DataValue, 0.28, 3.857E-11
DataValue, 0.29, 4.861E-11
DataValue, 0.3, 4.0260000000000005E-11
DataValue, 0.31, 4.771E-11
DataValue, 0.32, 4.2800000000000003E-11
DataValue, 0.33, 4.578E-11
DataValue, 0.34, 4.4520000000000005E-11
DataValue, 0.35000000000000003, 4.5350000000000004E-11
DataValue, 0.36, 4.4890000000000006E-11
DataValue, 0.37, 4.5500000000000004E-11
DataValue, 0.38, 4.501E-11
DataValue, 0.39, 4.527E-11
DataValue, 0.4, 4.4710000000000006E-11
DataValue, 0.41000000000000003, 4.5900000000000004E-11
DataValue, 0.42, 4.5290000000000006E-11
DataValue, 0.43, 4.549E-11
DataValue, 0.44, 4.5580000000000006E-11
DataValue, 0.45, 4.5390000000000004E-11
DataValue, 0.46, 4.541E-11
DataValue, 0.47000000000000003, 4.5640000000000003E-11
DataValue, 0.48, 4.6380000000000006E-11
DataValue, 0.49, 4.498E-11
DataValue, 0.5, 4.6740000000000005E-11
DataValue, 0.51, 4.3900000000000005E-11
DataValue, 0.52, 4.8450000000000005E-11
DataValue, 0.53, 4.2910000000000004E-11
DataValue, 0.54, 4.9210000000000004E-11
DataValue, 0.55, 4.173E-11
DataValue, 0.56, 5.0900000000000006E-11
DataValue, 0.57000000000000006, 4.351E-11
DataValue, 0.58, 4.9150000000000006E-11
DataValue, 0.59, 4.1940000000000006E-11
DataValue, 0.6, 5.0340000000000004E-11
DataValue, 0.61, 4.05E-11
DataValue, 0.62, 5.1800000000000005E-11
DataValue, 0.63, 3.9450000000000003E-11
DataValue, 0.64, 5.2740000000000003E-11
DataValue, 0.65, 3.897E-11
DataValue, 0.66, 5.3540000000000003E-11
DataValue, 0.67, 3.8760000000000004E-11
DataValue, 0.68, 5.4200000000000004E-11
DataValue, 0.69000000000000006, 3.955E-11
DataValue, 0.70000000000000007, 5.313E-11
DataValue, 0.71, 4.0690000000000004E-11
DataValue, 0.72, 5.15E-11
DataValue, 0.73, 3.9380000000000004E-11
DataValue, 0.74, 5.3360000000000004E-11
DataValue, 0.75, 4.1250000000000006E-11
DataValue, 0.76, 5.1550000000000006E-11
DataValue, 0.77, 4.454E-11
DataValue, 0.78, 4.945E-11
DataValue, 0.79, 4.5900000000000004E-11
DataValue, 0.8, 4.8350000000000006E-11
DataValue, 0.81, 4.7060000000000003E-11
DataValue, 0.82000000000000006, 5.0240000000000006E-11
DataValue, 0.83000000000000007, 4.6240000000000007E-11
DataValue, 0.84, 4.8390000000000007E-11
DataValue, 0.85, 4.756E-11
DataValue, 0.86, 4.8450000000000005E-11
DataValue, 0.87, 4.789E-11
DataValue, 0.88, 4.865E-11
DataValue, 0.89, 4.814E-11
DataValue, 0.9, 4.8050000000000005E-11
DataValue, 0.91, 4.833E-11
DataValue, 0.92, 4.738E-11
DataValue, 0.93, 4.872E-11
DataValue, 0.94000000000000006, 4.6770000000000004E-11
DataValue, 0.95000000000000007, 4.986E-11
DataValue, 0.96, 4.5760000000000005E-11
DataValue, 0.97, 5.124E-11
DataValue, 0.98, 4.3820000000000004E-11
DataValue, 0.99, 5.2890000000000004E-11
DataValue, 1, 4.275E-11
DataValue, 1.01, 5.4270000000000004E-11
DataValue, 1.02, 4.1090000000000004E-11
DataValue, 1.03, 5.5780000000000007E-11
DataValue, 1.04, 4.1E-11
DataValue, 1.05, 5.5890000000000007E-11
DataValue, 1.06, 4.0730000000000004E-11
DataValue, 1.07, 5.6240000000000004E-11
DataValue, 1.08, 4.228E-11
DataValue, 1.09, 5.4290000000000007E-11
DataValue, 1.1, 4.1280000000000005E-11
DataValue, 1.11, 5.517E-11
DataValue, 1.12, 4.385E-11
DataValue, 1.1300000000000001, 5.3450000000000007E-11
DataValue, 1.1400000000000001, 4.6440000000000003E-11
DataValue, 1.1500000000000001, 5.1370000000000006E-11
DataValue, 1.16, 4.8370000000000003E-11
DataValue, 1.17, 5.0200000000000005E-11
DataValue, 1.18, 4.916E-11
DataValue, 1.19, 4.9990000000000007E-11
DataValue, 1.2, 4.9470000000000005E-11
DataValue, 1.21, 5.0120000000000004E-11
DataValue, 1.22, 4.964E-11
DataValue, 1.23, 4.996E-11
DataValue, 1.24, 4.9980000000000005E-11
DataValue, 1.25, 4.975E-11
DataValue, 1.26, 5.0630000000000004E-11
DataValue, 1.27, 4.9030000000000004E-11
DataValue, 1.28, 5.004E-11
DataValue, 1.29, 5.0300000000000003E-11
DataValue, 1.3, 5.04E-11
DataValue, 1.31, 4.9590000000000007E-11
DataValue, 1.32, 5.0940000000000007E-11
DataValue, 1.33, 4.9210000000000004E-11
DataValue, 1.34, 5.1760000000000004E-11
DataValue, 1.35, 4.767E-11
DataValue, 1.36, 5.2900000000000006E-11
DataValue, 1.37, 4.676E-11
DataValue, 1.3800000000000001, 5.4530000000000005E-11
DataValue, 1.3900000000000001, 4.4740000000000005E-11
DataValue, 1.4000000000000001, 5.594E-11
DataValue, 1.41, 4.3830000000000005E-11
DataValue, 1.42, 5.696E-11
DataValue, 1.43, 4.322E-11
DataValue, 1.44, 5.772E-11
DataValue, 1.45, 4.319E-11
DataValue, 1.46, 5.79E-11
DataValue, 1.47, 4.334E-11
DataValue, 1.48, 5.816E-11
DataValue, 1.49, 4.3140000000000006E-11
DataValue, 1.5, 5.84E-11
DataValue, 1.51, 4.3500000000000005E-11
DataValue, 1.52, 5.819E-11
DataValue, 1.53, 4.3750000000000004E-11
DataValue, 1.54, 5.779E-11
DataValue, 1.55, 4.5460000000000004E-11
DataValue, 1.56, 5.6290000000000007E-11
DataValue, 1.57, 4.7610000000000004E-11
DataValue, 1.58, 5.5220000000000004E-11
DataValue, 1.59, 5.015E-11
DataValue, 1.6, 5.3110000000000005E-11
DataValue, 1.61, 5.1220000000000005E-11
DataValue, 1.62, 5.2750000000000005E-11
DataValue, 1.6300000000000001, 5.2E-11
DataValue, 1.6400000000000001, 5.2760000000000007E-11
DataValue, 1.6500000000000001, 5.207E-11
DataValue, 1.6600000000000001, 5.2380000000000004E-11
DataValue, 1.67, 5.229E-11
DataValue, 1.68, 5.237E-11
DataValue, 1.69, 5.284E-11
DataValue, 1.7, 5.1760000000000004E-11
DataValue, 1.71, 5.3250000000000004E-11
DataValue, 1.72, 5.1400000000000005E-11
DataValue, 1.73, 5.397E-11
DataValue, 1.74, 4.9770000000000006E-11
DataValue, 1.75, 5.5200000000000007E-11
DataValue, 1.76, 4.8560000000000005E-11
DataValue, 1.77, 5.6730000000000007E-11
DataValue, 1.78, 4.745E-11
DataValue, 1.79, 5.794E-11
DataValue, 1.8, 4.643E-11
DataValue, 1.81, 5.927E-11
DataValue, 1.82, 4.56E-11
DataValue, 1.83, 6.022E-11
DataValue, 1.84, 4.526E-11
DataValue, 1.85, 6.0370000000000007E-11
DataValue, 1.86, 4.5440000000000007E-11
DataValue, 1.87, 6.0610000000000011E-11
DataValue, 1.8800000000000001, 4.632E-11
DataValue, 1.8900000000000001, 5.9680000000000007E-11
DataValue, 1.9000000000000001, 4.8420000000000006E-11
DataValue, 1.9100000000000001, 5.7770000000000004E-11
DataValue, 1.92, 5.077E-11
DataValue, 1.93, 5.5890000000000007E-11
DataValue, 1.94, 5.2790000000000006E-11
DataValue, 1.95, 5.4650000000000006E-11
DataValue, 1.96, 5.3670000000000007E-11
DataValue, 1.97, 5.463E-11
DataValue, 1.98, 5.3910000000000004E-11
DataValue, 1.99, 5.462E-11
DataValue, 2, 5.386E-11
DataValue, 2.0100000000000002, 5.4280000000000005E-11
DataValue, 2.02, 5.404E-11
DataValue, 2.0300000000000002, 5.401E-11
DataValue, 2.04, 5.434E-11
DataValue, 2.05, 5.3520000000000006E-11
DataValue, 2.06, 5.492E-11
DataValue, 2.07, 5.2750000000000005E-11
DataValue, 2.08, 5.6320000000000006E-11
DataValue, 2.09, 5.1630000000000007E-11
DataValue, 2.1, 5.787E-11
DataValue, 2.11, 5.0090000000000005E-11
DataValue, 2.12, 5.962000000000001E-11
DataValue, 2.13, 4.8190000000000004E-11
DataValue, 2.14, 6.12E-11
DataValue, 2.15, 4.752E-11
DataValue, 2.16, 6.156E-11
DataValue, 2.17, 4.749E-11
DataValue, 2.18, 6.2380000000000008E-11
DataValue, 2.19, 4.73E-11
DataValue, 2.2, 6.295E-11
DataValue, 2.21, 4.8380000000000005E-11
DataValue, 2.22, 6.144000000000001E-11
DataValue, 2.23, 5.058E-11
DataValue, 2.24, 5.9480000000000011E-11
DataValue, 2.25, 5.252E-11
DataValue, 2.2600000000000002, 5.765E-11
DataValue, 2.27, 5.4580000000000007E-11
DataValue, 2.2800000000000002, 5.6720000000000006E-11
DataValue, 2.29, 5.5700000000000005E-11
DataValue, 2.3000000000000003, 5.6460000000000005E-11
DataValue, 2.31, 5.5890000000000007E-11
DataValue, 2.32, 5.6470000000000006E-11
DataValue, 2.33, 5.605E-11
DataValue, 2.34, 5.6060000000000005E-11
DataValue, 2.35, 5.6200000000000004E-11
DataValue, 2.36, 5.6110000000000007E-11
DataValue, 2.37, 5.6930000000000004E-11
DataValue, 2.38, 5.6460000000000005E-11
DataValue, 2.39, 5.655E-11
DataValue, 2.4, 5.5920000000000006E-11
DataValue, 2.41, 5.7450000000000006E-11
DataValue, 2.42, 5.714E-11
DataValue, 2.43, 5.688E-11
DataValue, 2.44, 5.7510000000000004E-11
DataValue, 2.45, 5.7160000000000006E-11
DataValue, 2.46, 5.7130000000000007E-11
DataValue, 2.47, 5.7480000000000005E-11
DataValue, 2.48, 5.6320000000000006E-11
DataValue, 2.49, 5.84E-11
DataValue, 2.5, 5.5400000000000004E-11
DataValue, 2.5100000000000002, 5.8910000000000006E-11
DataValue, 2.52, 5.4250000000000007E-11
DataValue, 2.5300000000000002, 6.065E-11
DataValue, 2.54, 5.233E-11
DataValue, 2.5500000000000003, 6.242E-11
DataValue, 2.56, 5.11E-11
DataValue, 2.57, 6.4090000000000008E-11
DataValue, 2.58, 5.0230000000000004E-11
DataValue, 2.59, 6.4590000000000006E-11
DataValue, 2.6, 4.974E-11
DataValue, 2.61, 6.493E-11
DataValue, 2.62, 5.0210000000000007E-11
DataValue, 2.63, 6.5140000000000007E-11
DataValue, 2.64, 5.1040000000000005E-11
DataValue, 2.65, 6.4340000000000007E-11
DataValue, 2.66, 5.295E-11
DataValue, 2.67, 6.295E-11
DataValue, 2.68, 5.4980000000000007E-11
DataValue, 2.69, 6.135E-11
DataValue, 2.7, 5.743E-11
DataValue, 2.71, 5.9870000000000009E-11
DataValue, 2.72, 5.861E-11
DataValue, 2.73, 5.9590000000000011E-11
DataValue, 2.74, 5.906E-11
DataValue, 2.75, 5.983E-11
DataValue, 2.7600000000000002, 5.8880000000000008E-11
DataValue, 2.77, 5.912E-11
DataValue, 2.7800000000000002, 5.9180000000000009E-11
DataValue, 2.79, 5.945E-11
DataValue, 2.8000000000000003, 6.005E-11
DataValue, 2.81, 5.8490000000000009E-11
DataValue, 2.82, 6.038E-11
DataValue, 2.83, 5.916E-11
DataValue, 2.84, 6.0390000000000011E-11
DataValue, 2.85, 5.847E-11
DataValue, 2.86, 6.14E-11
DataValue, 2.87, 5.7330000000000004E-11
DataValue, 2.88, 6.28E-11
DataValue, 2.89, 5.5820000000000007E-11
DataValue, 2.9, 6.446E-11
DataValue, 2.91, 5.434E-11
DataValue, 2.92, 6.5880000000000009E-11
DataValue, 2.93, 5.3410000000000006E-11
DataValue, 2.94, 6.721E-11
DataValue, 2.95, 5.2820000000000005E-11
DataValue, 2.96, 6.805E-11
DataValue, 2.97, 5.3000000000000004E-11
DataValue, 2.98, 6.801E-11
DataValue, 2.99, 5.3780000000000007E-11
DataValue, 3, 6.7070000000000007E-11
DataValue, 3.0100000000000002, 5.5700000000000005E-11
DataValue, 3.02, 6.563000000000001E-11
DataValue, 3.0300000000000002, 5.8100000000000005E-11
DataValue, 3.04, 6.3900000000000007E-11
DataValue, 3.0500000000000003, 5.747E-11
DataValue, 3.06, 6.86E-11
DataValue, 3.0700000000000003, 5.572E-11
DataValue, 3.08, 6.732E-11
DataValue, 3.09, 5.7820000000000007E-11
DataValue, 3.1, 6.5380000000000011E-11
DataValue, 3.11, 6.0150000000000007E-11
DataValue, 3.12, 6.565E-11
DataValue, 3.13, 6.024E-11
DataValue, 3.14, 6.411E-11
DataValue, 3.15, 6.2E-11
DataValue, 3.16, 6.3120000000000011E-11
DataValue, 3.17, 6.268000000000001E-11
DataValue, 3.18, 6.3510000000000009E-11
DataValue, 3.19, 6.319E-11
DataValue, 3.2, 6.3400000000000009E-11
DataValue, 3.21, 6.3070000000000008E-11
DataValue, 3.22, 6.3100000000000007E-11
DataValue, 3.23, 6.363E-11
DataValue, 3.24, 6.322E-11
DataValue, 3.25, 6.428000000000001E-11
DataValue, 3.2600000000000002, 6.2490000000000009E-11
DataValue, 3.27, 6.534E-11
DataValue, 3.2800000000000002, 6.207E-11
DataValue, 3.29, 6.672E-11
DataValue, 3.3000000000000003, 6.0500000000000011E-11
DataValue, 0, 2.4213399999999998E-08
DataValue, 0.01, 2.2224E-06
DataValue, 0.02, 4.128E-06
DataValue, 0.03, 5.7801000000000008E-06
DataValue, 0.04, 7.1781000000000008E-06
DataValue, 0.05, 8.3674E-06
DataValue, 0.06, 9.370400000000001E-06
DataValue, 0.07, 1.02115E-05
DataValue, 0.08, 1.0902800000000002E-05
DataValue, 0.09, 1.1495300000000002E-05
DataValue, 0.1, 1.1982E-05
DataValue, 0.11, 1.2376E-05
DataValue, 0.12, 1.2718000000000001E-05
DataValue, 0.13, 1.3004000000000001E-05
DataValue, 0.14, 1.3246E-05
DataValue, 0.15, 1.3404E-05
DataValue, 0.16, 1.36E-05
DataValue, 0.17, 1.3746E-05
DataValue, 0.18, 1.3886E-05
DataValue, 0.19, 1.3986000000000001E-05
DataValue, 0.2, 1.4126E-05
DataValue, 0.21, 1.4224E-05
DataValue, 0.22, 1.432E-05
DataValue, 0.23, 1.4372E-05
DataValue, 0.24, 1.4454000000000001E-05
DataValue, 0.25, 1.4548E-05
DataValue, 0.26, 1.4626E-05
DataValue, 0.27, 1.4682000000000001E-05
DataValue, 0.28, 1.4762E-05
DataValue, 0.29, 1.4812E-05
DataValue, 0.3, 1.4872000000000001E-05
DataValue, 0.31, 1.4926E-05
DataValue, 0.32, 1.4974000000000001E-05
DataValue, 0.33, 1.503E-05
DataValue, 0.34, 1.5074E-05
DataValue, 0.35000000000000003, 1.5134000000000001E-05
DataValue, 0.36, 1.5184E-05
DataValue, 0.37, 1.522E-05
DataValue, 0.38, 1.5282E-05
DataValue, 0.39, 1.5328E-05
DataValue, 0.4, 1.5360000000000002E-05
DataValue, 0.41000000000000003, 1.5394000000000002E-05
DataValue, 0.42, 1.5458E-05
DataValue, 0.43, 1.5494E-05
DataValue, 0.44, 1.5536E-05
DataValue, 0.45, 1.5574E-05
DataValue, 0.46, 1.5598000000000002E-05
DataValue, 0.47000000000000003, 1.5648E-05
