
SetupTitle, idvg3.3
PrimitiveTest, I/V Sweep
TestParameter, Context.MainFrame, B1500A
TestParameter, Channel.UnitType, SMU, SMU, SMU, SMU
TestParameter, Channel.Unit, SMU4:HR, SMU3:HR, SMU1:HR, SMU2:HR
TestParameter, Channel.IName, Id, Ig, Is, Ibg
TestParameter, Channel.VName, Vd, Vg, Vs, Vbg
TestParameter, Channel.Mode, V, V, V, V
TestParameter, Channel.Func, CONST, VAR1, CONST, VAR2
TestParameter, Channel.Index, 
TestParameter, Channel.Time, 
TestParameter, Measurement.Port.Unit, SMU4:HR, SMU3:HR, SMU1:HR, SMU2:HR
TestParameter, Measurement.Port.SeriesResistor, NONE, NONE, NONE, NONE
TestParameter, Measurement.Port.Filter, ON, ON, ON, ON
TestParameter, Measurement.Port.OutputVoltageComparison, 0, 0, 0, 0
TestParameter, Measurement.Primary.Locus, Single
TestParameter, Measurement.Primary.Scale, LINEAR
TestParameter, Measurement.Primary.Start, -2.1
TestParameter, Measurement.Primary.Stop, 3.63
TestParameter, Measurement.Primary.Step, 0.03
TestParameter, Measurement.Primary.Compliance, 0.1
TestParameter, Measurement.Primary.PowerCompliance, 0
TestParameter, Measurement.Aborting.Condition, CONTINUE AT ANY
TestParameter, Measurement.PostOutput.Value, START
TestParameter, Measurement.PostOutput.Retention, OFF
TestParameter, Measurement.Secondary.Start, -2
TestParameter, Measurement.Secondary.Count, 5
TestParameter, Measurement.Secondary.Step, 2
TestParameter, Measurement.Secondary.Compliance, 0.1
TestParameter, Measurement.Secondary.PowerCompliance, 0
TestParameter, Measurement.Bias.Source, 3.3000000000000003, -2.1, 0, -2
TestParameter, Measurement.Bias.Compliance, 0.1, 0.1, 0.1, 0.1
TestParameter, Measurement.Monitor.Unit, SMU4:HR, SMU3:HR, SMU1:HR, SMU2:HR
TestParameter, Measurement.Monitor.Adc, HR ADC, HR ADC, HR ADC, HR ADC
TestParameter, Measurement.Monitor.Measurement, Compliance Side, Compliance Side, Compliance Side, Compliance Side
TestParameter, Measurement.Monitor.RangingMode, LIMITED, LIMITED, LIMITED, LIMITED
TestParameter, Measurement.Monitor.RangeBoundary, 1nA, 1nA, 1nA, 1nA
TestParameter, Measurement.Monitor.RangeRating, BY FULL RANGE, BY FULL RANGE, BY FULL RANGE, BY FULL RANGE
TestParameter, Measurement.Monitor.RangeRatingCoeff, 50, 50, 50, 50
TestParameter, Measurement.Timing.Hold, 0
TestParameter, Measurement.Timing.Delay, 0
TestParameter, Measurement.Adc.HighSpeed.Mode, AUTO
TestParameter, Measurement.Adc.HighSpeed.Coeff, 1
TestParameter, Measurement.Adc.HighResolution.AutoZero, OFF
TestParameter, Measurement.Adc.HighResolution.Mode, PLC
TestParameter, Measurement.Adc.HighResolution.Coeff, 1
TestParameter, Measurement.WaitTime.Source.Coeff, 1
TestParameter, Measurement.WaitTime.Source.Offset, 0
TestParameter, Measurement.WaitTime.Monitor.Coeff, 1
TestParameter, Measurement.WaitTime.Monitor.Offset, 0
TestParameter, Function.User.Name, gm, absId
TestParameter, Function.User.Unit, S, A
TestParameter, Function.User.Definition, diff(Id,Vg), abs(Id)
TestParameter, Output.Graph.Enabled, true
TestParameter, Output.Graph.AutoScaling, false
TestParameter, Output.Graph.XAxis.Data, Vg
TestParameter, Output.Graph.XAxis.Scale, Linear
TestParameter, Output.Graph.XAxis.Left, -3
TestParameter, Output.Graph.XAxis.Right, 3.63
TestParameter, Output.Graph.XAxis.RunTimeAutoScale, true
TestParameter, Output.Graph.YAxis.Data, Id, Ig, Ib
TestParameter, Output.Graph.YAxis.Scale, Log, Linear, Linear
TestParameter, Output.Graph.YAxis.Bottom, 0.001, -0.1, -0.1
TestParameter, Output.Graph.YAxis.Top, 0.01, 0.1, 0.1
TestParameter, Output.Graph.YAxis.Group, , , 
TestParameter, Output.Graph.YAxis.RunTimeAutoScale, true, true, true
TestParameter, Output.List.Data, Vg, Vd, Ig, Id, Ibg, Is, gm, Vbg, absId
TestParameter, AutoAnalysis.Interpolation, false
TestParameter, AutoAnalysis.Var2StepCount, 1
TestParameter, AutoAnalysis.Var2StepScript, 
TestParameter, AutoAnalysis.Line1.Enabled, false
TestParameter, AutoAnalysis.Line1.Type, 2
TestParameter, AutoAnalysis.Line1.Fix, True
TestParameter, AutoAnalysis.Line1.YAxis, 0
TestParameter, AutoAnalysis.Line1.Point1.Type, 1
TestParameter, AutoAnalysis.Line1.Point1.XY.X, 
TestParameter, AutoAnalysis.Line1.Point1.XY.Y, 
TestParameter, AutoAnalysis.Line1.Point1.Data.Var, Id
TestParameter, AutoAnalysis.Line1.Point1.Data.Condition, 
TestParameter, AutoAnalysis.Line1.Point1.Data.Start, false
TestParameter, AutoAnalysis.Line1.Point1.Data.StartVar, 
TestParameter, AutoAnalysis.Line1.Point1.Data.StartCondition, 
TestParameter, AutoAnalysis.Line1.Point2.Type, 0
TestParameter, AutoAnalysis.Line1.Point2.XY.X, 
TestParameter, AutoAnalysis.Line1.Point2.XY.Y, 
TestParameter, AutoAnalysis.Line1.Point2.Data.Var, 
TestParameter, AutoAnalysis.Line1.Point2.Data.Condition, 
TestParameter, AutoAnalysis.Line1.Point2.Data.Start, false
TestParameter, AutoAnalysis.Line1.Point2.Data.StartVar, 
TestParameter, AutoAnalysis.Line1.Point2.Data.StartCondition, 
TestParameter, AutoAnalysis.Line1.GradientExpr, 0
TestParameter, AutoAnalysis.Line2.Enabled, false
TestParameter, AutoAnalysis.Line2.Type, 1
TestParameter, AutoAnalysis.Line2.Fix, True
TestParameter, AutoAnalysis.Line2.YAxis, 0
TestParameter, AutoAnalysis.Line2.Point1.Type, 0
TestParameter, AutoAnalysis.Line2.Point1.XY.X, 
TestParameter, AutoAnalysis.Line2.Point1.XY.Y, 
TestParameter, AutoAnalysis.Line2.Point1.Data.Var, 
TestParameter, AutoAnalysis.Line2.Point1.Data.Condition, 
TestParameter, AutoAnalysis.Line2.Point1.Data.Start, false
TestParameter, AutoAnalysis.Line2.Point1.Data.StartVar, 
TestParameter, AutoAnalysis.Line2.Point1.Data.StartCondition, 
TestParameter, AutoAnalysis.Line2.Point2.Type, 0
TestParameter, AutoAnalysis.Line2.Point2.XY.X, 
TestParameter, AutoAnalysis.Line2.Point2.XY.Y, 
TestParameter, AutoAnalysis.Line2.Point2.Data.Var, 
TestParameter, AutoAnalysis.Line2.Point2.Data.Condition, 
TestParameter, AutoAnalysis.Line2.Point2.Data.Start, false
TestParameter, AutoAnalysis.Line2.Point2.Data.StartVar, 
TestParameter, AutoAnalysis.Line2.Point2.Data.StartCondition, 
TestParameter, AutoAnalysis.Line2.GradientExpr, 0
TestParameter, AutoAnalysis.Marker.Enabled, false
TestParameter, AutoAnalysis.Marker.Data.Var, 
TestParameter, AutoAnalysis.Marker.Data.Condition, 
TestParameter, AutoAnalysis.Marker.Data.Start, false
TestParameter, AutoAnalysis.Marker.Data.StartVar, 
TestParameter, AutoAnalysis.Marker.Data.StartCondition, 
MetaData, TestRecord.EntryPoint, true
MetaData, TestRecord.RecordTime, 01/16/2024 15:55:00
MetaData, TestRecord.TestTarget, N-1-1-298K
MetaData, TestRecord.IterationIndex, 19
MetaData, TestRecord.Preservation, true
MetaData, TestRecord.Flag, 
MetaData, TestRecord.Remarks, 
MetaData, TestRecord.LinkKey, 66d16aaa-82c7-4529-8991-e2fcd8864054
MetaData, TestRecord.Parameters, 
Dimension1, 192, 192, 192, 192, 192, 192, 192, 192, 192, 192
Dimension2, 5, 5, 5, 5, 5, 5, 5, 5, 5, 5
DataName, Vg, Vbg, Vd, Id, Ig, Is, Ibg, gm, absId, Ib
DataValue, -2.1, -2, 3.3000000000000003, 6.269E-11, 1E-15, 8.841E-12, -3.30266E-07, -1.7316666666666527E-10, 6.269E-11, 
DataValue, -2.07, -2, 3.3000000000000003, 5.7495000000000004E-11, -2.1000000000000002E-14, 8.92E-12, -3.30624E-07, -1.5593333333333316E-10, 5.7495000000000004E-11, 
DataValue, -2.04, -2, 3.3000000000000003, 5.3334000000000007E-11, 5.8E-14, 8.7810000000000015E-12, -3.29357E-07, -1.3463333333333423E-10, 5.3334000000000007E-11, 
DataValue, -2.0100000000000002, -2, 3.3000000000000003, 4.9417E-11, 3.4E-14, 8.743E-12, -3.26676E-07, -1.2508333333333329E-10, 4.9417E-11, 
DataValue, -1.98, -2, 3.3000000000000003, 4.5829E-11, -3.3000000000000005E-14, 8.757E-12, -3.2488E-07, -1.1506666666666612E-10, 4.5829E-11, 
DataValue, -1.95, -2, 3.3000000000000003, 4.2513000000000004E-11, 1.25E-13, 8.631E-12, -3.24413E-07, -1.0203333333333321E-10, 4.2513000000000004E-11, 
DataValue, -1.92, -2, 3.3000000000000003, 3.9707000000000004E-11, 1.5600000000000002E-13, 8.66E-12, -3.21386E-07, -8.97000000000003E-11, 3.9707000000000004E-11, 
DataValue, -1.8900000000000001, -2, 3.3000000000000003, 3.7131E-11, 6.2E-14, 8.7550000000000014E-12, -3.25395E-07, -8.6200000000000307E-11, 3.7131E-11, 
DataValue, -1.86, -2, 3.3000000000000003, 3.4535E-11, 1.2000000000000002E-13, 8.711E-12, -3.24828E-07, -7.9366666666666532E-11, 3.4535E-11, 
DataValue, -1.83, -2, 3.3000000000000003, 3.2369000000000005E-11, 2.5E-14, 8.7120000000000008E-12, -3.25353E-07, -6.8449999999999929E-11, 3.2369000000000005E-11, 
DataValue, -1.8, -2, 3.3000000000000003, 3.0428E-11, 7.9E-14, 8.714E-12, -3.24059E-07, -6.3016666666666622E-11, 3.0428E-11, 
DataValue, -1.77, -2, 3.3000000000000003, 2.8588000000000004E-11, 8.4000000000000008E-14, 8.73E-12, -3.22938E-07, -5.646666666666661E-11, 2.8588000000000004E-11, 
DataValue, -1.74, -2, 3.3000000000000003, 2.704E-11, 1.12E-13, 8.6680000000000014E-12, -3.21841E-07, -5.3216666666666628E-11, 2.704E-11, 
DataValue, -1.71, -2, 3.3000000000000003, 2.5395000000000003E-11, 1.6100000000000002E-13, 8.693000000000001E-12, -3.21356E-07, -4.6916666666666608E-11, 2.5395000000000003E-11, 
DataValue, -1.68, -2, 3.3000000000000003, 2.4225000000000002E-11, 2.1300000000000003E-13, 8.6670000000000009E-12, -3.24969E-07, -4.0966666666666825E-11, 2.4225000000000002E-11, 
DataValue, -1.6500000000000001, -2, 3.3000000000000003, 2.2937E-11, 1.9700000000000002E-13, 8.744E-12, -3.23854E-07, -4.0016666666666805E-11, 2.2937E-11, 
DataValue, -1.62, -2, 3.3000000000000003, 2.1824E-11, 1.46E-13, 8.6830000000000009E-12, -3.2185E-07, -3.2983333333333311E-11, 2.1824E-11, 
DataValue, -1.59, -2, 3.3000000000000003, 2.0958E-11, 1.23E-13, 8.737E-12, -3.2094599999999997E-07, -2.9516666666666635E-11, 2.0958E-11, 
DataValue, -1.56, -2, 3.3000000000000003, 2.0053E-11, 2.6200000000000004E-13, 8.709000000000001E-12, -3.2148699999999997E-07, -2.789999999999994E-11, 2.0053E-11, 
DataValue, -1.53, -2, 3.3000000000000003, 1.9284000000000002E-11, 1.63E-13, 8.657E-12, -3.21234E-07, -2.6516666666666642E-11, 1.9284000000000002E-11, 
DataValue, -1.5, -2, 3.3000000000000003, 1.8462E-11, 2.2900000000000003E-13, 8.688E-12, -3.2045899999999997E-07, -2.413333333333333E-11, 1.8462E-11, 
DataValue, -1.47, -2, 3.3000000000000003, 1.7836E-11, 1.3700000000000002E-13, 8.746E-12, -3.20851E-07, -1.6799999999999993E-11, 1.7836E-11, 
DataValue, -1.44, -2, 3.3000000000000003, 1.7454E-11, 1.8500000000000002E-13, 8.731E-12, -3.18251E-07, -1.6799999999999993E-11, 1.7454E-11, 
DataValue, -1.41, -2, 3.3000000000000003, 1.6828E-11, 2.72E-13, 8.647E-12, -3.18464E-07, -1.7800000000000022E-11, 1.6828E-11, 
DataValue, -1.3800000000000001, -2, 3.3000000000000003, 1.6386000000000002E-11, 2.9800000000000004E-13, 8.7260000000000014E-12, -3.17857E-07, -1.2850000000000034E-11, 1.6386000000000002E-11, 
DataValue, -1.35, -2, 3.3000000000000003, 1.6057E-11, 2.81E-13, 8.695E-12, -3.18815E-07, -1.2483333333333351E-11, 1.6057E-11, 
DataValue, -1.32, -2, 3.3000000000000003, 1.5637E-11, 3.27E-13, 8.649E-12, -3.22025E-07, -1.2883333333333337E-11, 1.5637E-11, 
DataValue, -1.29, -2, 3.3000000000000003, 1.5284E-11, 2.94E-13, 8.7030000000000012E-12, -3.2297E-07, -9.633333333333301E-12, 1.5284E-11, 
DataValue, -1.26, -2, 3.3000000000000003, 1.5059000000000002E-11, 2.82E-13, 8.6260000000000014E-12, -3.24741E-07, -7.8499999999999651E-12, 1.5059000000000002E-11, 
DataValue, -1.23, -2, 3.3000000000000003, 1.4813E-11, 2.92E-13, 8.727E-12, -3.2841599999999997E-07, -6.6500000000000114E-12, 1.4813E-11, 
DataValue, -1.2, -2, 3.3000000000000003, 1.466E-11, 2.8700000000000004E-13, 8.672E-12, -3.28216E-07, -6.3166666666666728E-12, 1.466E-11, 
DataValue, -1.17, -2, 3.3000000000000003, 1.4434000000000001E-11, 3.42E-13, 8.759E-12, -3.28358E-07, -8.5833333333333457E-12, 1.4434000000000001E-11, 
DataValue, -1.1400000000000001, -2, 3.3000000000000003, 1.4145000000000002E-11, 3.38E-13, 8.733E-12, -3.2449799999999997E-07, -7.0500000000000219E-12, 1.4145000000000002E-11, 
DataValue, -1.11, -2, 3.3000000000000003, 1.4011E-11, 3.51E-13, 8.7130000000000013E-12, -3.25995E-07, -4.1500000000000007E-12, 1.4011E-11, 
DataValue, -1.08, -2, 3.3000000000000003, 1.3896000000000001E-11, 3.77E-13, 8.7120000000000008E-12, -3.26041E-07, -4.1333333333333257E-12, 1.3896000000000001E-11, 
DataValue, -1.05, -2, 3.3000000000000003, 1.3763000000000001E-11, 4.0200000000000005E-13, 8.759E-12, -3.26549E-07, -4.4499999999999885E-12, 1.3763000000000001E-11, 
DataValue, -1.02, -2, 3.3000000000000003, 1.3629000000000002E-11, 3.65E-13, 8.718E-12, -3.2638499999999997E-07, -3.0499999999999892E-12, 1.3629000000000002E-11, 
DataValue, -0.99, -2, 3.3000000000000003, 1.3580000000000002E-11, 4.45E-13, 8.695E-12, -3.21774E-07, -2.9500000000000203E-12, 1.3580000000000002E-11, 
DataValue, -0.96, -2, 3.3000000000000003, 1.3452E-11, 4.94E-13, 8.735000000000001E-12, -3.21852E-07, -2.0833333333333552E-12, 1.3452E-11, 
DataValue, -0.93, -2, 3.3000000000000003, 1.3455E-11, 5.39E-13, 8.6610000000000012E-12, -3.24485E-07, -2.2499999999999975E-12, 1.3455E-11, 
DataValue, -0.9, -2, 3.3000000000000003, 1.3317E-11, 4.75E-13, 8.607E-12, -3.23527E-07, -3.8666666666666604E-12, 1.3317E-11, 
DataValue, -0.87, -2, 3.3000000000000003, 1.3223E-11, 4.74E-13, 8.7160000000000012E-12, -3.19095E-07, -1.9833333333333282E-12, 1.3223E-11, 
DataValue, -0.84, -2, 3.3000000000000003, 1.3198000000000001E-11, 5.7600000000000007E-13, 8.6610000000000012E-12, -3.21071E-07, 1.6666666666675026E-14, 1.3198000000000001E-11, 
DataValue, -0.81, -2, 3.3000000000000003, 1.3224000000000001E-11, 5.18E-13, 8.7060000000000011E-12, -3.23753E-07, -1.2833333333333308E-12, 1.3224000000000001E-11, 
DataValue, -0.78, -2, 3.3000000000000003, 1.3121000000000001E-11, 5.66E-13, 8.665E-12, -3.24283E-07, -1.3166666666666784E-12, 1.3121000000000001E-11, 
DataValue, -0.75, -2, 3.3000000000000003, 1.3145E-11, 6.2500000000000006E-13, 8.686E-12, -3.22285E-07, -2.4333333333333378E-12, 1.3145E-11, 
DataValue, -0.72, -2, 3.3000000000000003, 1.2975E-11, 5.63E-13, 8.708E-12, -3.18818E-07, -1.033333333333313E-12, 1.2975E-11, 
DataValue, -0.69000000000000006, -2, 3.3000000000000003, 1.3083000000000002E-11, 5.9E-13, 8.795E-12, -3.18778E-07, -3.1666666666666394E-13, 1.3083000000000002E-11, 
DataValue, -0.66, -2, 3.3000000000000003, 1.2956000000000001E-11, 6.640000000000001E-13, 8.7390000000000014E-12, -3.18581E-07, -1.0666666666666613E-12, 1.2956000000000001E-11, 
DataValue, -0.63, -2, 3.3000000000000003, 1.3019000000000002E-11, 6.2500000000000006E-13, 8.7320000000000012E-12, -3.18356E-07, 8.3333333333321118E-14, 1.3019000000000002E-11, 
DataValue, -0.6, -2, 3.3000000000000003, 1.2961E-11, 6.78E-13, 8.769E-12, -3.19018E-07, -1.9500000000000089E-12, 1.2961E-11, 
DataValue, -0.57000000000000006, -2, 3.3000000000000003, 1.2902000000000001E-11, 6.9500000000000007E-13, 8.7410000000000008E-12, -3.17416E-07, -2.44999999999999E-12, 1.2902000000000001E-11, 
DataValue, -0.54, -2, 3.3000000000000003, 1.2814000000000001E-11, 8.0900000000000009E-13, 8.693000000000001E-12, -3.1756099999999997E-07, -1.8333333333333339E-12, 1.2814000000000001E-11, 
DataValue, -0.51, -2, 3.3000000000000003, 1.2792000000000001E-11, 7.01E-13, 8.764000000000001E-12, -3.17906E-07, 3.666666666666614E-13, 1.2792000000000001E-11, 
DataValue, -0.48, -2, 3.3000000000000003, 1.2836E-11, 7.8100000000000011E-13, 8.74E-12, -3.17652E-07, 1.5333333333333202E-12, 1.2836E-11, 
DataValue, -0.45, -2, 3.3000000000000003, 1.2884E-11, 7.98E-13, 8.744E-12, -3.18766E-07, 1.2666666666666816E-12, 1.2884E-11, 
DataValue, -0.42, -2, 3.3000000000000003, 1.2912000000000002E-11, 7.8900000000000007E-13, 8.715E-12, -3.16133E-07, -1.6666666666648085E-14, 1.2912000000000002E-11, 
DataValue, -0.39, -2, 3.3000000000000003, 1.2883000000000002E-11, 7.9100000000000006E-13, 8.709000000000001E-12, -3.17769E-07, -1.5833333333333452E-12, 1.2883000000000002E-11, 
DataValue, -0.36, -2, 3.3000000000000003, 1.2817000000000001E-11, 7.96E-13, 8.747E-12, -3.16076E-07, -9.66666666666666E-13, 1.2817000000000001E-11, 
DataValue, -0.33, -2, 3.3000000000000003, 1.2825000000000002E-11, 9.49E-13, 8.795E-12, -3.15882E-07, -9.49999999999991E-13, 1.2825000000000002E-11, 
DataValue, -0.3, -2, 3.3000000000000003, 1.2760000000000001E-11, 9.36E-13, 8.686E-12, -3.1655999999999997E-07, -1.9833333333333569E-12, 1.2760000000000001E-11, 
DataValue, -0.27, -2, 3.3000000000000003, 1.2706E-11, 9.88E-13, 8.762E-12, -3.15201E-07, -6.833333333333523E-13, 1.2706E-11, 
DataValue, -0.24, -2, 3.3000000000000003, 1.2719E-11, 8.8000000000000009E-13, 8.7100000000000015E-12, -3.15992E-07, 1.5000000000002117E-13, 1.2719E-11, 
DataValue, -0.21, -2, 3.3000000000000003, 1.2715000000000002E-11, 1.045E-12, 8.6960000000000009E-12, -3.13297E-07, -7.3333333333332351E-13, 1.2715000000000002E-11, 
DataValue, -0.18, -2, 3.3000000000000003, 1.2675000000000001E-11, 9.0700000000000007E-13, 8.7120000000000008E-12, -3.13194E-07, -2.0000000000001934E-13, 1.2675000000000001E-11, 
DataValue, -0.15, -2, 3.3000000000000003, 1.2703E-11, 1.0080000000000002E-12, 8.8550000000000013E-12, -3.1383E-07, 2.6666666666666556E-13, 1.2703E-11, 
DataValue, -0.12, -2, 3.3000000000000003, 1.2691E-11, 1.02E-12, 8.8190000000000011E-12, -3.1523E-07, -9.3333333333331589E-13, 1.2691E-11, 
DataValue, -0.09, -2, 3.3000000000000003, 1.2647000000000001E-11, 1.1250000000000002E-12, 8.7960000000000009E-12, -3.16458E-07, -5.833333333333292E-13, 1.2647000000000001E-11, 
DataValue, -0.06, -2, 3.3000000000000003, 1.2656000000000001E-11, 1.0870000000000001E-12, 8.780000000000001E-12, -3.15022E-07, 8.8333333333331782E-13, 1.2656000000000001E-11, 
DataValue, -0.03, -2, 3.3000000000000003, 1.27E-11, 1.1310000000000001E-12, 8.7420000000000013E-12, -3.17886E-07, 0, 1.27E-11, 
DataValue, 0, -2, 3.3000000000000003, 1.2656000000000001E-11, 1.109E-12, 8.76E-12, -3.20511E-07, -1.4000000000000009E-12, 1.2656000000000001E-11, 
DataValue, 0.03, -2, 3.3000000000000003, 1.2616E-11, 1.1830000000000001E-12, 8.747E-12, -3.19559E-07, 6.1666666666667922E-13, 1.2616E-11, 
DataValue, 0.06, -2, 3.3000000000000003, 1.2693000000000002E-11, 1.1980000000000002E-12, 8.76E-12, -3.20771E-07, -7.9999999999999659E-13, 1.2693000000000002E-11, 
DataValue, 0.09, -2, 3.3000000000000003, 1.2568E-11, 1.256E-12, 8.7680000000000014E-12, -3.19155E-07, -5.6666666666668115E-13, 1.2568E-11, 
DataValue, 0.12, -2, 3.3000000000000003, 1.2659000000000001E-11, 1.2080000000000001E-12, 8.763E-12, -3.16991E-07, 4.0000000000001178E-13, 1.2659000000000001E-11, 
DataValue, 0.15, -2, 3.3000000000000003, 1.2592000000000001E-11, 1.287E-12, 8.7580000000000013E-12, -3.17173E-07, -1.3333333333333277E-12, 1.2592000000000001E-11, 
DataValue, 0.18, -2, 3.3000000000000003, 1.2579000000000001E-11, 1.2880000000000002E-12, 8.776E-12, -3.15086E-07, -9.9999999999996217E-14, 1.2579000000000001E-11, 
DataValue, 0.21, -2, 3.3000000000000003, 1.2586000000000002E-11, 1.37E-12, 8.702E-12, -3.19256E-07, 3.4999999999998675E-13, 1.2586000000000002E-11, 
DataValue, 0.24, -2, 3.3000000000000003, 1.26E-11, 1.402E-12, 8.737E-12, -3.19529E-07, 1.9999999999999233E-13, 1.26E-11, 
DataValue, 0.27, -2, 3.3000000000000003, 1.2598000000000001E-11, 1.3840000000000002E-12, 8.737E-12, -3.2454599999999997E-07, 9.9999999999996217E-14, 1.2598000000000001E-11, 
DataValue, 0.3, -2, 3.3000000000000003, 1.2606E-11, 1.3760000000000002E-12, 8.728E-12, -3.24023E-07, -8.9999999999999283E-13, 1.2606E-11, 
DataValue, 0.33, -2, 3.3000000000000003, 1.2544000000000002E-11, 1.4880000000000001E-12, 8.7520000000000015E-12, -3.24059E-07, -1.7333333333333125E-12, 1.2544000000000002E-11, 
DataValue, 0.36, -2, 3.3000000000000003, 1.2502000000000002E-11, 1.517E-12, 8.7520000000000015E-12, -3.35602E-07, -6.3333333333335423E-13, 1.2502000000000002E-11, 
DataValue, 0.39, -2, 3.3000000000000003, 1.2506E-11, 1.533E-12, 8.6870000000000013E-12, -3.28855E-07, -3.333333333335002E-14, 1.2506E-11, 
DataValue, 0.42, -2, 3.3000000000000003, 1.25E-11, 1.573E-12, 8.759E-12, -3.3166499999999997E-07, 1.5000000000002125E-13, 1.25E-11, 
DataValue, 0.45, -2, 3.3000000000000003, 1.2515000000000002E-11, 1.6E-12, 8.834E-12, -3.32424E-07, 1.2833333333333296E-12, 1.2515000000000002E-11, 
