#6183680!Ceyear Technologies,3672E,ZKJ00317,2.1.6
!Calibration ON : 4P/1,2,3,4
!Balanced Topology: BBAL
!Sweep Type: lin Frequency Sweep
!S4P File: Measurements: <Sdd11, Sdc11, Sdd12, Sdc12>,
!<Scd11, Scc11, Scd12, Scc12>,
!<Sdd21, Sdc21, Sdd22, Sdc22>,
!<Scd21, Scc21, Scd22, Scc22>:
!Thursday, March 14, 2024  17 : 36
# Hz  S  MA  R 50.000
15000000000.000000 0.388791 15.258484 0.000000 0.000000 0.179106 65.540394 0.000000 0.000000
                0.000000 0.000000 0.000000 0.000000 0.000000 0.000000 0.000000 0.000000
                0.179182 66.010178 0.000000 0.000000 0.593717 102.530302 0.000000 0.000000
                0.000000 0.000000 0.000000 0.000000 0.000000 0.000000 0.000000 0.000000
15050000000.000000 0.389075 14.759602 0.000000 0.000000 0.180260 65.244865 0.000000 0.000000
                0.000000 0.000000 0.000000 0.000000 0.000000 0.000000 0.000000 0.000000
                0.178474 65.291298 0.000000 0.000000 0.591287 102.014546 0.000000 0.000000
                0.000000 0.000000 0.000000 0.000000 0.000000 0.000000 0.000000 0.000000
15100000000.000000 0.390154 14.062185 0.000000 0.000000 0.180141 64.697029 0.000000 0.000000
                0.000000 0.000000 0.000000 0.000000 0.000000 0.000000 0.000000 0.000000
                0.179023 64.935980 0.000000 0.000000 0.588777 101.491763 0.000000 0.000000
                0.000000 0.000000 0.000000 0.000000 0.000000 0.000000 0.000000 0.000000
15150000000.000000 0.389398 13.578879 0.000000 0.000000 0.179590 64.092425 0.000000 0.000000
                0.000000 0.000000 0.000000 0.000000 0.000000 0.000000 0.000000 0.000000
                0.179856 64.706572 0.000000 0.000000 0.586663 101.051520 0.000000 0.000000
                0.000000 0.000000 0.000000 0.000000 0.000000 0.000000 0.000000 0.000000
15200000000.000000 0.390118 13.152253 0.000000 0.000000 0.179822 63.646944 0.000000 0.000000
                0.000000 0.000000 0.000000 0.000000 0.000000 0.000000 0.000000 0.000000
                0.180059 64.247920 0.000000 0.000000 0.583887 100.473275 0.000000 0.000000
                0.000000 0.000000 0.000000 0.000000 0.000000 0.000000 0.000000 0.000000
15250000000.000000 0.390476 12.506266 0.000000 0.000000 0.180206 63.221405 0.000000 0.000000
                0.000000 0.000000 0.000000 0.000000 0.000000 0.000000 0.000000 0.000000
                0.180404 63.781541 0.000000 0.000000 0.581249 99.890535 0.000000 0.000000
                0.000000 0.000000 0.000000 0.000000 0.000000 0.000000 0.000000 0.000000
15300000000.000000 0.389842 12.057716 0.000000 0.000000 0.180419 62.834375 0.000000 0.000000
                0.000000 0.000000 0.000000 0.000000 0.000000 0.000000 0.000000 0.000000
                0.180703 63.339196 0.000000 0.000000 0.578941 99.262603 0.000000 0.000000
                0.000000 0.000000 0.000000 0.000000 0.000000 0.000000 0.000000 0.000000
15350000000.000000 0.390092 11.493651 0.000000 0.000000 0.180464 62.349457 0.000000 0.000000
                0.000000 0.000000 0.000000 0.000000 0.000000 0.000000 0.000000 0.000000
                0.180709 62.893302 0.000000 0.000000 0.577510 98.747446 0.000000 0.000000
                0.000000 0.000000 0.000000 0.000000 0.000000 0.000000 0.000000 0.000000
15400000000.000000 0.390951 10.814821 0.000000 0.000000 0.180774 61.888123 0.000000 0.000000
                0.000000 0.000000 0.000000 0.000000 0.000000 0.000000 0.000000 0.000000
                0.180998 62.423397 0.000000 0.000000 0.576395 98.270868 0.000000 0.000000
                0.000000 0.000000 0.000000 0.000000 0.000000 0.000000 0.000000 0.000000
15450000000.000000 0.391175 10.262377 0.000000 0.000000 0.181058 61.496168 0.000000 0.000000
                0.000000 0.000000 0.000000 0.000000 0.000000 0.000000 0.000000 0.000000
                0.181386 61.995189 0.000000 0.000000 0.574996 97.851778 0.000000 0.000000
                0.000000 0.000000 0.000000 0.000000 0.000000 0.000000 0.000000 0.000000
15500000000.000000 0.390972 9.747662 0.000000 0.000000 0.181062 61.012527 0.000000 0.000000
                0.000000 0.000000 0.000000 0.000000 0.000000 0.000000 0.000000 0.000000
                0.181542 61.542211 0.000000 0.000000 0.571682 97.424848 0.000000 0.000000
                0.000000 0.000000 0.000000 0.000000 0.000000 0.000000 0.000000 0.000000
15550000000.000000 0.392865 9.112896 0.000000 0.000000 0.181080 60.572097 0.000000 0.000000
                0.000000 0.000000 0.000000 0.000000 0.000000 0.000000 0.000000 0.000000
                0.181640 61.092748 0.000000 0.000000 0.569948 96.685289 0.000000 0.000000
                0.000000 0.000000 0.000000 0.000000 0.000000 0.000000 0.000000 0.000000
15600000000.000000 0.392723 8.611234 0.000000 0.000000 0.181420 60.246170 0.000000 0.000000
                0.000000 0.000000 0.000000 0.000000 0.000000 0.000000 0.000000 0.000000
                0.182175 60.668067 0.000000 0.000000 0.567593 96.063259 0.000000 0.000000
                0.000000 0.000000 0.000000 0.000000 0.000000 0.000000 0.000000 0.000000
15650000000.000000 0.392450 8.091385 0.000000 0.000000 0.181498 59.738178 0.000000 0.000000
                0.000000 0.000000 0.000000 0.000000 0.000000 0.000000 0.000000 0.000000
                0.182315 60.180919 0.000000 0.000000 0.565411 95.499580 0.000000 0.000000
                0.000000 0.000000 0.000000 0.000000 0.000000 0.000000 0.000000 0.000000
15700000000.000000 0.393857 7.518153 0.000000 0.000000 0.181729 59.301689 0.000000 0.000000
                0.000000 0.000000 0.000000 0.000000 0.000000 0.000000 0.000000 0.000000
                0.182428 59.722278 0.000000 0.000000 0.563861 94.765796 0.000000 0.000000
                0.000000 0.000000 0.000000 0.000000 0.000000 0.000000 0.000000 0.000000
15750000000.000000 0.394065 7.078028 0.000000 0.000000 0.182160 58.951003 0.000000 0.000000
                0.000000 0.000000 0.000000 0.000000 0.000000 0.000000 0.000000 0.000000
                0.182894 59.278131 0.000000 0.000000 0.562488 94.252858 0.000000 0.000000
                0.000000 0.000000 0.000000 0.000000 0.000000 0.000000 0.000000 0.000000
15800000000.000000 0.393308 6.572432 0.000000 0.000000 0.182174 58.410341 0.000000 0.000000
                0.000000 0.000000 0.000000 0.000000 0.000000 0.000000 0.000000 0.000000
                0.183055 58.841862 0.000000 0.000000 0.561376 93.789548 0.000000 0.000000
                0.000000 0.000000 0.000000 0.000000 0.000000 0.000000 0.000000 0.000000
15850000000.000000 0.394700 6.030549 0.000000 0.000000 0.182464 57.979061 0.000000 0.000000
                0.000000 0.000000 0.000000 0.000000 0.000000 0.000000 0.000000 0.000000
                0.183268 58.406241 0.000000 0.000000 0.558301 93.296759 0.000000 0.000000
                0.000000 0.000000 0.000000 0.000000 0.000000 0.000000 0.000000 0.000000
15900000000.000000 0.395206 5.520922 0.000000 0.000000 0.182731 57.574571 0.000000 0.000000
                0.000000 0.000000 0.000000 0.000000 0.000000 0.000000 0.000000 0.000000
                0.183815 57.938450 0.000000 0.000000 0.556013 92.557300 0.000000 0.000000
                0.000000 0.000000 0.000000 0.000000 0.000000 0.000000 0.000000 0.000000
15950000000.000000 0.394545 5.035239 0.000000 0.000000 0.182836 57.131915 0.000000 0.000000
                0.000000 0.000000 0.000000 0.000000 0.000000 0.000000 0.000000 0.000000
                0.184120 57.512140 0.000000 0.000000 0.554275 91.923707 0.000000 0.000000
                0.000000 0.000000 0.000000 0.000000 0.000000 0.000000 0.000000 0.000000
16000000000.000000 0.395556 4.576297 0.000000 0.000000 0.183238 56.689240 0.000000 0.000000
                0.000000 0.000000 0.000000 0.000000 0.000000 0.000000 0.000000 0.000000
                0.184281 57.067003 0.000000 0.000000 0.551694 91.296152 0.000000 0.000000
                0.000000 0.000000 0.000000 0.000000 0.000000 0.000000 0.000000 0.000000
16050000000.000000 0.397429 3.986913 0.000000 0.000000 0.183709 56.279508 0.000000 0.000000
                0.000000 0.000000 0.000000 0.000000 0.000000 0.000000 0.000000 0.000000
                0.184615 56.627978 0.000000 0.000000 0.551035 90.458873 0.000000 0.000000
                0.000000 0.000000 0.000000 0.000000 0.000000 0.000000 0.000000 0.000000
16100000000.000000 0.396301 3.546472 0.000000 0.000000 0.183791 55.852682 0.000000 0.000000
                0.000000 0.000000 0.000000 0.000000 0.000000 0.000000 0.000000 0.000000
                0.184947 56.222251 0.000000 0.000000 0.549082 89.912936 0.000000 0.000000
                0.000000 0.000000 0.000000 0.000000 0.000000 0.000000 0.000000 0.000000
16150000000.000000 0.396729 3.222811 0.000000 0.000000 0.183848 55.329830 0.000000 0.000000
                0.000000 0.000000 0.000000 0.000000 0.000000 0.000000 0.000000 0.000000
                0.185033 55.673435 0.000000 0.000000 0.548017 89.294945 0.000000 0.000000
                0.000000 0.000000 0.000000 0.000000 0.000000 0.000000 0.000000 0.000000
16200000000.000000 0.398369 2.675144 0.000000 0.000000 0.184136 54.822629 0.000000 0.000000
                0.000000 0.000000 0.000000 0.000000 0.000000 0.000000 0.000000 0.000000
                0.185141 55.155350 0.000000 0.000000 0.546484 88.618473 0.000000 0.000000
                0.000000 0.000000 0.000000 0.000000 0.000000 0.000000 0.000000 0.000000
16250000000.000000 0.397764 2.264100 0.000000 0.000000 0.184371 54.395909 0.000000 0.000000
                0.000000 0.000000 0.000000 0.000000 0.000000 0.000000 0.000000 0.000000
                0.185595 54.745075 0.000000 0.000000 0.543331 88.007577 0.000000 0.000000
                0.000000 0.000000 0.000000 0.000000 0.000000 0.000000 0.000000 0.000000
16300000000.000000 0.398548 1.861827 0.000000 0.000000 0.184209 53.941694 0.000000 0.000000
                0.000000 0.000000 0.000000 0.000000 0.000000 0.000000 0.000000 0.000000
                0.185621 54.348673 0.000000 0.000000 0.541506 87.366768 0.000000 0.000000
                0.000000 0.000000 0.000000 0.000000 0.000000 0.000000 0.000000 0.000000
16350000000.000000 0.401067 1.294923 0.000000 0.000000 0.184662 53.597952 0.000000 0.000000
                0.000000 0.000000 0.000000 0.000000 0.000000 0.000000 0.000000 0.000000
                0.185784 53.922426 0.000000 0.000000 0.538749 86.599145 0.000000 0.000000
                0.000000 0.000000 0.000000 0.000000 0.000000 0.000000 0.000000 0.000000
16400000000.000000 0.400369 0.749521 0.000000 0.000000 0.197901 56.107699 0.000000 0.000000
                0.000000 0.000000 0.000000 0.000000 0.000000 0.000000 0.000000 0.000000
                0.175249 50.508674 0.000000 0.000000 0.536911 85.878959 0.000000 0.000000
                0.000000 0.000000 0.000000 0.000000 0.000000 0.000000 0.000000 0.000000
16450000000.000000 0.400353 0.383535 0.000000 0.000000 0.210901 58.817705 0.000000 0.000000
                0.000000 0.000000 0.000000 0.000000 0.000000 0.000000 0.000000 0.000000
                0.167707 47.084828 0.000000 0.000000 0.534576 85.389351 0.000000 0.000000
                0.000000 0.000000 0.000000 0.000000 0.000000 0.000000 0.000000 0.000000
16500000000.000000 0.402199 -0.043197 0.000000 0.000000 0.220519 58.721931 0.000000 0.000000
                0.000000 0.000000 0.000000 0.000000 0.000000 0.000000 0.000000 0.000000
                0.163053 45.900837 0.000000 0.000000 0.532547 84.618845 0.000000 0.000000
                0.000000 0.000000 0.000000 0.000000 0.000000 0.000000 0.000000 0.000000
16550000000.000000 0.402276 -0.597321 0.000000 0.000000 0.222834 58.856733 0.000000 0.000000
                0.000000 0.000000 0.000000 0.000000 0.000000 0.000000 0.000000 0.000000
                0.162745 44.853596 0.000000 0.000000 0.531848 83.997660 0.000000 0.000000
                0.000000 0.000000 0.000000 0.000000 0.000000 0.000000 0.000000 0.000000
16600000000.000000 0.403582 -0.994996 0.000000 0.000000 0.221809 58.452110 0.000000 0.000000
                0.000000 0.000000 0.000000 0.000000 0.000000 0.000000 0.000000 0.000000
                0.163667 44.461498 0.000000 0.000000 0.529808 83.527887 0.000000 0.000000
                0.000000 0.000000 0.000000 0.000000 0.000000 0.000000 0.000000 0.000000
16650000000.000000 0.403129 -1.331745 0.000000 0.000000 0.235618 59.108210 0.000000 0.000000
                0.000000 0.000000 0.000000 0.000000 0.000000 0.000000 0.000000 0.000000
                0.158461 42.510237 0.000000 0.000000 0.527629 82.966386 0.000000 0.000000
                0.000000 0.000000 0.000000 0.000000 0.000000 0.000000 0.000000 0.000000
16700000000.000000 0.403613 -1.903095 0.000000 0.000000 0.236063 60.013625 0.000000 0.000000
                0.000000 0.000000 0.000000 0.000000 0.000000 0.000000 0.000000 0.000000
                0.159513 41.094611 0.000000 0.000000 0.524832 82.276713 0.000000 0.000000
                0.000000 0.000000 0.000000 0.000000 0.000000 0.000000 0.000000 0.000000
16750000000.000000 0.404230 -2.424894 0.000000 0.000000 0.208707 55.950654 0.000000 0.000000
                0.000000 0.000000 0.000000 0.000000 0.000000 0.000000 0.000000 0.000000
                0.171656 44.771440 0.000000 0.000000 0.523771 81.547542 0.000000 0.000000
                0.000000 0.000000 0.000000 0.000000 0.000000 0.000000 0.000000 0.000000
16800000000.000000 0.404495 -2.787572 0.000000 0.000000 0.193292 51.428050 0.000000 0.000000
                0.000000 0.000000 0.000000 0.000000 0.000000 0.000000 0.000000 0.000000
                0.182326 48.372531 0.000000 0.000000 0.521803 80.961291 0.000000 0.000000
                0.000000 0.000000 0.000000 0.000000 0.000000 0.000000 0.000000 0.000000
16850000000.000000 0.405736 -3.198706 0.000000 0.000000 0.189860 49.988653 0.000000 0.000000
                0.000000 0.000000 0.000000 0.000000 0.000000 0.000000 0.000000 0.000000
                0.185600 48.802136 0.000000 0.000000 0.519722 80.210384 0.000000 0.000000
                0.000000 0.000000 0.000000 0.000000 0.000000 0.000000 0.000000 0.000000
16900000000.000000 0.405775 -3.651130 0.000000 0.000000 0.189250 49.174671 0.000000 0.000000
                0.000000 0.000000 0.000000 0.000000 0.000000 0.000000 0.000000 0.000000
                0.186777 48.769365 0.000000 0.000000 0.518546 79.641026 0.000000 0.000000
                0.000000 0.000000 0.000000 0.000000 0.000000 0.000000 0.000000 0.000000
16950000000.000000 0.405364 -4.022047 0.000000 0.000000 0.188987 48.649307 0.000000 0.000000
                0.000000 0.000000 0.000000 0.000000 0.000000 0.000000 0.000000 0.000000
                0.187625 48.565832 0.000000 0.000000 0.516922 79.214127 0.000000 0.000000
                0.000000 0.000000 0.000000 0.000000 0.000000 0.000000 0.000000 0.000000
17000000000.000000 0.405972 -4.335120 0.000000 0.000000 0.188386 47.950398 0.000000 0.000000
                0.000000 0.000000 0.000000 0.000000 0.000000 0.000000 0.000000 0.000000
                0.188714 48.300171 0.000000 0.000000 0.515839 78.656295 0.000000 0.000000
                0.000000 0.000000 0.000000 0.000000 0.000000 0.000000 0.000000 0.000000
17050000000.000000 0.406108 -4.917051 0.000000 0.000000 0.188661 47.499718 0.000000 0.000000
                0.000000 0.000000 0.000000 0.000000 0.000000 0.000000 0.000000 0.000000
                0.189199 47.984601 0.000000 0.000000 0.512642 78.181832 0.000000 0.000000
                0.000000 0.000000 0.000000 0.000000 0.000000 0.000000 0.000000 0.000000
17100000000.000000 0.406570 -5.399305 0.000000 0.000000 0.189052 47.073930 0.000000 0.000000
                0.000000 0.000000 0.000000 0.000000 0.000000 0.000000 0.000000 0.000000
                0.189550 47.569373 0.000000 0.000000 0.509638 77.475325 0.000000 0.000000
                0.000000 0.000000 0.000000 0.000000 0.000000 0.000000 0.000000 0.000000
17150000000.000000 0.406786 -5.645169 0.000000 0.000000 0.189206 46.619725 0.000000 0.000000
                0.000000 0.000000 0.000000 0.000000 0.000000 0.000000 0.000000 0.000000
                0.189846 47.086457 0.000000 0.000000 0.508431 76.717625 0.000000 0.000000
                0.000000 0.000000 0.000000 0.000000 0.000000 0.000000 0.000000 0.000000
17200000000.000000 0.406177 -6.081078 0.000000 0.000000 0.189668 46.152148 0.000000 0.000000
                0.000000 0.000000 0.000000 0.000000 0.000000 0.000000 0.000000 0.000000
                0.190266 46.616514 0.000000 0.000000 0.505973 76.071877 0.000000 0.000000
                0.000000 0.000000 0.000000 0.000000 0.000000 0.000000 0.000000 0.000000
17250000000.000000 0.406150 -6.437244 0.000000 0.000000 0.189892 45.709005 0.000000 0.000000
                0.000000 0.000000 0.000000 0.000000 0.000000 0.000000 0.000000 0.000000
                0.190520 46.231065 0.000000 0.000000 0.504226 75.607729 0.000000 0.000000
                0.000000 0.000000 0.000000 0.000000 0.000000 0.000000 0.000000 0.000000
17300000000.000000 0.406232 -6.875924 0.000000 0.000000 0.189969 45.286663 0.000000 0.000000
                0.000000 0.000000 0.000000 0.000000 0.000000 0.000000 0.000000 0.000000
                0.190798 45.782707 0.000000 0.000000 0.501970 75.019646 0.000000 0.000000
                0.000000 0.000000 0.000000 0.000000 0.000000 0.000000 0.000000 0.000000
17350000000.000000 0.405914 -7.278621 0.000000 0.000000 0.190164 44.881502 0.000000 0.000000
                0.000000 0.000000 0.000000 0.000000 0.000000 0.000000 0.000000 0.000000
                0.191264 45.301931 0.000000 0.000000 0.500533 74.563871 0.000000 0.000000
                0.000000 0.000000 0.000000 0.000000 0.000000 0.000000 0.000000 0.000000
17400000000.000000 0.406798 -7.705826 0.000000 0.000000 0.190349 44.456998 0.000000 0.000000
                0.000000 0.000000 0.000000 0.000000 0.000000 0.000000 0.000000 0.000000
                0.191464 44.898410 0.000000 0.000000 0.496984 74.185304 0.000000 0.000000
                0.000000 0.000000 0.000000 0.000000 0.000000 0.000000 0.000000 0.000000
17450000000.000000 0.407080 -8.201028 0.000000 0.000000 0.190737 44.042375 0.000000 0.000000
                0.000000 0.000000 0.000000 0.000000 0.000000 0.000000 0.000000 0.000000
                0.191962 44.428658 0.000000 0.000000 0.494166 73.377043 0.000000 0.000000
                0.000000 0.000000 0.000000 0.000000 0.000000 0.000000 0.000000 0.000000
17500000000.000000 0.406538 -8.634273 0.000000 0.000000 0.191155 43.613407 0.000000 0.000000
                0.000000 0.000000 0.000000 0.000000 0.000000 0.000000 0.000000 0.000000
                0.192523 43.981488 0.000000 0.000000 0.493466 72.537961 0.000000 0.000000
                0.000000 0.000000 0.000000 0.000000 0.000000 0.000000 0.000000 0.000000
17550000000.000000 0.407034 -9.139787 0.000000 0.000000 0.191450 43.192849 0.000000 0.000000
                0.000000 0.000000 0.000000 0.000000 0.000000 0.000000 0.000000 0.000000
                0.192789 43.558172 0.000000 0.000000 0.491025 71.822769 0.000000 0.000000
                0.000000 0.000000 0.000000 0.000000 0.000000 0.000000 0.000000 0.000000
17600000000.000000 0.407866 -9.754271 0.000000 0.000000 0.191780 42.778163 0.000000 0.000000
                0.000000 0.000000 0.000000 0.000000 0.000000 0.000000 0.000000 0.000000
                0.193097 43.099281 0.000000 0.000000 0.489637 71.227411 0.000000 0.000000
                0.000000 0.000000 0.000000 0.000000 0.000000 0.000000 0.000000 0.000000
17650000000.000000 0.408891 -10.136833 0.000000 0.000000 0.192201 42.275035 0.000000 0.000000
                0.000000 0.000000 0.000000 0.000000 0.000000 0.000000 0.000000 0.000000
