#6183361!Ceyear Technologies,3672E,ZKJ00317,2.1.6
!Calibration ON : 4P/1,2,3,4
!Balanced Topology: BBAL
!Sweep Type: lin Frequency Sweep
!S4P File: Measurements: <Sdd11, Sdc11, Sdd12, Sdc12>,
!<Scd11, Scc11, Scd12, Scc12>,
!<Sdd21, Sdc21, Sdd22, Sdc22>,
!<Scd21, Scc21, Scd22, Scc22>:
!Thursday, March 14, 2024  17 : 36
# Hz  S  MA  R 50.000
15000000000.000000 0.160579 8.914738 0.000000 0.000000 0.032962 117.124876 0.000000 0.000000
                0.000000 0.000000 0.000000 0.000000 0.000000 0.000000 0.000000 0.000000
                0.119442 70.534663 0.000000 0.000000 0.782266 132.753030 0.000000 0.000000
                0.000000 0.000000 0.000000 0.000000 0.000000 0.000000 0.000000 0.000000
15050000000.000000 0.162698 7.493431 0.000000 0.000000 0.034079 118.404968 0.000000 0.000000
                0.000000 0.000000 0.000000 0.000000 0.000000 0.000000 0.000000 0.000000
                0.118385 70.188750 0.000000 0.000000 0.781675 132.382999 0.000000 0.000000
                0.000000 0.000000 0.000000 0.000000 0.000000 0.000000 0.000000 0.000000
15100000000.000000 0.164899 6.654888 0.000000 0.000000 0.033725 117.861894 0.000000 0.000000
                0.000000 0.000000 0.000000 0.000000 0.000000 0.000000 0.000000 0.000000
                0.121662 67.736898 0.000000 0.000000 0.779919 132.018079 0.000000 0.000000
                0.000000 0.000000 0.000000 0.000000 0.000000 0.000000 0.000000 0.000000
15150000000.000000 0.165575 7.665543 0.000000 0.000000 0.032789 115.831636 0.000000 0.000000
                0.000000 0.000000 0.000000 0.000000 0.000000 0.000000 0.000000 0.000000
                0.127019 66.346238 0.000000 0.000000 0.778484 131.669341 0.000000 0.000000
                0.000000 0.000000 0.000000 0.000000 0.000000 0.000000 0.000000 0.000000
15200000000.000000 0.169104 5.902761 0.000000 0.000000 0.033000 115.907507 0.000000 0.000000
                0.000000 0.000000 0.000000 0.000000 0.000000 0.000000 0.000000 0.000000
                0.119776 64.773650 0.000000 0.000000 0.776767 131.282027 0.000000 0.000000
                0.000000 0.000000 0.000000 0.000000 0.000000 0.000000 0.000000 0.000000
15250000000.000000 0.172880 4.517805 0.000000 0.000000 0.032726 114.905282 0.000000 0.000000
                0.000000 0.000000 0.000000 0.000000 0.000000 0.000000 0.000000 0.000000
                0.117355 63.024181 0.000000 0.000000 0.775407 130.914628 0.000000 0.000000
                0.000000 0.000000 0.000000 0.000000 0.000000 0.000000 0.000000 0.000000
15300000000.000000 0.169823 4.412901 0.000000 0.000000 0.033124 113.109618 0.000000 0.000000
                0.000000 0.000000 0.000000 0.000000 0.000000 0.000000 0.000000 0.000000
                0.119472 64.881982 0.000000 0.000000 0.773486 130.486363 0.000000 0.000000
                0.000000 0.000000 0.000000 0.000000 0.000000 0.000000 0.000000 0.000000
15350000000.000000 0.168613 2.281070 0.000000 0.000000 0.033098 113.135021 0.000000 0.000000
                0.000000 0.000000 0.000000 0.000000 0.000000 0.000000 0.000000 0.000000
                0.113056 67.998777 0.000000 0.000000 0.773142 130.010508 0.000000 0.000000
                0.000000 0.000000 0.000000 0.000000 0.000000 0.000000 0.000000 0.000000
15400000000.000000 0.170035 1.440337 0.000000 0.000000 0.032641 113.708111 0.000000 0.000000
                0.000000 0.000000 0.000000 0.000000 0.000000 0.000000 0.000000 0.000000
                0.118361 68.128828 0.000000 0.000000 0.772862 129.640371 0.000000 0.000000
                0.000000 0.000000 0.000000 0.000000 0.000000 0.000000 0.000000 0.000000
15450000000.000000 0.169547 1.649724 0.000000 0.000000 0.032133 112.908380 0.000000 0.000000
                0.000000 0.000000 0.000000 0.000000 0.000000 0.000000 0.000000 0.000000
                0.123807 68.311111 0.000000 0.000000 0.772595 129.344796 0.000000 0.000000
                0.000000 0.000000 0.000000 0.000000 0.000000 0.000000 0.000000 0.000000
15500000000.000000 0.169623 1.468362 0.000000 0.000000 0.032095 111.708430 0.000000 0.000000
                0.000000 0.000000 0.000000 0.000000 0.000000 0.000000 0.000000 0.000000
                0.123598 67.093456 0.000000 0.000000 0.770744 128.996230 0.000000 0.000000
                0.000000 0.000000 0.000000 0.000000 0.000000 0.000000 0.000000 0.000000
15550000000.000000 0.176172 0.752383 0.000000 0.000000 0.031288 112.152611 0.000000 0.000000
                0.000000 0.000000 0.000000 0.000000 0.000000 0.000000 0.000000 0.000000
                0.125608 63.499722 0.000000 0.000000 0.768387 128.430654 0.000000 0.000000
                0.000000 0.000000 0.000000 0.000000 0.000000 0.000000 0.000000 0.000000
15600000000.000000 0.180815 0.898711 0.000000 0.000000 0.030718 111.317102 0.000000 0.000000
                0.000000 0.000000 0.000000 0.000000 0.000000 0.000000 0.000000 0.000000
                0.126225 61.289686 0.000000 0.000000 0.766505 128.129597 0.000000 0.000000
                0.000000 0.000000 0.000000 0.000000 0.000000 0.000000 0.000000 0.000000
15650000000.000000 0.177267 -0.820815 0.000000 0.000000 0.031457 109.798508 0.000000 0.000000
                0.000000 0.000000 0.000000 0.000000 0.000000 0.000000 0.000000 0.000000
                0.118501 62.976824 0.000000 0.000000 0.766008 127.607155 0.000000 0.000000
                0.000000 0.000000 0.000000 0.000000 0.000000 0.000000 0.000000 0.000000
15700000000.000000 0.181586 -2.312091 0.000000 0.000000 0.030887 111.403443 0.000000 0.000000
                0.000000 0.000000 0.000000 0.000000 0.000000 0.000000 0.000000 0.000000
                0.117975 62.769991 0.000000 0.000000 0.764508 127.062229 0.000000 0.000000
                0.000000 0.000000 0.000000 0.000000 0.000000 0.000000 0.000000 0.000000
15750000000.000000 0.185160 -2.336973 0.000000 0.000000 0.030564 110.097560 0.000000 0.000000
                0.000000 0.000000 0.000000 0.000000 0.000000 0.000000 0.000000 0.000000
                0.120466 60.767131 0.000000 0.000000 0.764442 126.737146 0.000000 0.000000
                0.000000 0.000000 0.000000 0.000000 0.000000 0.000000 0.000000 0.000000
15800000000.000000 0.180362 -2.403466 0.000000 0.000000 0.030771 107.956934 0.000000 0.000000
                0.000000 0.000000 0.000000 0.000000 0.000000 0.000000 0.000000 0.000000
                0.123251 63.247455 0.000000 0.000000 0.764749 126.203279 0.000000 0.000000
                0.000000 0.000000 0.000000 0.000000 0.000000 0.000000 0.000000 0.000000
15850000000.000000 0.182974 -4.178843 0.000000 0.000000 0.031022 109.481762 0.000000 0.000000
                0.000000 0.000000 0.000000 0.000000 0.000000 0.000000 0.000000 0.000000
                0.120418 61.642701 0.000000 0.000000 0.762942 125.878469 0.000000 0.000000
                0.000000 0.000000 0.000000 0.000000 0.000000 0.000000 0.000000 0.000000
15900000000.000000 0.188760 -2.595721 0.000000 0.000000 0.030075 109.333948 0.000000 0.000000
                0.000000 0.000000 0.000000 0.000000 0.000000 0.000000 0.000000 0.000000
                0.129993 58.343580 0.000000 0.000000 0.760461 125.509371 0.000000 0.000000
                0.000000 0.000000 0.000000 0.000000 0.000000 0.000000 0.000000 0.000000
15950000000.000000 0.186461 -3.585814 0.000000 0.000000 0.030596 108.027890 0.000000 0.000000
                0.000000 0.000000 0.000000 0.000000 0.000000 0.000000 0.000000 0.000000
                0.126050 59.622878 0.000000 0.000000 0.759575 124.983921 0.000000 0.000000
                0.000000 0.000000 0.000000 0.000000 0.000000 0.000000 0.000000 0.000000
16000000000.000000 0.186503 -5.443245 0.000000 0.000000 0.031034 108.410198 0.000000 0.000000
                0.000000 0.000000 0.000000 0.000000 0.000000 0.000000 0.000000 0.000000
                0.118900 59.872978 0.000000 0.000000 0.757779 124.556421 0.000000 0.000000
                0.000000 0.000000 0.000000 0.000000 0.000000 0.000000 0.000000 0.000000
16050000000.000000 0.194498 -5.559184 0.000000 0.000000 0.029907 108.970459 0.000000 0.000000
                0.000000 0.000000 0.000000 0.000000 0.000000 0.000000 0.000000 0.000000
                0.119341 56.563780 0.000000 0.000000 0.756836 124.065354 0.000000 0.000000
                0.000000 0.000000 0.000000 0.000000 0.000000 0.000000 0.000000 0.000000
16100000000.000000 0.190783 -5.725644 0.000000 0.000000 0.030584 107.570248 0.000000 0.000000
                0.000000 0.000000 0.000000 0.000000 0.000000 0.000000 0.000000 0.000000
                0.124345 59.465132 0.000000 0.000000 0.756565 123.589666 0.000000 0.000000
                0.000000 0.000000 0.000000 0.000000 0.000000 0.000000 0.000000 0.000000
16150000000.000000 0.191221 -6.454169 0.000000 0.000000 0.030566 107.073044 0.000000 0.000000
                0.000000 0.000000 0.000000 0.000000 0.000000 0.000000 0.000000 0.000000
                0.121227 58.955344 0.000000 0.000000 0.755735 122.990974 0.000000 0.000000
                0.000000 0.000000 0.000000 0.000000 0.000000 0.000000 0.000000 0.000000
16200000000.000000 0.195458 -6.147095 0.000000 0.000000 0.029661 106.619919 0.000000 0.000000
                0.000000 0.000000 0.000000 0.000000 0.000000 0.000000 0.000000 0.000000
                0.125587 55.987479 0.000000 0.000000 0.754635 122.497852 0.000000 0.000000
                0.000000 0.000000 0.000000 0.000000 0.000000 0.000000 0.000000 0.000000
16250000000.000000 0.195488 -6.427808 0.000000 0.000000 0.029642 106.170123 0.000000 0.000000
                0.000000 0.000000 0.000000 0.000000 0.000000 0.000000 0.000000 0.000000
                0.127794 57.150556 0.000000 0.000000 0.752720 122.107783 0.000000 0.000000
                0.000000 0.000000 0.000000 0.000000 0.000000 0.000000 0.000000 0.000000
16300000000.000000 0.198420 -6.722709 0.000000 0.000000 0.029375 105.191698 0.000000 0.000000
                0.000000 0.000000 0.000000 0.000000 0.000000 0.000000 0.000000 0.000000
                0.127032 55.349283 0.000000 0.000000 0.750671 121.518446 0.000000 0.000000
                0.000000 0.000000 0.000000 0.000000 0.000000 0.000000 0.000000 0.000000
16350000000.000000 0.205276 -8.013554 0.000000 0.000000 0.028889 106.032500 0.000000 0.000000
                0.000000 0.000000 0.000000 0.000000 0.000000 0.000000 0.000000 0.000000
                0.121354 53.230796 0.000000 0.000000 0.747999 121.127636 0.000000 0.000000
                0.000000 0.000000 0.000000 0.000000 0.000000 0.000000 0.000000 0.000000
16400000000.000000 0.208532 -9.285417 0.000000 0.000000 0.043936 110.567742 0.000000 0.000000
                0.000000 0.000000 0.000000 0.000000 0.000000 0.000000 0.000000 0.000000
                0.115471 45.891420 0.000000 0.000000 0.747405 120.665198 0.000000 0.000000
                0.000000 0.000000 0.000000 0.000000 0.000000 0.000000 0.000000 0.000000
16450000000.000000 0.207319 -9.556429 0.000000 0.000000 0.059318 114.427518 0.000000 0.000000
                0.000000 0.000000 0.000000 0.000000 0.000000 0.000000 0.000000 0.000000
                0.113897 43.271237 0.000000 0.000000 0.745669 120.232950 0.000000 0.000000
                0.000000 0.000000 0.000000 0.000000 0.000000 0.000000 0.000000 0.000000
16500000000.000000 0.210018 -10.579102 0.000000 0.000000 0.066286 110.529498 0.000000 0.000000
                0.000000 0.000000 0.000000 0.000000 0.000000 0.000000 0.000000 0.000000
                0.106954 41.156147 0.000000 0.000000 0.743577 119.723093 0.000000 0.000000
                0.000000 0.000000 0.000000 0.000000 0.000000 0.000000 0.000000 0.000000
16550000000.000000 0.208186 -11.475717 0.000000 0.000000 0.069325 110.938988 0.000000 0.000000
                0.000000 0.000000 0.000000 0.000000 0.000000 0.000000 0.000000 0.000000
                0.107649 40.251133 0.000000 0.000000 0.744677 119.263724 0.000000 0.000000
                0.000000 0.000000 0.000000 0.000000 0.000000 0.000000 0.000000 0.000000
16600000000.000000 0.207024 -12.001242 0.000000 0.000000 0.068342 111.192111 0.000000 0.000000
                0.000000 0.000000 0.000000 0.000000 0.000000 0.000000 0.000000 0.000000
                0.111877 43.012448 0.000000 0.000000 0.744439 118.796569 0.000000 0.000000
                0.000000 0.000000 0.000000 0.000000 0.000000 0.000000 0.000000 0.000000
16650000000.000000 0.207630 -12.301455 0.000000 0.000000 0.079484 109.142046 0.000000 0.000000
                0.000000 0.000000 0.000000 0.000000 0.000000 0.000000 0.000000 0.000000
                0.109120 38.452383 0.000000 0.000000 0.743220 118.382339 0.000000 0.000000
                0.000000 0.000000 0.000000 0.000000 0.000000 0.000000 0.000000 0.000000
16700000000.000000 0.210445 -12.526964 0.000000 0.000000 0.083275 112.436361 0.000000 0.000000
                0.000000 0.000000 0.000000 0.000000 0.000000 0.000000 0.000000 0.000000
                0.113680 34.630061 0.000000 0.000000 0.741403 117.960684 0.000000 0.000000
                0.000000 0.000000 0.000000 0.000000 0.000000 0.000000 0.000000 0.000000
16750000000.000000 0.212826 -12.626678 0.000000 0.000000 0.056264 112.237750 0.000000 0.000000
                0.000000 0.000000 0.000000 0.000000 0.000000 0.000000 0.000000 0.000000
                0.116491 40.869041 0.000000 0.000000 0.740482 117.365210 0.000000 0.000000
                0.000000 0.000000 0.000000 0.000000 0.000000 0.000000 0.000000 0.000000
16800000000.000000 0.216056 -13.184019 0.000000 0.000000 0.037384 106.113056 0.000000 0.000000
                0.000000 0.000000 0.000000 0.000000 0.000000 0.000000 0.000000 0.000000
                0.112566 47.515843 0.000000 0.000000 0.739025 116.887433 0.000000 0.000000
                0.000000 0.000000 0.000000 0.000000 0.000000 0.000000 0.000000 0.000000
16850000000.000000 0.217979 -13.452114 0.000000 0.000000 0.032778 104.988897 0.000000 0.000000
                0.000000 0.000000 0.000000 0.000000 0.000000 0.000000 0.000000 0.000000
                0.117319 49.141299 0.000000 0.000000 0.736767 116.356205 0.000000 0.000000
                0.000000 0.000000 0.000000 0.000000 0.000000 0.000000 0.000000 0.000000
16900000000.000000 0.214650 -15.183527 0.000000 0.000000 0.032225 102.867757 0.000000 0.000000
                0.000000 0.000000 0.000000 0.000000 0.000000 0.000000 0.000000 0.000000
                0.113438 52.579854 0.000000 0.000000 0.736944 115.853921 0.000000 0.000000
                0.000000 0.000000 0.000000 0.000000 0.000000 0.000000 0.000000 0.000000
16950000000.000000 0.217578 -15.073395 0.000000 0.000000 0.031440 101.804287 0.000000 0.000000
                0.000000 0.000000 0.000000 0.000000 0.000000 0.000000 0.000000 0.000000
                0.116225 52.021105 0.000000 0.000000 0.736416 115.490961 0.000000 0.000000
                0.000000 0.000000 0.000000 0.000000 0.000000 0.000000 0.000000 0.000000
17000000000.000000 0.220264 -14.551767 0.000000 0.000000 0.029997 100.990097 0.000000 0.000000
                0.000000 0.000000 0.000000 0.000000 0.000000 0.000000 0.000000 0.000000
                0.121885 51.739063 0.000000 0.000000 0.735531 115.065902 0.000000 0.000000
                0.000000 0.000000 0.000000 0.000000 0.000000 0.000000 0.000000 0.000000
17050000000.000000 0.218710 -15.616945 0.000000 0.000000 0.030486 101.223072 0.000000 0.000000
                0.000000 0.000000 0.000000 0.000000 0.000000 0.000000 0.000000 0.000000
                0.123262 51.097210 0.000000 0.000000 0.734026 114.815951 0.000000 0.000000
                0.000000 0.000000 0.000000 0.000000 0.000000 0.000000 0.000000 0.000000
17100000000.000000 0.220750 -15.996707 0.000000 0.000000 0.030767 100.659972 0.000000 0.000000
                0.000000 0.000000 0.000000 0.000000 0.000000 0.000000 0.000000 0.000000
                0.122203 49.448645 0.000000 0.000000 0.732247 114.335948 0.000000 0.000000
                0.000000 0.000000 0.000000 0.000000 0.000000 0.000000 0.000000 0.000000
17150000000.000000 0.224745 -16.037612 0.000000 0.000000 0.030033 99.231586 0.000000 0.000000
                0.000000 0.000000 0.000000 0.000000 0.000000 0.000000 0.000000 0.000000
                0.120181 47.484446 0.000000 0.000000 0.730248 113.771264 0.000000 0.000000
                0.000000 0.000000 0.000000 0.000000 0.000000 0.000000 0.000000 0.000000
17200000000.000000 0.221862 -17.101104 0.000000 0.000000 0.030383 98.460484 0.000000 0.000000
                0.000000 0.000000 0.000000 0.000000 0.000000 0.000000 0.000000 0.000000
                0.120068 49.399384 0.000000 0.000000 0.729777 113.352349 0.000000 0.000000
                0.000000 0.000000 0.000000 0.000000 0.000000 0.000000 0.000000 0.000000
17250000000.000000 0.220327 -18.026084 0.000000 0.000000 0.031011 97.771823 0.000000 0.000000
                0.000000 0.000000 0.000000 0.000000 0.000000 0.000000 0.000000 0.000000
                0.120205 50.200479 0.000000 0.000000 0.729686 112.894757 0.000000 0.000000
                0.000000 0.000000 0.000000 0.000000 0.000000 0.000000 0.000000 0.000000
17300000000.000000 0.222763 -17.523601 0.000000 0.000000 0.030513 96.811140 0.000000 0.000000
                0.000000 0.000000 0.000000 0.000000 0.000000 0.000000 0.000000 0.000000
                0.121273 49.451539 0.000000 0.000000 0.727353 112.518721 0.000000 0.000000
                0.000000 0.000000 0.000000 0.000000 0.000000 0.000000 0.000000 0.000000
17350000000.000000 0.221852 -17.527907 0.000000 0.000000 0.030011 96.340737 0.000000 0.000000
                0.000000 0.000000 0.000000 0.000000 0.000000 0.000000 0.000000 0.000000
                0.126209 48.787309 0.000000 0.000000 0.726932 112.176709 0.000000 0.000000
                0.000000 0.000000 0.000000 0.000000 0.000000 0.000000 0.000000 0.000000
17400000000.000000 0.220795 -18.439322 0.000000 0.000000 0.030354 96.660259 0.000000 0.000000
                0.000000 0.000000 0.000000 0.000000 0.000000 0.000000 0.000000 0.000000
                0.126882 49.079285 0.000000 0.000000 0.725408 111.875118 0.000000 0.000000
                0.000000 0.000000 0.000000 0.000000 0.000000 0.000000 0.000000 0.000000
17450000000.000000 0.223809 -18.637798 0.000000 0.000000 0.030092 95.322957 0.000000 0.000000
                0.000000 0.000000 0.000000 0.000000 0.000000 0.000000 0.000000 0.000000
                0.122591 45.889116 0.000000 0.000000 0.722910 111.475150 0.000000 0.000000
                0.000000 0.000000 0.000000 0.000000 0.000000 0.000000 0.000000 0.000000
17500000000.000000 0.225965 -18.023636 0.000000 0.000000 0.029489 94.760476 0.000000 0.000000
                0.000000 0.000000 0.000000 0.000000 0.000000 0.000000 0.000000 0.000000
                0.128227 45.081383 0.000000 0.000000 0.721984 110.923300 0.000000 0.000000
                0.000000 0.000000 0.000000 0.000000 0.000000 0.000000 0.000000 0.000000
17550000000.000000 0.226756 -19.213399 0.000000 0.000000 0.030131 94.992086 0.000000 0.000000
                0.000000 0.000000 0.000000 0.000000 0.000000 0.000000 0.000000 0.000000
                0.129358 45.615416 0.000000 0.000000 0.720884 110.445210 0.000000 0.000000
                0.000000 0.000000 0.000000 0.000000 0.000000 0.000000 0.000000 0.000000
17600000000.000000 0.226426 -20.576411 0.000000 0.000000 0.030392 94.114563 0.000000 0.000000
                0.000000 0.000000 0.000000 0.000000 0.000000 0.000000 0.000000 0.000000
                0.121287 45.700802 0.000000 0.000000 0.720592 110.001643 0.000000 0.000000
                0.000000 0.000000 0.000000 0.000000 0.000000 0.000000 0.000000 0.000000
