#6183364!Ceyear Technologies,3672E,ZKJ00317,2.1.6
!Calibration ON : 4P/1,2,3,4
!Balanced Topology: BBAL
!Sweep Type: lin Frequency Sweep
!S4P File: Measurements: <Sdd11, Sdc11, Sdd12, Sdc12>,
!<Scd11, Scc11, Scd12, Scc12>,
!<Sdd21, Sdc21, Sdd22, Sdc22>,
!<Scd21, Scc21, Scd22, Scc22>:
!Thursday, March 14, 2024  17 : 37
# Hz  S  MA  R 50.000
15000000000.000000 1.002441 -9.365850 0.000000 0.000000 0.000018 97.581360 0.000000 0.000000
                0.000000 0.000000 0.000000 0.000000 0.000000 0.000000 0.000000 0.000000
                0.000251 -2.933440 0.000000 0.000000 0.112536 -38.792134 0.000000 0.000000
                0.000000 0.000000 0.000000 0.000000 0.000000 0.000000 0.000000 0.000000
15050000000.000000 1.002440 -9.340513 0.000000 0.000000 0.000012 88.256718 0.000000 0.000000
                0.000000 0.000000 0.000000 0.000000 0.000000 0.000000 0.000000 0.000000
                0.000280 -11.446167 0.000000 0.000000 0.112068 -38.213209 0.000000 0.000000
                0.000000 0.000000 0.000000 0.000000 0.000000 0.000000 0.000000 0.000000
15100000000.000000 1.002660 -9.402944 0.000000 0.000000 0.000012 80.695638 0.000000 0.000000
                0.000000 0.000000 0.000000 0.000000 0.000000 0.000000 0.000000 0.000000
                0.000273 -13.956908 0.000000 0.000000 0.112752 -39.780518 0.000000 0.000000
                0.000000 0.000000 0.000000 0.000000 0.000000 0.000000 0.000000 0.000000
15150000000.000000 1.002235 -9.418505 0.000000 0.000000 0.000010 83.013632 0.000000 0.000000
                0.000000 0.000000 0.000000 0.000000 0.000000 0.000000 0.000000 0.000000
                0.000296 -15.533603 0.000000 0.000000 0.113075 -40.351325 0.000000 0.000000
                0.000000 0.000000 0.000000 0.000000 0.000000 0.000000 0.000000 0.000000
15200000000.000000 1.002526 -9.367241 0.000000 0.000000 0.000020 72.761416 0.000000 0.000000
                0.000000 0.000000 0.000000 0.000000 0.000000 0.000000 0.000000 0.000000
                0.000274 -30.838348 0.000000 0.000000 0.114391 -40.094169 0.000000 0.000000
                0.000000 0.000000 0.000000 0.000000 0.000000 0.000000 0.000000 0.000000
15250000000.000000 1.002798 -9.452031 0.000000 0.000000 0.000023 64.692257 0.000000 0.000000
                0.000000 0.000000 0.000000 0.000000 0.000000 0.000000 0.000000 0.000000
                0.000297 -28.039839 0.000000 0.000000 0.113395 -40.927346 0.000000 0.000000
                0.000000 0.000000 0.000000 0.000000 0.000000 0.000000 0.000000 0.000000
15300000000.000000 1.002467 -9.475097 0.000000 0.000000 0.000028 40.913421 0.000000 0.000000
                0.000000 0.000000 0.000000 0.000000 0.000000 0.000000 0.000000 0.000000
                0.000254 -25.776515 0.000000 0.000000 0.115259 -39.994538 0.000000 0.000000
                0.000000 0.000000 0.000000 0.000000 0.000000 0.000000 0.000000 0.000000
15350000000.000000 1.002094 -9.468778 0.000000 0.000000 0.000030 11.331229 0.000000 0.000000
                0.000000 0.000000 0.000000 0.000000 0.000000 0.000000 0.000000 0.000000
                0.000225 -32.607707 0.000000 0.000000 0.114712 -39.070524 0.000000 0.000000
                0.000000 0.000000 0.000000 0.000000 0.000000 0.000000 0.000000 0.000000
15400000000.000000 1.002226 -9.542137 0.000000 0.000000 0.000032 3.684910 0.000000 0.000000
                0.000000 0.000000 0.000000 0.000000 0.000000 0.000000 0.000000 0.000000
                0.000232 -30.884392 0.000000 0.000000 0.113885 -38.987785 0.000000 0.000000
                0.000000 0.000000 0.000000 0.000000 0.000000 0.000000 0.000000 0.000000
15450000000.000000 1.001960 -9.570571 0.000000 0.000000 0.000037 -9.443918 0.000000 0.000000
                0.000000 0.000000 0.000000 0.000000 0.000000 0.000000 0.000000 0.000000
                0.000235 -32.725036 0.000000 0.000000 0.115069 -39.152861 0.000000 0.000000
                0.000000 0.000000 0.000000 0.000000 0.000000 0.000000 0.000000 0.000000
15500000000.000000 1.001550 -9.558145 0.000000 0.000000 0.000032 -5.561417 0.000000 0.000000
                0.000000 0.000000 0.000000 0.000000 0.000000 0.000000 0.000000 0.000000
                0.000224 -35.991003 0.000000 0.000000 0.114755 -40.466896 0.000000 0.000000
                0.000000 0.000000 0.000000 0.000000 0.000000 0.000000 0.000000 0.000000
15550000000.000000 1.002215 -9.623187 0.000000 0.000000 0.000045 -13.582789 0.000000 0.000000
                0.000000 0.000000 0.000000 0.000000 0.000000 0.000000 0.000000 0.000000
                0.000241 -30.177504 0.000000 0.000000 0.115103 -40.021432 0.000000 0.000000
                0.000000 0.000000 0.000000 0.000000 0.000000 0.000000 0.000000 0.000000
15600000000.000000 1.002141 -9.642547 0.000000 0.000000 0.000045 -25.701687 0.000000 0.000000
                0.000000 0.000000 0.000000 0.000000 0.000000 0.000000 0.000000 0.000000
                0.000254 -33.815433 0.000000 0.000000 0.118181 -41.098267 0.000000 0.000000
                0.000000 0.000000 0.000000 0.000000 0.000000 0.000000 0.000000 0.000000
15650000000.000000 1.001932 -9.625755 0.000000 0.000000 0.000050 -38.245015 0.000000 0.000000
                0.000000 0.000000 0.000000 0.000000 0.000000 0.000000 0.000000 0.000000
                0.000270 -38.009526 0.000000 0.000000 0.115555 -39.868652 0.000000 0.000000
                0.000000 0.000000 0.000000 0.000000 0.000000 0.000000 0.000000 0.000000
15700000000.000000 1.002414 -9.669593 0.000000 0.000000 0.000054 -41.012741 0.000000 0.000000
                0.000000 0.000000 0.000000 0.000000 0.000000 0.000000 0.000000 0.000000
                0.000312 -48.095942 0.000000 0.000000 0.115893 -38.481503 0.000000 0.000000
                0.000000 0.000000 0.000000 0.000000 0.000000 0.000000 0.000000 0.000000
15750000000.000000 1.002588 -9.694122 0.000000 0.000000 0.000060 -52.164842 0.000000 0.000000
                0.000000 0.000000 0.000000 0.000000 0.000000 0.000000 0.000000 0.000000
                0.000278 -46.748595 0.000000 0.000000 0.116472 -40.113100 0.000000 0.000000
                0.000000 0.000000 0.000000 0.000000 0.000000 0.000000 0.000000 0.000000
15800000000.000000 1.002132 -9.715503 0.000000 0.000000 0.000055 -53.073942 0.000000 0.000000
                0.000000 0.000000 0.000000 0.000000 0.000000 0.000000 0.000000 0.000000
                0.000255 -59.018547 0.000000 0.000000 0.115728 -38.680545 0.000000 0.000000
                0.000000 0.000000 0.000000 0.000000 0.000000 0.000000 0.000000 0.000000
15850000000.000000 1.002338 -9.721518 0.000000 0.000000 0.000064 -64.047021 0.000000 0.000000
                0.000000 0.000000 0.000000 0.000000 0.000000 0.000000 0.000000 0.000000
                0.000245 -61.645778 0.000000 0.000000 0.116147 -38.511993 0.000000 0.000000
                0.000000 0.000000 0.000000 0.000000 0.000000 0.000000 0.000000 0.000000
15900000000.000000 1.002512 -9.777852 0.000000 0.000000 0.000060 -78.685764 0.000000 0.000000
                0.000000 0.000000 0.000000 0.000000 0.000000 0.000000 0.000000 0.000000
                0.000240 -49.081181 0.000000 0.000000 0.118101 -40.970327 0.000000 0.000000
                0.000000 0.000000 0.000000 0.000000 0.000000 0.000000 0.000000 0.000000
15950000000.000000 1.001826 -9.781035 0.000000 0.000000 0.000061 -76.518978 0.000000 0.000000
                0.000000 0.000000 0.000000 0.000000 0.000000 0.000000 0.000000 0.000000
                0.000186 -59.459370 0.000000 0.000000 0.118882 -39.730533 0.000000 0.000000
                0.000000 0.000000 0.000000 0.000000 0.000000 0.000000 0.000000 0.000000
16000000000.000000 1.001869 -9.759782 0.000000 0.000000 0.000059 -78.428842 0.000000 0.000000
                0.000000 0.000000 0.000000 0.000000 0.000000 0.000000 0.000000 0.000000
                0.000182 -58.938024 0.000000 0.000000 0.120236 -39.795722 0.000000 0.000000
                0.000000 0.000000 0.000000 0.000000 0.000000 0.000000 0.000000 0.000000
16050000000.000000 1.002151 -9.854885 0.000000 0.000000 0.000059 -94.381970 0.000000 0.000000
                0.000000 0.000000 0.000000 0.000000 0.000000 0.000000 0.000000 0.000000
                0.000219 -41.137469 0.000000 0.000000 0.119454 -40.075870 0.000000 0.000000
                0.000000 0.000000 0.000000 0.000000 0.000000 0.000000 0.000000 0.000000
16100000000.000000 1.001574 -9.830126 0.000000 0.000000 0.000063 -97.542751 0.000000 0.000000
                0.000000 0.000000 0.000000 0.000000 0.000000 0.000000 0.000000 0.000000
                0.000181 -43.255894 0.000000 0.000000 0.120442 -39.022044 0.000000 0.000000
                0.000000 0.000000 0.000000 0.000000 0.000000 0.000000 0.000000 0.000000
16150000000.000000 1.001496 -9.812608 0.000000 0.000000 0.000061 -102.566417 0.000000 0.000000
                0.000000 0.000000 0.000000 0.000000 0.000000 0.000000 0.000000 0.000000
                0.000187 -48.441881 0.000000 0.000000 0.119550 -38.648861 0.000000 0.000000
                0.000000 0.000000 0.000000 0.000000 0.000000 0.000000 0.000000 0.000000
16200000000.000000 1.001646 -9.894147 0.000000 0.000000 0.000058 -107.783874 0.000000 0.000000
                0.000000 0.000000 0.000000 0.000000 0.000000 0.000000 0.000000 0.000000
                0.000229 -46.127089 0.000000 0.000000 0.118968 -38.491481 0.000000 0.000000
                0.000000 0.000000 0.000000 0.000000 0.000000 0.000000 0.000000 0.000000
16250000000.000000 1.000912 -9.866958 0.000000 0.000000 0.000052 -111.910902 0.000000 0.000000
                0.000000 0.000000 0.000000 0.000000 0.000000 0.000000 0.000000 0.000000
                0.000222 -44.612069 0.000000 0.000000 0.120721 -38.913525 0.000000 0.000000
                0.000000 0.000000 0.000000 0.000000 0.000000 0.000000 0.000000 0.000000
16300000000.000000 1.001047 -9.858739 0.000000 0.000000 0.000049 -111.453238 0.000000 0.000000
                0.000000 0.000000 0.000000 0.000000 0.000000 0.000000 0.000000 0.000000
                0.000232 -43.880377 0.000000 0.000000 0.119412 -38.653795 0.000000 0.000000
                0.000000 0.000000 0.000000 0.000000 0.000000 0.000000 0.000000 0.000000
16350000000.000000 1.001531 -9.915717 0.000000 0.000000 0.000040 -116.915040 0.000000 0.000000
                0.000000 0.000000 0.000000 0.000000 0.000000 0.000000 0.000000 0.000000
                0.000242 -45.973339 0.000000 0.000000 0.121744 -39.040814 0.000000 0.000000
                0.000000 0.000000 0.000000 0.000000 0.000000 0.000000 0.000000 0.000000
16400000000.000000 1.000597 -9.912182 0.000000 0.000000 0.000062 -107.302747 0.000000 0.000000
                0.000000 0.000000 0.000000 0.000000 0.000000 0.000000 0.000000 0.000000
                0.000204 -46.008801 0.000000 0.000000 0.122748 -39.582961 0.000000 0.000000
                0.000000 0.000000 0.000000 0.000000 0.000000 0.000000 0.000000 0.000000
16450000000.000000 1.000613 -9.877212 0.000000 0.000000 0.000083 -105.428014 0.000000 0.000000
                0.000000 0.000000 0.000000 0.000000 0.000000 0.000000 0.000000 0.000000
                0.000196 -40.793989 0.000000 0.000000 0.121452 -37.512065 0.000000 0.000000
                0.000000 0.000000 0.000000 0.000000 0.000000 0.000000 0.000000 0.000000
16500000000.000000 1.000928 -9.909716 0.000000 0.000000 0.000086 -109.342107 0.000000 0.000000
                0.000000 0.000000 0.000000 0.000000 0.000000 0.000000 0.000000 0.000000
                0.000214 -36.806174 0.000000 0.000000 0.122787 -37.297586 0.000000 0.000000
                0.000000 0.000000 0.000000 0.000000 0.000000 0.000000 0.000000 0.000000
16550000000.000000 0.999910 -9.914395 0.000000 0.000000 0.000094 -115.984580 0.000000 0.000000
                0.000000 0.000000 0.000000 0.000000 0.000000 0.000000 0.000000 0.000000
                0.000195 -37.942647 0.000000 0.000000 0.121790 -37.755076 0.000000 0.000000
                0.000000 0.000000 0.000000 0.000000 0.000000 0.000000 0.000000 0.000000
16600000000.000000 1.000318 -9.865290 0.000000 0.000000 0.000090 -118.238890 0.000000 0.000000
                0.000000 0.000000 0.000000 0.000000 0.000000 0.000000 0.000000 0.000000
                0.000185 -42.428245 0.000000 0.000000 0.121082 -36.564845 0.000000 0.000000
                0.000000 0.000000 0.000000 0.000000 0.000000 0.000000 0.000000 0.000000
16650000000.000000 1.000709 -9.855572 0.000000 0.000000 0.000107 -120.774571 0.000000 0.000000
                0.000000 0.000000 0.000000 0.000000 0.000000 0.000000 0.000000 0.000000
                0.000229 -29.128316 0.000000 0.000000 0.122627 -37.191272 0.000000 0.000000
                0.000000 0.000000 0.000000 0.000000 0.000000 0.000000 0.000000 0.000000
16700000000.000000 1.000393 -9.862573 0.000000 0.000000 0.000106 -126.634258 0.000000 0.000000
                0.000000 0.000000 0.000000 0.000000 0.000000 0.000000 0.000000 0.000000
                0.000235 -34.591558 0.000000 0.000000 0.121433 -37.879539 0.000000 0.000000
                0.000000 0.000000 0.000000 0.000000 0.000000 0.000000 0.000000 0.000000
16750000000.000000 0.999754 -9.813753 0.000000 0.000000 0.000071 -123.971777 0.000000 0.000000
                0.000000 0.000000 0.000000 0.000000 0.000000 0.000000 0.000000 0.000000
                0.000257 -42.834528 0.000000 0.000000 0.122995 -36.998317 0.000000 0.000000
                0.000000 0.000000 0.000000 0.000000 0.000000 0.000000 0.000000 0.000000
16800000000.000000 1.000020 -9.797474 0.000000 0.000000 0.000055 -112.616751 0.000000 0.000000
                0.000000 0.000000 0.000000 0.000000 0.000000 0.000000 0.000000 0.000000
                0.000318 -54.429064 0.000000 0.000000 0.122692 -37.066072 0.000000 0.000000
                0.000000 0.000000 0.000000 0.000000 0.000000 0.000000 0.000000 0.000000
16850000000.000000 0.999914 -9.820053 0.000000 0.000000 0.000062 -114.864049 0.000000 0.000000
                0.000000 0.000000 0.000000 0.000000 0.000000 0.000000 0.000000 0.000000
                0.000360 -64.386967 0.000000 0.000000 0.122259 -35.415881 0.000000 0.000000
                0.000000 0.000000 0.000000 0.000000 0.000000 0.000000 0.000000 0.000000
16900000000.000000 0.999365 -9.792114 0.000000 0.000000 0.000054 -110.381197 0.000000 0.000000
                0.000000 0.000000 0.000000 0.000000 0.000000 0.000000 0.000000 0.000000
                0.000291 -73.498197 0.000000 0.000000 0.122855 -34.682822 0.000000 0.000000
                0.000000 0.000000 0.000000 0.000000 0.000000 0.000000 0.000000 0.000000
16950000000.000000 0.999682 -9.767305 0.000000 0.000000 0.000051 -115.183279 0.000000 0.000000
                0.000000 0.000000 0.000000 0.000000 0.000000 0.000000 0.000000 0.000000
                0.000301 -69.487222 0.000000 0.000000 0.121476 -34.972976 0.000000 0.000000
                0.000000 0.000000 0.000000 0.000000 0.000000 0.000000 0.000000 0.000000
17000000000.000000 0.999731 -9.732932 0.000000 0.000000 0.000052 -98.704557 0.000000 0.000000
                0.000000 0.000000 0.000000 0.000000 0.000000 0.000000 0.000000 0.000000
                0.000283 -76.842854 0.000000 0.000000 0.122941 -34.033966 0.000000 0.000000
                0.000000 0.000000 0.000000 0.000000 0.000000 0.000000 0.000000 0.000000
17050000000.000000 0.999093 -9.754226 0.000000 0.000000 0.000062 -102.225691 0.000000 0.000000
                0.000000 0.000000 0.000000 0.000000 0.000000 0.000000 0.000000 0.000000
                0.000232 -77.652061 0.000000 0.000000 0.124009 -35.047002 0.000000 0.000000
                0.000000 0.000000 0.000000 0.000000 0.000000 0.000000 0.000000 0.000000
17100000000.000000 0.998930 -9.726056 0.000000 0.000000 0.000058 -112.650183 0.000000 0.000000
                0.000000 0.000000 0.000000 0.000000 0.000000 0.000000 0.000000 0.000000
                0.000235 -77.663158 0.000000 0.000000 0.121931 -35.182395 0.000000 0.000000
                0.000000 0.000000 0.000000 0.000000 0.000000 0.000000 0.000000 0.000000
17150000000.000000 0.999609 -9.710442 0.000000 0.000000 0.000063 -109.528262 0.000000 0.000000
                0.000000 0.000000 0.000000 0.000000 0.000000 0.000000 0.000000 0.000000
                0.000230 -75.216393 0.000000 0.000000 0.124953 -34.830327 0.000000 0.000000
                0.000000 0.000000 0.000000 0.000000 0.000000 0.000000 0.000000 0.000000
17200000000.000000 0.998963 -9.716325 0.000000 0.000000 0.000052 -111.670483 0.000000 0.000000
                0.000000 0.000000 0.000000 0.000000 0.000000 0.000000 0.000000 0.000000
                0.000206 -79.185122 0.000000 0.000000 0.124395 -35.748698 0.000000 0.000000
                0.000000 0.000000 0.000000 0.000000 0.000000 0.000000 0.000000 0.000000
17250000000.000000 0.998861 -9.672996 0.000000 0.000000 0.000068 -108.555503 0.000000 0.000000
                0.000000 0.000000 0.000000 0.000000 0.000000 0.000000 0.000000 0.000000
                0.000197 -63.237823 0.000000 0.000000 0.123196 -33.439108 0.000000 0.000000
                0.000000 0.000000 0.000000 0.000000 0.000000 0.000000 0.000000 0.000000
17300000000.000000 0.998757 -9.675142 0.000000 0.000000 0.000063 -108.996494 0.000000 0.000000
                0.000000 0.000000 0.000000 0.000000 0.000000 0.000000 0.000000 0.000000
                0.000196 -71.602909 0.000000 0.000000 0.124696 -33.945849 0.000000 0.000000
                0.000000 0.000000 0.000000 0.000000 0.000000 0.000000 0.000000 0.000000
17350000000.000000 0.998290 -9.726474 0.000000 0.000000 0.000062 -106.288861 0.000000 0.000000
                0.000000 0.000000 0.000000 0.000000 0.000000 0.000000 0.000000 0.000000
                0.000182 -50.952133 0.000000 0.000000 0.124236 -34.676079 0.000000 0.000000
                0.000000 0.000000 0.000000 0.000000 0.000000 0.000000 0.000000 0.000000
17400000000.000000 0.997897 -9.701895 0.000000 0.000000 0.000056 -108.518730 0.000000 0.000000
                0.000000 0.000000 0.000000 0.000000 0.000000 0.000000 0.000000 0.000000
                0.000208 -56.123915 0.000000 0.000000 0.124495 -33.697534 0.000000 0.000000
                0.000000 0.000000 0.000000 0.000000 0.000000 0.000000 0.000000 0.000000
17450000000.000000 0.998105 -9.754347 0.000000 0.000000 0.000075 -108.220468 0.000000 0.000000
                0.000000 0.000000 0.000000 0.000000 0.000000 0.000000 0.000000 0.000000
                0.000233 -55.522274 0.000000 0.000000 0.125635 -35.446316 0.000000 0.000000
                0.000000 0.000000 0.000000 0.000000 0.000000 0.000000 0.000000 0.000000
17500000000.000000 0.997861 -9.788612 0.000000 0.000000 0.000070 -110.197416 0.000000 0.000000
                0.000000 0.000000 0.000000 0.000000 0.000000 0.000000 0.000000 0.000000
                0.000243 -54.488392 0.000000 0.000000 0.126452 -35.939984 0.000000 0.000000
                0.000000 0.000000 0.000000 0.000000 0.000000 0.000000 0.000000 0.000000
17550000000.000000 0.997800 -9.792335 0.000000 0.000000 0.000077 -109.739423 0.000000 0.000000
                0.000000 0.000000 0.000000 0.000000 0.000000 0.000000 0.000000 0.000000
                0.000225 -61.970400 0.000000 0.000000 0.128504 -36.198170 0.000000 0.000000
                0.000000 0.000000 0.000000 0.000000 0.000000 0.000000 0.000000 0.000000
17600000000.000000 0.997767 -9.865962 0.000000 0.000000 0.000085 -112.043956 0.000000 0.000000
                0.000000 0.000000 0.000000 0.000000 0.000000 0.000000 0.000000 0.000000
                0.000267 -57.817781 0.000000 0.000000 0.127732 -35.926542 0.000000 0.000000
                0.000000 0.000000 0.000000 0.000000 0.000000 0.000000 0.000000 0.000000
