#6183614!Ceyear Technologies,3672E,ZKJ00317,2.1.6
!Calibration ON : 4P/1,2,3,4
!Balanced Topology: BBAL
!Sweep Type: lin Frequency Sweep
!S4P File: Measurements: <Sdd11, Sdc11, Sdd12, Sdc12>,
!<Scd11, Scc11, Scd12, Scc12>,
!<Sdd21, Sdc21, Sdd22, Sdc22>,
!<Scd21, Scc21, Scd22, Scc22>:
!Thursday, March 14, 2024  17 : 37
# Hz  S  MA  R 50.000
15000000000.000000 0.398333 15.091033 0.000000 0.000000 0.164952 67.294653 0.000000 0.000000
                0.000000 0.000000 0.000000 0.000000 0.000000 0.000000 0.000000 0.000000
                0.165186 67.818291 0.000000 0.000000 0.597296 102.267326 0.000000 0.000000
                0.000000 0.000000 0.000000 0.000000 0.000000 0.000000 0.000000 0.000000
15050000000.000000 0.398583 14.587340 0.000000 0.000000 0.166075 67.012239 0.000000 0.000000
                0.000000 0.000000 0.000000 0.000000 0.000000 0.000000 0.000000 0.000000
                0.164447 67.079267 0.000000 0.000000 0.594869 101.748756 0.000000 0.000000
                0.000000 0.000000 0.000000 0.000000 0.000000 0.000000 0.000000 0.000000
15100000000.000000 0.399612 13.898159 0.000000 0.000000 0.165916 66.456157 0.000000 0.000000
                0.000000 0.000000 0.000000 0.000000 0.000000 0.000000 0.000000 0.000000
                0.164950 66.736034 0.000000 0.000000 0.592363 101.227705 0.000000 0.000000
                0.000000 0.000000 0.000000 0.000000 0.000000 0.000000 0.000000 0.000000
15150000000.000000 0.398837 13.414708 0.000000 0.000000 0.165326 65.856357 0.000000 0.000000
                0.000000 0.000000 0.000000 0.000000 0.000000 0.000000 0.000000 0.000000
                0.165755 66.528595 0.000000 0.000000 0.590338 100.772467 0.000000 0.000000
                0.000000 0.000000 0.000000 0.000000 0.000000 0.000000 0.000000 0.000000
15200000000.000000 0.399543 12.991536 0.000000 0.000000 0.165524 65.412199 0.000000 0.000000
                0.000000 0.000000 0.000000 0.000000 0.000000 0.000000 0.000000 0.000000
                0.165907 66.069116 0.000000 0.000000 0.587592 100.189464 0.000000 0.000000
                0.000000 0.000000 0.000000 0.000000 0.000000 0.000000 0.000000 0.000000
15250000000.000000 0.399909 12.349036 0.000000 0.000000 0.165857 64.999669 0.000000 0.000000
                0.000000 0.000000 0.000000 0.000000 0.000000 0.000000 0.000000 0.000000
                0.166199 65.607361 0.000000 0.000000 0.584991 99.601227 0.000000 0.000000
                0.000000 0.000000 0.000000 0.000000 0.000000 0.000000 0.000000 0.000000
15300000000.000000 0.399227 11.902244 0.000000 0.000000 0.166026 64.617493 0.000000 0.000000
                0.000000 0.000000 0.000000 0.000000 0.000000 0.000000 0.000000 0.000000
                0.166455 65.172237 0.000000 0.000000 0.582682 98.969370 0.000000 0.000000
                0.000000 0.000000 0.000000 0.000000 0.000000 0.000000 0.000000 0.000000
15350000000.000000 0.399449 11.340534 0.000000 0.000000 0.166056 64.138716 0.000000 0.000000
                0.000000 0.000000 0.000000 0.000000 0.000000 0.000000 0.000000 0.000000
                0.166446 64.736404 0.000000 0.000000 0.581302 98.446203 0.000000 0.000000
                0.000000 0.000000 0.000000 0.000000 0.000000 0.000000 0.000000 0.000000
15400000000.000000 0.400251 10.666779 0.000000 0.000000 0.166313 63.679439 0.000000 0.000000
                0.000000 0.000000 0.000000 0.000000 0.000000 0.000000 0.000000 0.000000
                0.166699 64.265052 0.000000 0.000000 0.580191 97.965894 0.000000 0.000000
                0.000000 0.000000 0.000000 0.000000 0.000000 0.000000 0.000000 0.000000
15450000000.000000 0.400409 10.110454 0.000000 0.000000 0.166551 63.295095 0.000000 0.000000
                0.000000 0.000000 0.000000 0.000000 0.000000 0.000000 0.000000 0.000000
                0.167056 63.837210 0.000000 0.000000 0.578840 97.543369 0.000000 0.000000
                0.000000 0.000000 0.000000 0.000000 0.000000 0.000000 0.000000 0.000000
15500000000.000000 0.400232 9.604805 0.000000 0.000000 0.166543 62.816211 0.000000 0.000000
                0.000000 0.000000 0.000000 0.000000 0.000000 0.000000 0.000000 0.000000
                0.167170 63.397641 0.000000 0.000000 0.575543 97.107153 0.000000 0.000000
                0.000000 0.000000 0.000000 0.000000 0.000000 0.000000 0.000000 0.000000
15550000000.000000 0.402120 8.975460 0.000000 0.000000 0.166548 62.379435 0.000000 0.000000
                0.000000 0.000000 0.000000 0.000000 0.000000 0.000000 0.000000 0.000000
                0.167242 62.956309 0.000000 0.000000 0.573848 96.370466 0.000000 0.000000
                0.000000 0.000000 0.000000 0.000000 0.000000 0.000000 0.000000 0.000000
15600000000.000000 0.401947 8.480890 0.000000 0.000000 0.166825 62.065969 0.000000 0.000000
                0.000000 0.000000 0.000000 0.000000 0.000000 0.000000 0.000000 0.000000
                0.167720 62.540213 0.000000 0.000000 0.571584 95.746908 0.000000 0.000000
                0.000000 0.000000 0.000000 0.000000 0.000000 0.000000 0.000000 0.000000
15650000000.000000 0.401656 7.963845 0.000000 0.000000 0.166880 61.566899 0.000000 0.000000
                0.000000 0.000000 0.000000 0.000000 0.000000 0.000000 0.000000 0.000000
                0.167825 62.057270 0.000000 0.000000 0.569380 95.173575 0.000000 0.000000
                0.000000 0.000000 0.000000 0.000000 0.000000 0.000000 0.000000 0.000000
15700000000.000000 0.403033 7.395907 0.000000 0.000000 0.167081 61.142598 0.000000 0.000000
                0.000000 0.000000 0.000000 0.000000 0.000000 0.000000 0.000000 0.000000
                0.167914 61.606158 0.000000 0.000000 0.567875 94.433907 0.000000 0.000000
                0.000000 0.000000 0.000000 0.000000 0.000000 0.000000 0.000000 0.000000
15750000000.000000 0.403221 6.953864 0.000000 0.000000 0.167479 60.799124 0.000000 0.000000
                0.000000 0.000000 0.000000 0.000000 0.000000 0.000000 0.000000 0.000000
                0.168330 61.176349 0.000000 0.000000 0.566538 93.923050 0.000000 0.000000
                0.000000 0.000000 0.000000 0.000000 0.000000 0.000000 0.000000 0.000000
15800000000.000000 0.402407 6.449826 0.000000 0.000000 0.167479 60.258074 0.000000 0.000000
                0.000000 0.000000 0.000000 0.000000 0.000000 0.000000 0.000000 0.000000
                0.168481 60.746495 0.000000 0.000000 0.565412 93.450178 0.000000 0.000000
                0.000000 0.000000 0.000000 0.000000 0.000000 0.000000 0.000000 0.000000
15850000000.000000 0.403792 5.911935 0.000000 0.000000 0.167728 59.842199 0.000000 0.000000
                0.000000 0.000000 0.000000 0.000000 0.000000 0.000000 0.000000 0.000000
                0.168644 60.317283 0.000000 0.000000 0.562369 92.950924 0.000000 0.000000
                0.000000 0.000000 0.000000 0.000000 0.000000 0.000000 0.000000 0.000000
15900000000.000000 0.404251 5.403306 0.000000 0.000000 0.167952 59.443910 0.000000 0.000000
                0.000000 0.000000 0.000000 0.000000 0.000000 0.000000 0.000000 0.000000
                0.169144 59.856482 0.000000 0.000000 0.560141 92.208119 0.000000 0.000000
                0.000000 0.000000 0.000000 0.000000 0.000000 0.000000 0.000000 0.000000
15950000000.000000 0.403590 4.913147 0.000000 0.000000 0.168021 59.009486 0.000000 0.000000
                0.000000 0.000000 0.000000 0.000000 0.000000 0.000000 0.000000 0.000000
                0.169434 59.438589 0.000000 0.000000 0.558430 91.569540 0.000000 0.000000
                0.000000 0.000000 0.000000 0.000000 0.000000 0.000000 0.000000 0.000000
16000000000.000000 0.404546 4.462677 0.000000 0.000000 0.168394 58.572255 0.000000 0.000000
                0.000000 0.000000 0.000000 0.000000 0.000000 0.000000 0.000000 0.000000
                0.169553 58.999322 0.000000 0.000000 0.555881 90.933327 0.000000 0.000000
                0.000000 0.000000 0.000000 0.000000 0.000000 0.000000 0.000000 0.000000
16050000000.000000 0.406423 3.876302 0.000000 0.000000 0.168794 58.176890 0.000000 0.000000
                0.000000 0.000000 0.000000 0.000000 0.000000 0.000000 0.000000 0.000000
                0.169852 58.573545 0.000000 0.000000 0.555297 90.103279 0.000000 0.000000
                0.000000 0.000000 0.000000 0.000000 0.000000 0.000000 0.000000 0.000000
16100000000.000000 0.405221 3.433977 0.000000 0.000000 0.168897 57.748079 0.000000 0.000000
                0.000000 0.000000 0.000000 0.000000 0.000000 0.000000 0.000000 0.000000
                0.170160 58.176385 0.000000 0.000000 0.553322 89.558032 0.000000 0.000000
                0.000000 0.000000 0.000000 0.000000 0.000000 0.000000 0.000000 0.000000
16150000000.000000 0.405633 3.108417 0.000000 0.000000 0.168921 57.229792 0.000000 0.000000
                0.000000 0.000000 0.000000 0.000000 0.000000 0.000000 0.000000 0.000000
                0.170228 57.624090 0.000000 0.000000 0.552258 88.933773 0.000000 0.000000
                0.000000 0.000000 0.000000 0.000000 0.000000 0.000000 0.000000 0.000000
16200000000.000000 0.407257 2.565755 0.000000 0.000000 0.169142 56.736633 0.000000 0.000000
                0.000000 0.000000 0.000000 0.000000 0.000000 0.000000 0.000000 0.000000
                0.170307 57.110722 0.000000 0.000000 0.550784 88.248303 0.000000 0.000000
                0.000000 0.000000 0.000000 0.000000 0.000000 0.000000 0.000000 0.000000
16250000000.000000 0.406616 2.151596 0.000000 0.000000 0.169371 56.317659 0.000000 0.000000
                0.000000 0.000000 0.000000 0.000000 0.000000 0.000000 0.000000 0.000000
                0.170723 56.708653 0.000000 0.000000 0.547729 87.626669 0.000000 0.000000
                0.000000 0.000000 0.000000 0.000000 0.000000 0.000000 0.000000 0.000000
16300000000.000000 0.407373 1.746768 0.000000 0.000000 0.169181 55.878132 0.000000 0.000000
                0.000000 0.000000 0.000000 0.000000 0.000000 0.000000 0.000000 0.000000
                0.170737 56.329657 0.000000 0.000000 0.545885 86.981110 0.000000 0.000000
                0.000000 0.000000 0.000000 0.000000 0.000000 0.000000 0.000000 0.000000
16350000000.000000 0.409848 1.186511 0.000000 0.000000 0.169601 55.537961 0.000000 0.000000
                0.000000 0.000000 0.000000 0.000000 0.000000 0.000000 0.000000 0.000000
                0.170881 55.915745 0.000000 0.000000 0.543147 86.213923 0.000000 0.000000
                0.000000 0.000000 0.000000 0.000000 0.000000 0.000000 0.000000 0.000000
16400000000.000000 0.409139 0.642104 0.000000 0.000000 0.182684 58.239920 0.000000 0.000000
                0.000000 0.000000 0.000000 0.000000 0.000000 0.000000 0.000000 0.000000
                0.160388 52.300406 0.000000 0.000000 0.541382 85.491188 0.000000 0.000000
                0.000000 0.000000 0.000000 0.000000 0.000000 0.000000 0.000000 0.000000
16450000000.000000 0.409114 0.270599 0.000000 0.000000 0.195646 61.126922 0.000000 0.000000
                0.000000 0.000000 0.000000 0.000000 0.000000 0.000000 0.000000 0.000000
                0.152919 48.641960 0.000000 0.000000 0.539043 84.993466 0.000000 0.000000
                0.000000 0.000000 0.000000 0.000000 0.000000 0.000000 0.000000 0.000000
16500000000.000000 0.410960 -0.151415 0.000000 0.000000 0.205088 61.053199 0.000000 0.000000
                0.000000 0.000000 0.000000 0.000000 0.000000 0.000000 0.000000 0.000000
                0.148324 47.382458 0.000000 0.000000 0.537082 84.219788 0.000000 0.000000
                0.000000 0.000000 0.000000 0.000000 0.000000 0.000000 0.000000 0.000000
16550000000.000000 0.410987 -0.704601 0.000000 0.000000 0.207366 61.222047 0.000000 0.000000
                0.000000 0.000000 0.000000 0.000000 0.000000 0.000000 0.000000 0.000000
                0.147968 46.294626 0.000000 0.000000 0.536434 83.595355 0.000000 0.000000
                0.000000 0.000000 0.000000 0.000000 0.000000 0.000000 0.000000 0.000000
16600000000.000000 0.412272 -1.106610 0.000000 0.000000 0.206379 60.828479 0.000000 0.000000
                0.000000 0.000000 0.000000 0.000000 0.000000 0.000000 0.000000 0.000000
                0.148862 45.918828 0.000000 0.000000 0.534402 83.114423 0.000000 0.000000
                0.000000 0.000000 0.000000 0.000000 0.000000 0.000000 0.000000 0.000000
16650000000.000000 0.411797 -1.446273 0.000000 0.000000 0.219963 61.515773 0.000000 0.000000
                0.000000 0.000000 0.000000 0.000000 0.000000 0.000000 0.000000 0.000000
                0.143731 43.823677 0.000000 0.000000 0.532240 82.551802 0.000000 0.000000
                0.000000 0.000000 0.000000 0.000000 0.000000 0.000000 0.000000 0.000000
16700000000.000000 0.412267 -2.013310 0.000000 0.000000 0.220479 62.513196 0.000000 0.000000
                0.000000 0.000000 0.000000 0.000000 0.000000 0.000000 0.000000 0.000000
                0.144750 42.331756 0.000000 0.000000 0.529524 81.850686 0.000000 0.000000
                0.000000 0.000000 0.000000 0.000000 0.000000 0.000000 0.000000 0.000000
16750000000.000000 0.412878 -2.526934 0.000000 0.000000 0.193300 58.326698 0.000000 0.000000
                0.000000 0.000000 0.000000 0.000000 0.000000 0.000000 0.000000 0.000000
                0.156608 46.395135 0.000000 0.000000 0.528452 81.109406 0.000000 0.000000
                0.000000 0.000000 0.000000 0.000000 0.000000 0.000000 0.000000 0.000000
16800000000.000000 0.413115 -2.891209 0.000000 0.000000 0.177900 53.579073 0.000000 0.000000
                0.000000 0.000000 0.000000 0.000000 0.000000 0.000000 0.000000 0.000000
                0.167151 50.324300 0.000000 0.000000 0.526508 80.521480 0.000000 0.000000
                0.000000 0.000000 0.000000 0.000000 0.000000 0.000000 0.000000 0.000000
16850000000.000000 0.414334 -3.304474 0.000000 0.000000 0.174489 52.084612 0.000000 0.000000
                0.000000 0.000000 0.000000 0.000000 0.000000 0.000000 0.000000 0.000000
                0.170399 50.829034 0.000000 0.000000 0.524468 79.770786 0.000000 0.000000
                0.000000 0.000000 0.000000 0.000000 0.000000 0.000000 0.000000 0.000000
16900000000.000000 0.414331 -3.756815 0.000000 0.000000 0.173829 51.254613 0.000000 0.000000
                0.000000 0.000000 0.000000 0.000000 0.000000 0.000000 0.000000 0.000000
                0.171532 50.829476 0.000000 0.000000 0.523332 79.183480 0.000000 0.000000
                0.000000 0.000000 0.000000 0.000000 0.000000 0.000000 0.000000 0.000000
16950000000.000000 0.413901 -4.136626 0.000000 0.000000 0.173541 50.735234 0.000000 0.000000
                0.000000 0.000000 0.000000 0.000000 0.000000 0.000000 0.000000 0.000000
                0.172336 50.648516 0.000000 0.000000 0.521681 78.750561 0.000000 0.000000
                0.000000 0.000000 0.000000 0.000000 0.000000 0.000000 0.000000 0.000000
17000000000.000000 0.414462 -4.447758 0.000000 0.000000 0.172920 50.026215 0.000000 0.000000
                0.000000 0.000000 0.000000 0.000000 0.000000 0.000000 0.000000 0.000000
                0.173402 50.408127 0.000000 0.000000 0.520616 78.191743 0.000000 0.000000
                0.000000 0.000000 0.000000 0.000000 0.000000 0.000000 0.000000 0.000000
17050000000.000000 0.414604 -5.027523 0.000000 0.000000 0.173159 49.574196 0.000000 0.000000
                0.000000 0.000000 0.000000 0.000000 0.000000 0.000000 0.000000 0.000000
                0.173866 50.102597 0.000000 0.000000 0.517455 77.705151 0.000000 0.000000
                0.000000 0.000000 0.000000 0.000000 0.000000 0.000000 0.000000 0.000000
17100000000.000000 0.415049 -5.509140 0.000000 0.000000 0.173526 49.157422 0.000000 0.000000
                0.000000 0.000000 0.000000 0.000000 0.000000 0.000000 0.000000 0.000000
                0.174169 49.696278 0.000000 0.000000 0.514433 77.000303 0.000000 0.000000
                0.000000 0.000000 0.000000 0.000000 0.000000 0.000000 0.000000 0.000000
17150000000.000000 0.415213 -5.757099 0.000000 0.000000 0.173671 48.707308 0.000000 0.000000
                0.000000 0.000000 0.000000 0.000000 0.000000 0.000000 0.000000 0.000000
                0.174457 49.229827 0.000000 0.000000 0.513253 76.241014 0.000000 0.000000
                0.000000 0.000000 0.000000 0.000000 0.000000 0.000000 0.000000 0.000000
17200000000.000000 0.414622 -6.197045 0.000000 0.000000 0.174054 48.263365 0.000000 0.000000
                0.000000 0.000000 0.000000 0.000000 0.000000 0.000000 0.000000 0.000000
                0.174831 48.766205 0.000000 0.000000 0.510907 75.563880 0.000000 0.000000
                0.000000 0.000000 0.000000 0.000000 0.000000 0.000000 0.000000 0.000000
17250000000.000000 0.414528 -6.555619 0.000000 0.000000 0.174257 47.820868 0.000000 0.000000
                0.000000 0.000000 0.000000 0.000000 0.000000 0.000000 0.000000 0.000000
                0.175059 48.385405 0.000000 0.000000 0.509093 75.101911 0.000000 0.000000
                0.000000 0.000000 0.000000 0.000000 0.000000 0.000000 0.000000 0.000000
17300000000.000000 0.414557 -7.002757 0.000000 0.000000 0.174339 47.416194 0.000000 0.000000
                0.000000 0.000000 0.000000 0.000000 0.000000 0.000000 0.000000 0.000000
                0.175352 47.940646 0.000000 0.000000 0.506901 74.501288 0.000000 0.000000
                0.000000 0.000000 0.000000 0.000000 0.000000 0.000000 0.000000 0.000000
17350000000.000000 0.414197 -7.407633 0.000000 0.000000 0.174476 47.019233 0.000000 0.000000
                0.000000 0.000000 0.000000 0.000000 0.000000 0.000000 0.000000 0.000000
                0.175768 47.459941 0.000000 0.000000 0.505509 74.029210 0.000000 0.000000
                0.000000 0.000000 0.000000 0.000000 0.000000 0.000000 0.000000 0.000000
17400000000.000000 0.415110 -7.831193 0.000000 0.000000 0.174651 46.610656 0.000000 0.000000
                0.000000 0.000000 0.000000 0.000000 0.000000 0.000000 0.000000 0.000000
                0.175924 47.066061 0.000000 0.000000 0.501932 73.637694 0.000000 0.000000
                0.000000 0.000000 0.000000 0.000000 0.000000 0.000000 0.000000 0.000000
17450000000.000000 0.415410 -8.317633 0.000000 0.000000 0.174996 46.200763 0.000000 0.000000
                0.000000 0.000000 0.000000 0.000000 0.000000 0.000000 0.000000 0.000000
                0.176400 46.614747 0.000000 0.000000 0.499201 72.827251 0.000000 0.000000
                0.000000 0.000000 0.000000 0.000000 0.000000 0.000000 0.000000 0.000000
17500000000.000000 0.414786 -8.751628 0.000000 0.000000 0.175383 45.785568 0.000000 0.000000
                0.000000 0.000000 0.000000 0.000000 0.000000 0.000000 0.000000 0.000000
                0.176930 46.183230 0.000000 0.000000 0.498541 71.979661 0.000000 0.000000
                0.000000 0.000000 0.000000 0.000000 0.000000 0.000000 0.000000 0.000000
17550000000.000000 0.415293 -9.259558 0.000000 0.000000 0.175619 45.379104 0.000000 0.000000
                0.000000 0.000000 0.000000 0.000000 0.000000 0.000000 0.000000 0.000000
                0.177163 45.767735 0.000000 0.000000 0.496112 71.260200 0.000000 0.000000
                0.000000 0.000000 0.000000 0.000000 0.000000 0.000000 0.000000 0.000000
17600000000.000000 0.416065 -9.862604 0.000000 0.000000 0.175915 44.982181 0.000000 0.000000
                0.000000 0.000000 0.000000 0.000000 0.000000 0.000000 0.000000 0.000000
                0.177424 45.322020 0.000000 0.000000 0.494762 70.652173 0.000000 0.000000
                0.000000 0.000000 0.000000 0.000000 0.000000 0.000000 0.000000 0.000000
17650000000.000000 0.417122 -10.244266 0.000000 0.000000 0.176322 44.489782 0.000000 0.000000
                0.000000 0.000000 0.000000 0.000000 0.000000 0.000000 0.000000 0.000000
