#6183284!Ceyear Technologies,3672E,ZKJ00317,2.1.6
!Calibration ON : 4P/1,2,3,4
!Balanced Topology: BBAL
!Sweep Type: lin Frequency Sweep
!S4P File: Measurements: <Sdd11, Sdc11, Sdd12, Sdc12>,
!<Scd11, Scc11, Scd12, Scc12>,
!<Sdd21, Sdc21, Sdd22, Sdc22>,
!<Scd21, Scc21, Scd22, Scc22>:
!Thursday, March 14, 2024  17 : 37
# Hz  S  MA  R 50.000
15000000000.000000 0.186423 9.484915 0.000000 0.000000 0.000608 -76.050493 0.000000 0.000000
                0.000000 0.000000 0.000000 0.000000 0.000000 0.000000 0.000000 0.000000
                0.092114 88.545305 0.000000 0.000000 0.242270 -27.111984 0.000000 0.000000
                0.000000 0.000000 0.000000 0.000000 0.000000 0.000000 0.000000 0.000000
15050000000.000000 0.189075 8.424323 0.000000 0.000000 0.000582 -79.147459 0.000000 0.000000
                0.000000 0.000000 0.000000 0.000000 0.000000 0.000000 0.000000 0.000000
                0.092315 84.434038 0.000000 0.000000 0.240112 -26.381437 0.000000 0.000000
                0.000000 0.000000 0.000000 0.000000 0.000000 0.000000 0.000000 0.000000
15100000000.000000 0.190796 7.164277 0.000000 0.000000 0.000530 -79.960832 0.000000 0.000000
                0.000000 0.000000 0.000000 0.000000 0.000000 0.000000 0.000000 0.000000
                0.094083 82.219562 0.000000 0.000000 0.241871 -26.961142 0.000000 0.000000
                0.000000 0.000000 0.000000 0.000000 0.000000 0.000000 0.000000 0.000000
15150000000.000000 0.190722 7.834111 0.000000 0.000000 0.000513 -82.365106 0.000000 0.000000
                0.000000 0.000000 0.000000 0.000000 0.000000 0.000000 0.000000 0.000000
                0.096372 81.357089 0.000000 0.000000 0.243822 -27.573788 0.000000 0.000000
                0.000000 0.000000 0.000000 0.000000 0.000000 0.000000 0.000000 0.000000
15200000000.000000 0.193859 6.511449 0.000000 0.000000 0.000470 -84.047153 0.000000 0.000000
                0.000000 0.000000 0.000000 0.000000 0.000000 0.000000 0.000000 0.000000
                0.088203 79.679321 0.000000 0.000000 0.240577 -28.398367 0.000000 0.000000
                0.000000 0.000000 0.000000 0.000000 0.000000 0.000000 0.000000 0.000000
15250000000.000000 0.197198 5.331116 0.000000 0.000000 0.000471 -86.314903 0.000000 0.000000
                0.000000 0.000000 0.000000 0.000000 0.000000 0.000000 0.000000 0.000000
                0.089511 78.276003 0.000000 0.000000 0.237525 -29.333447 0.000000 0.000000
                0.000000 0.000000 0.000000 0.000000 0.000000 0.000000 0.000000 0.000000
15300000000.000000 0.194098 5.029931 0.000000 0.000000 0.000478 -85.782790 0.000000 0.000000
                0.000000 0.000000 0.000000 0.000000 0.000000 0.000000 0.000000 0.000000
                0.092865 84.987677 0.000000 0.000000 0.236209 -29.778530 0.000000 0.000000
                0.000000 0.000000 0.000000 0.000000 0.000000 0.000000 0.000000 0.000000
15350000000.000000 0.193653 3.539756 0.000000 0.000000 0.000442 -86.298726 0.000000 0.000000
                0.000000 0.000000 0.000000 0.000000 0.000000 0.000000 0.000000 0.000000
                0.084648 85.407460 0.000000 0.000000 0.229640 -28.956915 0.000000 0.000000
                0.000000 0.000000 0.000000 0.000000 0.000000 0.000000 0.000000 0.000000
15400000000.000000 0.195782 2.517378 0.000000 0.000000 0.000383 -87.032049 0.000000 0.000000
                0.000000 0.000000 0.000000 0.000000 0.000000 0.000000 0.000000 0.000000
                0.090163 85.490983 0.000000 0.000000 0.228752 -28.737751 0.000000 0.000000
                0.000000 0.000000 0.000000 0.000000 0.000000 0.000000 0.000000 0.000000
15450000000.000000 0.195223 2.415149 0.000000 0.000000 0.000359 -92.851403 0.000000 0.000000
                0.000000 0.000000 0.000000 0.000000 0.000000 0.000000 0.000000 0.000000
                0.097338 87.047531 0.000000 0.000000 0.228276 -28.800074 0.000000 0.000000
                0.000000 0.000000 0.000000 0.000000 0.000000 0.000000 0.000000 0.000000
15500000000.000000 0.194757 2.149610 0.000000 0.000000 0.000337 -93.440964 0.000000 0.000000
                0.000000 0.000000 0.000000 0.000000 0.000000 0.000000 0.000000 0.000000
                0.090595 84.270879 0.000000 0.000000 0.231718 -29.227789 0.000000 0.000000
                0.000000 0.000000 0.000000 0.000000 0.000000 0.000000 0.000000 0.000000
15550000000.000000 0.200952 1.241441 0.000000 0.000000 0.000330 -86.962586 0.000000 0.000000
                0.000000 0.000000 0.000000 0.000000 0.000000 0.000000 0.000000 0.000000
                0.092043 79.292306 0.000000 0.000000 0.233583 -29.299203 0.000000 0.000000
                0.000000 0.000000 0.000000 0.000000 0.000000 0.000000 0.000000 0.000000
15600000000.000000 0.204701 1.406550 0.000000 0.000000 0.000310 -95.005257 0.000000 0.000000
                0.000000 0.000000 0.000000 0.000000 0.000000 0.000000 0.000000 0.000000
                0.094674 81.272013 0.000000 0.000000 0.234239 -30.739137 0.000000 0.000000
                0.000000 0.000000 0.000000 0.000000 0.000000 0.000000 0.000000 0.000000
15650000000.000000 0.200881 0.069461 0.000000 0.000000 0.000352 -89.282129 0.000000 0.000000
                0.000000 0.000000 0.000000 0.000000 0.000000 0.000000 0.000000 0.000000
                0.083138 81.976084 0.000000 0.000000 0.231476 -30.561654 0.000000 0.000000
                0.000000 0.000000 0.000000 0.000000 0.000000 0.000000 0.000000 0.000000
15700000000.000000 0.205702 -1.190104 0.000000 0.000000 0.000302 -95.172343 0.000000 0.000000
                0.000000 0.000000 0.000000 0.000000 0.000000 0.000000 0.000000 0.000000
                0.087846 79.106487 0.000000 0.000000 0.226397 -29.720043 0.000000 0.000000
                0.000000 0.000000 0.000000 0.000000 0.000000 0.000000 0.000000 0.000000
15750000000.000000 0.208950 -1.369235 0.000000 0.000000 0.000318 -94.927097 0.000000 0.000000
                0.000000 0.000000 0.000000 0.000000 0.000000 0.000000 0.000000 0.000000
                0.094093 79.561429 0.000000 0.000000 0.226240 -30.660241 0.000000 0.000000
                0.000000 0.000000 0.000000 0.000000 0.000000 0.000000 0.000000 0.000000
15800000000.000000 0.204833 -1.451583 0.000000 0.000000 0.000316 -99.578840 0.000000 0.000000
                0.000000 0.000000 0.000000 0.000000 0.000000 0.000000 0.000000 0.000000
                0.090835 79.626412 0.000000 0.000000 0.227017 -29.176571 0.000000 0.000000
                0.000000 0.000000 0.000000 0.000000 0.000000 0.000000 0.000000 0.000000
15850000000.000000 0.207119 -3.223815 0.000000 0.000000 0.000290 -97.820383 0.000000 0.000000
                0.000000 0.000000 0.000000 0.000000 0.000000 0.000000 0.000000 0.000000
                0.089300 76.185910 0.000000 0.000000 0.225340 -29.239782 0.000000 0.000000
                0.000000 0.000000 0.000000 0.000000 0.000000 0.000000 0.000000 0.000000
15900000000.000000 0.212068 -2.110876 0.000000 0.000000 0.000309 -101.988591 0.000000 0.000000
                0.000000 0.000000 0.000000 0.000000 0.000000 0.000000 0.000000 0.000000
                0.100584 75.905846 0.000000 0.000000 0.231078 -30.387095 0.000000 0.000000
                0.000000 0.000000 0.000000 0.000000 0.000000 0.000000 0.000000 0.000000
15950000000.000000 0.209826 -2.905409 0.000000 0.000000 0.000273 -104.452023 0.000000 0.000000
                0.000000 0.000000 0.000000 0.000000 0.000000 0.000000 0.000000 0.000000
                0.090307 78.511636 0.000000 0.000000 0.231519 -30.259770 0.000000 0.000000
                0.000000 0.000000 0.000000 0.000000 0.000000 0.000000 0.000000 0.000000
16000000000.000000 0.209296 -4.550571 0.000000 0.000000 0.000269 -103.485591 0.000000 0.000000
                0.000000 0.000000 0.000000 0.000000 0.000000 0.000000 0.000000 0.000000
                0.086069 79.269463 0.000000 0.000000 0.227521 -30.453446 0.000000 0.000000
                0.000000 0.000000 0.000000 0.000000 0.000000 0.000000 0.000000 0.000000
16050000000.000000 0.216206 -4.732577 0.000000 0.000000 0.000294 -106.716164 0.000000 0.000000
                0.000000 0.000000 0.000000 0.000000 0.000000 0.000000 0.000000 0.000000
                0.094719 78.211264 0.000000 0.000000 0.226752 -31.541428 0.000000 0.000000
                0.000000 0.000000 0.000000 0.000000 0.000000 0.000000 0.000000 0.000000
16100000000.000000 0.213890 -4.950138 0.000000 0.000000 0.000279 -107.827674 0.000000 0.000000
                0.000000 0.000000 0.000000 0.000000 0.000000 0.000000 0.000000 0.000000
                0.094535 81.510608 0.000000 0.000000 0.227274 -30.422910 0.000000 0.000000
                0.000000 0.000000 0.000000 0.000000 0.000000 0.000000 0.000000 0.000000
16150000000.000000 0.213877 -5.532497 0.000000 0.000000 0.000243 -113.539639 0.000000 0.000000
                0.000000 0.000000 0.000000 0.000000 0.000000 0.000000 0.000000 0.000000
                0.090321 79.217131 0.000000 0.000000 0.225032 -29.890705 0.000000 0.000000
                0.000000 0.000000 0.000000 0.000000 0.000000 0.000000 0.000000 0.000000
16200000000.000000 0.217111 -5.445955 0.000000 0.000000 0.000245 -121.623807 0.000000 0.000000
                0.000000 0.000000 0.000000 0.000000 0.000000 0.000000 0.000000 0.000000
                0.100480 73.238187 0.000000 0.000000 0.225548 -29.585512 0.000000 0.000000
                0.000000 0.000000 0.000000 0.000000 0.000000 0.000000 0.000000 0.000000
16250000000.000000 0.218048 -5.692506 0.000000 0.000000 0.000232 -120.074247 0.000000 0.000000
                0.000000 0.000000 0.000000 0.000000 0.000000 0.000000 0.000000 0.000000
                0.097896 76.212761 0.000000 0.000000 0.228500 -29.522214 0.000000 0.000000
                0.000000 0.000000 0.000000 0.000000 0.000000 0.000000 0.000000 0.000000
16300000000.000000 0.220916 -6.045135 0.000000 0.000000 0.000212 -120.869551 0.000000 0.000000
                0.000000 0.000000 0.000000 0.000000 0.000000 0.000000 0.000000 0.000000
                0.092243 72.681739 0.000000 0.000000 0.230302 -29.232385 0.000000 0.000000
                0.000000 0.000000 0.000000 0.000000 0.000000 0.000000 0.000000 0.000000
16350000000.000000 0.226769 -7.108898 0.000000 0.000000 0.000195 -128.010177 0.000000 0.000000
                0.000000 0.000000 0.000000 0.000000 0.000000 0.000000 0.000000 0.000000
                0.094517 71.342931 0.000000 0.000000 0.226536 -30.231534 0.000000 0.000000
                0.000000 0.000000 0.000000 0.000000 0.000000 0.000000 0.000000 0.000000
16400000000.000000 0.230067 -8.204033 0.000000 0.000000 0.000205 -130.115934 0.000000 0.000000
                0.000000 0.000000 0.000000 0.000000 0.000000 0.000000 0.000000 0.000000
                0.088051 64.947155 0.000000 0.000000 0.227712 -30.716691 0.000000 0.000000
                0.000000 0.000000 0.000000 0.000000 0.000000 0.000000 0.000000 0.000000
16450000000.000000 0.229816 -8.321431 0.000000 0.000000 0.000262 -117.850716 0.000000 0.000000
                0.000000 0.000000 0.000000 0.000000 0.000000 0.000000 0.000000 0.000000
                0.081946 62.902874 0.000000 0.000000 0.226650 -30.351935 0.000000 0.000000
                0.000000 0.000000 0.000000 0.000000 0.000000 0.000000 0.000000 0.000000
16500000000.000000 0.232834 -9.147153 0.000000 0.000000 0.000329 -124.899730 0.000000 0.000000
                0.000000 0.000000 0.000000 0.000000 0.000000 0.000000 0.000000 0.000000
                0.086259 54.420775 0.000000 0.000000 0.220550 -29.756260 0.000000 0.000000
                0.000000 0.000000 0.000000 0.000000 0.000000 0.000000 0.000000 0.000000
16550000000.000000 0.230629 -10.213666 0.000000 0.000000 0.000334 -125.770303 0.000000 0.000000
                0.000000 0.000000 0.000000 0.000000 0.000000 0.000000 0.000000 0.000000
                0.084361 55.611287 0.000000 0.000000 0.222686 -29.561713 0.000000 0.000000
                0.000000 0.000000 0.000000 0.000000 0.000000 0.000000 0.000000 0.000000
16600000000.000000 0.230486 -10.979994 0.000000 0.000000 0.000312 -126.203301 0.000000 0.000000
                0.000000 0.000000 0.000000 0.000000 0.000000 0.000000 0.000000 0.000000
                0.084187 57.943348 0.000000 0.000000 0.220302 -28.583515 0.000000 0.000000
                0.000000 0.000000 0.000000 0.000000 0.000000 0.000000 0.000000 0.000000
16650000000.000000 0.230505 -11.180057 0.000000 0.000000 0.000389 -121.463124 0.000000 0.000000
                0.000000 0.000000 0.000000 0.000000 0.000000 0.000000 0.000000 0.000000
                0.087689 49.450741 0.000000 0.000000 0.218493 -28.315886 0.000000 0.000000
                0.000000 0.000000 0.000000 0.000000 0.000000 0.000000 0.000000 0.000000
16700000000.000000 0.232124 -11.515781 0.000000 0.000000 0.000443 -117.499759 0.000000 0.000000
                0.000000 0.000000 0.000000 0.000000 0.000000 0.000000 0.000000 0.000000
                0.085890 48.976737 0.000000 0.000000 0.225968 -28.989537 0.000000 0.000000
                0.000000 0.000000 0.000000 0.000000 0.000000 0.000000 0.000000 0.000000
16750000000.000000 0.233405 -11.665498 0.000000 0.000000 0.000317 -112.707129 0.000000 0.000000
                0.000000 0.000000 0.000000 0.000000 0.000000 0.000000 0.000000 0.000000
                0.088261 58.171499 0.000000 0.000000 0.225207 -29.246503 0.000000 0.000000
                0.000000 0.000000 0.000000 0.000000 0.000000 0.000000 0.000000 0.000000
16800000000.000000 0.236383 -11.797716 0.000000 0.000000 0.000227 -119.018502 0.000000 0.000000
                0.000000 0.000000 0.000000 0.000000 0.000000 0.000000 0.000000 0.000000
                0.086490 62.940073 0.000000 0.000000 0.219431 -29.163753 0.000000 0.000000
                0.000000 0.000000 0.000000 0.000000 0.000000 0.000000 0.000000 0.000000
16850000000.000000 0.239129 -12.289977 0.000000 0.000000 0.000215 -128.401315 0.000000 0.000000
                0.000000 0.000000 0.000000 0.000000 0.000000 0.000000 0.000000 0.000000
                0.086689 66.494001 0.000000 0.000000 0.222300 -28.538367 0.000000 0.000000
                0.000000 0.000000 0.000000 0.000000 0.000000 0.000000 0.000000 0.000000
16900000000.000000 0.236097 -13.845800 0.000000 0.000000 0.000157 -132.339914 0.000000 0.000000
                0.000000 0.000000 0.000000 0.000000 0.000000 0.000000 0.000000 0.000000
                0.085447 72.082632 0.000000 0.000000 0.215642 -28.078840 0.000000 0.000000
                0.000000 0.000000 0.000000 0.000000 0.000000 0.000000 0.000000 0.000000
16950000000.000000 0.239237 -13.642055 0.000000 0.000000 0.000161 -132.403352 0.000000 0.000000
                0.000000 0.000000 0.000000 0.000000 0.000000 0.000000 0.000000 0.000000
                0.090988 69.581724 0.000000 0.000000 0.212114 -27.305703 0.000000 0.000000
                0.000000 0.000000 0.000000 0.000000 0.000000 0.000000 0.000000 0.000000
17000000000.000000 0.242600 -13.310289 0.000000 0.000000 0.000130 -139.844282 0.000000 0.000000
                0.000000 0.000000 0.000000 0.000000 0.000000 0.000000 0.000000 0.000000
                0.091767 70.304934 0.000000 0.000000 0.217454 -26.673371 0.000000 0.000000
                0.000000 0.000000 0.000000 0.000000 0.000000 0.000000 0.000000 0.000000
17050000000.000000 0.240751 -14.695522 0.000000 0.000000 0.000124 -126.781087 0.000000 0.000000
                0.000000 0.000000 0.000000 0.000000 0.000000 0.000000 0.000000 0.000000
                0.091214 73.111435 0.000000 0.000000 0.220531 -27.698549 0.000000 0.000000
                0.000000 0.000000 0.000000 0.000000 0.000000 0.000000 0.000000 0.000000
17100000000.000000 0.241922 -14.960478 0.000000 0.000000 0.000101 -130.652807 0.000000 0.000000
                0.000000 0.000000 0.000000 0.000000 0.000000 0.000000 0.000000 0.000000
                0.093293 66.208540 0.000000 0.000000 0.219218 -26.958220 0.000000 0.000000
                0.000000 0.000000 0.000000 0.000000 0.000000 0.000000 0.000000 0.000000
17150000000.000000 0.245679 -14.962527 0.000000 0.000000 0.000111 -128.187624 0.000000 0.000000
                0.000000 0.000000 0.000000 0.000000 0.000000 0.000000 0.000000 0.000000
                0.089914 65.858256 0.000000 0.000000 0.220203 -27.557992 0.000000 0.000000
                0.000000 0.000000 0.000000 0.000000 0.000000 0.000000 0.000000 0.000000
17200000000.000000 0.243250 -15.985412 0.000000 0.000000 0.000091 -124.543718 0.000000 0.000000
                0.000000 0.000000 0.000000 0.000000 0.000000 0.000000 0.000000 0.000000
                0.093748 69.774220 0.000000 0.000000 0.215937 -27.575071 0.000000 0.000000
                0.000000 0.000000 0.000000 0.000000 0.000000 0.000000 0.000000 0.000000
17250000000.000000 0.242374 -16.843428 0.000000 0.000000 0.000134 -116.729973 0.000000 0.000000
                0.000000 0.000000 0.000000 0.000000 0.000000 0.000000 0.000000 0.000000
                0.094257 65.852978 0.000000 0.000000 0.211079 -24.883642 0.000000 0.000000
                0.000000 0.000000 0.000000 0.000000 0.000000 0.000000 0.000000 0.000000
17300000000.000000 0.244280 -16.312292 0.000000 0.000000 0.000114 -134.950636 0.000000 0.000000
                0.000000 0.000000 0.000000 0.000000 0.000000 0.000000 0.000000 0.000000
                0.092890 66.699768 0.000000 0.000000 0.213646 -25.446570 0.000000 0.000000
                0.000000 0.000000 0.000000 0.000000 0.000000 0.000000 0.000000 0.000000
17350000000.000000 0.243616 -16.647551 0.000000 0.000000 0.000135 -122.123136 0.000000 0.000000
                0.000000 0.000000 0.000000 0.000000 0.000000 0.000000 0.000000 0.000000
                0.093640 68.543900 0.000000 0.000000 0.220549 -25.762225 0.000000 0.000000
                0.000000 0.000000 0.000000 0.000000 0.000000 0.000000 0.000000 0.000000
17400000000.000000 0.243041 -17.622752 0.000000 0.000000 0.000119 -123.149426 0.000000 0.000000
                0.000000 0.000000 0.000000 0.000000 0.000000 0.000000 0.000000 0.000000
                0.091291 64.126101 0.000000 0.000000 0.222811 -23.649485 0.000000 0.000000
                0.000000 0.000000 0.000000 0.000000 0.000000 0.000000 0.000000 0.000000
17450000000.000000 0.243905 -17.836304 0.000000 0.000000 0.000147 -128.555589 0.000000 0.000000
                0.000000 0.000000 0.000000 0.000000 0.000000 0.000000 0.000000 0.000000
                0.086809 64.649008 0.000000 0.000000 0.225440 -26.875498 0.000000 0.000000
                0.000000 0.000000 0.000000 0.000000 0.000000 0.000000 0.000000 0.000000
17500000000.000000 0.246000 -17.393955 0.000000 0.000000 0.000161 -132.469479 0.000000 0.000000
                0.000000 0.000000 0.000000 0.000000 0.000000 0.000000 0.000000 0.000000
                0.094856 68.437543 0.000000 0.000000 0.226332 -27.725301 0.000000 0.000000
                0.000000 0.000000 0.000000 0.000000 0.000000 0.000000 0.000000 0.000000
17550000000.000000 0.247558 -18.556043 0.000000 0.000000 0.000146 -141.742130 0.000000 0.000000
                0.000000 0.000000 0.000000 0.000000 0.000000 0.000000 0.000000 0.000000
                0.099574 66.432478 0.000000 0.000000 0.222979 -26.209163 0.000000 0.000000
                0.000000 0.000000 0.000000 0.000000 0.000000 0.000000 0.000000 0.000000
17600000000.000000 0.246015 -19.668857 0.000000 0.000000 0.000197 -144.173390 0.000000 0.000000
                0.000000 0.000000 0.000000 0.000000 0.000000 0.000000 0.000000 0.000000
                0.090069 67.623134 0.000000 0.000000 0.221303 -26.956768 0.000000 0.000000
                0.000000 0.000000 0.000000 0.000000 0.000000 0.000000 0.000000 0.000000
