#6183709!Ceyear Technologies,3672E,ZKJ00317,2.1.6
!Calibration ON : 4P/1,2,3,4
!Balanced Topology: BBAL
!Sweep Type: lin Frequency Sweep
!S4P File: Measurements: <Sdd11, Sdc11, Sdd12, Sdc12>,
!<Scd11, Scc11, Scd12, Scc12>,
!<Sdd21, Sdc21, Sdd22, Sdc22>,
!<Scd21, Scc21, Scd22, Scc22>:
!Thursday, March 14, 2024  17 : 35
# Hz  S  MA  R 50.000
15000000000.000000 0.231115 32.612731 0.000000 0.000000 0.302764 37.468851 0.000000 0.000000
                0.000000 0.000000 0.000000 0.000000 0.000000 0.000000 0.000000 0.000000
                0.301632 37.517804 0.000000 0.000000 0.602446 116.279081 0.000000 0.000000
                0.000000 0.000000 0.000000 0.000000 0.000000 0.000000 0.000000 0.000000
15050000000.000000 0.231907 31.873179 0.000000 0.000000 0.303699 37.095653 0.000000 0.000000
                0.000000 0.000000 0.000000 0.000000 0.000000 0.000000 0.000000 0.000000
                0.301033 36.854137 0.000000 0.000000 0.600786 115.883494 0.000000 0.000000
                0.000000 0.000000 0.000000 0.000000 0.000000 0.000000 0.000000 0.000000
15100000000.000000 0.233271 30.776353 0.000000 0.000000 0.303581 36.589195 0.000000 0.000000
                0.000000 0.000000 0.000000 0.000000 0.000000 0.000000 0.000000 0.000000
                0.301398 36.481745 0.000000 0.000000 0.598441 115.490926 0.000000 0.000000
                0.000000 0.000000 0.000000 0.000000 0.000000 0.000000 0.000000 0.000000
15150000000.000000 0.233282 30.169298 0.000000 0.000000 0.302939 36.037869 0.000000 0.000000
                0.000000 0.000000 0.000000 0.000000 0.000000 0.000000 0.000000 0.000000
                0.301897 36.203090 0.000000 0.000000 0.596731 115.151773 0.000000 0.000000
                0.000000 0.000000 0.000000 0.000000 0.000000 0.000000 0.000000 0.000000
15200000000.000000 0.234793 29.516519 0.000000 0.000000 0.302986 35.565801 0.000000 0.000000
                0.000000 0.000000 0.000000 0.000000 0.000000 0.000000 0.000000 0.000000
                0.301959 35.745772 0.000000 0.000000 0.594382 114.710161 0.000000 0.000000
                0.000000 0.000000 0.000000 0.000000 0.000000 0.000000 0.000000 0.000000
15250000000.000000 0.235414 28.548910 0.000000 0.000000 0.303291 35.156450 0.000000 0.000000
                0.000000 0.000000 0.000000 0.000000 0.000000 0.000000 0.000000 0.000000
                0.302313 35.297152 0.000000 0.000000 0.591952 114.271485 0.000000 0.000000
                0.000000 0.000000 0.000000 0.000000 0.000000 0.000000 0.000000 0.000000
15300000000.000000 0.235576 27.946844 0.000000 0.000000 0.303238 34.760710 0.000000 0.000000
                0.000000 0.000000 0.000000 0.000000 0.000000 0.000000 0.000000 0.000000
                0.302404 34.873439 0.000000 0.000000 0.589704 113.766659 0.000000 0.000000
                0.000000 0.000000 0.000000 0.000000 0.000000 0.000000 0.000000 0.000000
15350000000.000000 0.236383 27.152126 0.000000 0.000000 0.303017 34.251477 0.000000 0.000000
                0.000000 0.000000 0.000000 0.000000 0.000000 0.000000 0.000000 0.000000
                0.302034 34.384630 0.000000 0.000000 0.588976 113.326932 0.000000 0.000000
                0.000000 0.000000 0.000000 0.000000 0.000000 0.000000 0.000000 0.000000
15400000000.000000 0.237569 26.106532 0.000000 0.000000 0.303256 33.808412 0.000000 0.000000
                0.000000 0.000000 0.000000 0.000000 0.000000 0.000000 0.000000 0.000000
                0.302248 33.939570 0.000000 0.000000 0.588272 112.941720 0.000000 0.000000
                0.000000 0.000000 0.000000 0.000000 0.000000 0.000000 0.000000 0.000000
15450000000.000000 0.238389 25.260752 0.000000 0.000000 0.303433 33.433127 0.000000 0.000000
                0.000000 0.000000 0.000000 0.000000 0.000000 0.000000 0.000000 0.000000
                0.302525 33.534315 0.000000 0.000000 0.587319 112.642401 0.000000 0.000000
                0.000000 0.000000 0.000000 0.000000 0.000000 0.000000 0.000000 0.000000
15500000000.000000 0.238789 24.593240 0.000000 0.000000 0.303313 32.940364 0.000000 0.000000
                0.000000 0.000000 0.000000 0.000000 0.000000 0.000000 0.000000 0.000000
                0.302422 33.074132 0.000000 0.000000 0.584790 112.349421 0.000000 0.000000
                0.000000 0.000000 0.000000 0.000000 0.000000 0.000000 0.000000 0.000000
15550000000.000000 0.241116 23.592907 0.000000 0.000000 0.303134 32.495025 0.000000 0.000000
                0.000000 0.000000 0.000000 0.000000 0.000000 0.000000 0.000000 0.000000
                0.302285 32.613266 0.000000 0.000000 0.582893 111.708124 0.000000 0.000000
                0.000000 0.000000 0.000000 0.000000 0.000000 0.000000 0.000000 0.000000
15600000000.000000 0.241623 22.857853 0.000000 0.000000 0.303378 32.167334 0.000000 0.000000
                0.000000 0.000000 0.000000 0.000000 0.000000 0.000000 0.000000 0.000000
                0.302858 32.227136 0.000000 0.000000 0.580434 111.261165 0.000000 0.000000
                0.000000 0.000000 0.000000 0.000000 0.000000 0.000000 0.000000 0.000000
15650000000.000000 0.241870 22.194968 0.000000 0.000000 0.303233 31.608252 0.000000 0.000000
                0.000000 0.000000 0.000000 0.000000 0.000000 0.000000 0.000000 0.000000
                0.302727 31.712488 0.000000 0.000000 0.579078 110.804665 0.000000 0.000000
                0.000000 0.000000 0.000000 0.000000 0.000000 0.000000 0.000000 0.000000
15700000000.000000 0.243711 21.337277 0.000000 0.000000 0.303260 31.147661 0.000000 0.000000
                0.000000 0.000000 0.000000 0.000000 0.000000 0.000000 0.000000 0.000000
                0.302699 31.234840 0.000000 0.000000 0.577689 110.171620 0.000000 0.000000
                0.000000 0.000000 0.000000 0.000000 0.000000 0.000000 0.000000 0.000000
15750000000.000000 0.244701 20.714023 0.000000 0.000000 0.303572 30.807052 0.000000 0.000000
                0.000000 0.000000 0.000000 0.000000 0.000000 0.000000 0.000000 0.000000
                0.303044 30.817153 0.000000 0.000000 0.576548 109.780226 0.000000 0.000000
                0.000000 0.000000 0.000000 0.000000 0.000000 0.000000 0.000000 0.000000
15800000000.000000 0.244546 20.105201 0.000000 0.000000 0.303206 30.244726 0.000000 0.000000
                0.000000 0.000000 0.000000 0.000000 0.000000 0.000000 0.000000 0.000000
                0.302788 30.356249 0.000000 0.000000 0.576414 109.373187 0.000000 0.000000
                0.000000 0.000000 0.000000 0.000000 0.000000 0.000000 0.000000 0.000000
15850000000.000000 0.246512 19.324912 0.000000 0.000000 0.303307 29.796313 0.000000 0.000000
                0.000000 0.000000 0.000000 0.000000 0.000000 0.000000 0.000000 0.000000
                0.302779 29.907313 0.000000 0.000000 0.574127 109.015495 0.000000 0.000000
                0.000000 0.000000 0.000000 0.000000 0.000000 0.000000 0.000000 0.000000
15900000000.000000 0.247747 18.553670 0.000000 0.000000 0.303504 29.422232 0.000000 0.000000
                0.000000 0.000000 0.000000 0.000000 0.000000 0.000000 0.000000 0.000000
                0.303298 29.487722 0.000000 0.000000 0.571400 108.445744 0.000000 0.000000
                0.000000 0.000000 0.000000 0.000000 0.000000 0.000000 0.000000 0.000000
15950000000.000000 0.247741 17.943544 0.000000 0.000000 0.303307 28.946497 0.000000 0.000000
                0.000000 0.000000 0.000000 0.000000 0.000000 0.000000 0.000000 0.000000
                0.303265 29.045694 0.000000 0.000000 0.570048 107.931994 0.000000 0.000000
                0.000000 0.000000 0.000000 0.000000 0.000000 0.000000 0.000000 0.000000
16000000000.000000 0.249391 17.316506 0.000000 0.000000 0.303535 28.490169 0.000000 0.000000
                0.000000 0.000000 0.000000 0.000000 0.000000 0.000000 0.000000 0.000000
                0.303269 28.589176 0.000000 0.000000 0.568025 107.437554 0.000000 0.000000
                0.000000 0.000000 0.000000 0.000000 0.000000 0.000000 0.000000 0.000000
16050000000.000000 0.251853 16.369883 0.000000 0.000000 0.304020 28.122550 0.000000 0.000000
                0.000000 0.000000 0.000000 0.000000 0.000000 0.000000 0.000000 0.000000
                0.303564 28.163557 0.000000 0.000000 0.566617 106.747718 0.000000 0.000000
                0.000000 0.000000 0.000000 0.000000 0.000000 0.000000 0.000000 0.000000
16100000000.000000 0.251333 15.869657 0.000000 0.000000 0.303798 27.650259 0.000000 0.000000
                0.000000 0.000000 0.000000 0.000000 0.000000 0.000000 0.000000 0.000000
                0.303494 27.733958 0.000000 0.000000 0.565427 106.315259 0.000000 0.000000
                0.000000 0.000000 0.000000 0.000000 0.000000 0.000000 0.000000 0.000000
16150000000.000000 0.252566 15.487786 0.000000 0.000000 0.303523 27.122298 0.000000 0.000000
                0.000000 0.000000 0.000000 0.000000 0.000000 0.000000 0.000000 0.000000
                0.303372 27.214777 0.000000 0.000000 0.564965 105.747956 0.000000 0.000000
                0.000000 0.000000 0.000000 0.000000 0.000000 0.000000 0.000000 0.000000
16200000000.000000 0.254767 14.638764 0.000000 0.000000 0.303740 26.656124 0.000000 0.000000
                0.000000 0.000000 0.000000 0.000000 0.000000 0.000000 0.000000 0.000000
                0.303469 26.720749 0.000000 0.000000 0.563399 105.191839 0.000000 0.000000
                0.000000 0.000000 0.000000 0.000000 0.000000 0.000000 0.000000 0.000000
16250000000.000000 0.254882 14.114893 0.000000 0.000000 0.303794 26.224315 0.000000 0.000000
                0.000000 0.000000 0.000000 0.000000 0.000000 0.000000 0.000000 0.000000
                0.303683 26.324669 0.000000 0.000000 0.560642 104.749853 0.000000 0.000000
                0.000000 0.000000 0.000000 0.000000 0.000000 0.000000 0.000000 0.000000
16300000000.000000 0.256491 13.653673 0.000000 0.000000 0.303220 25.748743 0.000000 0.000000
                0.000000 0.000000 0.000000 0.000000 0.000000 0.000000 0.000000 0.000000
                0.303175 25.882949 0.000000 0.000000 0.559185 104.182621 0.000000 0.000000
                0.000000 0.000000 0.000000 0.000000 0.000000 0.000000 0.000000 0.000000
16350000000.000000 0.259678 12.755880 0.000000 0.000000 0.303539 25.403031 0.000000 0.000000
                0.000000 0.000000 0.000000 0.000000 0.000000 0.000000 0.000000 0.000000
                0.303202 25.466680 0.000000 0.000000 0.556074 103.605485 0.000000 0.000000
                0.000000 0.000000 0.000000 0.000000 0.000000 0.000000 0.000000 0.000000
16400000000.000000 0.259290 12.000422 0.000000 0.000000 0.315094 27.168130 0.000000 0.000000
                0.000000 0.000000 0.000000 0.000000 0.000000 0.000000 0.000000 0.000000
                0.294205 22.935946 0.000000 0.000000 0.554299 103.058523 0.000000 0.000000
                0.000000 0.000000 0.000000 0.000000 0.000000 0.000000 0.000000 0.000000
16450000000.000000 0.260014 11.607978 0.000000 0.000000 0.324942 29.135897 0.000000 0.000000
                0.000000 0.000000 0.000000 0.000000 0.000000 0.000000 0.000000 0.000000
                0.287959 20.522700 0.000000 0.000000 0.552767 102.659922 0.000000 0.000000
                0.000000 0.000000 0.000000 0.000000 0.000000 0.000000 0.000000 0.000000
16500000000.000000 0.262629 11.031059 0.000000 0.000000 0.334346 29.050353 0.000000 0.000000
                0.000000 0.000000 0.000000 0.000000 0.000000 0.000000 0.000000 0.000000
                0.283015 19.662529 0.000000 0.000000 0.550593 102.031770 0.000000 0.000000
                0.000000 0.000000 0.000000 0.000000 0.000000 0.000000 0.000000 0.000000
16550000000.000000 0.263079 10.209868 0.000000 0.000000 0.336053 29.045963 0.000000 0.000000
                0.000000 0.000000 0.000000 0.000000 0.000000 0.000000 0.000000 0.000000
                0.283089 18.878289 0.000000 0.000000 0.550215 101.550250 0.000000 0.000000
                0.000000 0.000000 0.000000 0.000000 0.000000 0.000000 0.000000 0.000000
16600000000.000000 0.265182 9.681705 0.000000 0.000000 0.334221 28.590407 0.000000 0.000000
                0.000000 0.000000 0.000000 0.000000 0.000000 0.000000 0.000000 0.000000
                0.283884 18.454325 0.000000 0.000000 0.549334 101.174145 0.000000 0.000000
                0.000000 0.000000 0.000000 0.000000 0.000000 0.000000 0.000000 0.000000
16650000000.000000 0.265580 9.388604 0.000000 0.000000 0.346894 29.189594 0.000000 0.000000
                0.000000 0.000000 0.000000 0.000000 0.000000 0.000000 0.000000 0.000000
                0.278749 17.081616 0.000000 0.000000 0.547681 100.742978 0.000000 0.000000
                0.000000 0.000000 0.000000 0.000000 0.000000 0.000000 0.000000 0.000000
16700000000.000000 0.266308 8.494865 0.000000 0.000000 0.346111 29.711346 0.000000 0.000000
                0.000000 0.000000 0.000000 0.000000 0.000000 0.000000 0.000000 0.000000
                0.280202 16.092205 0.000000 0.000000 0.544881 100.242055 0.000000 0.000000
                0.000000 0.000000 0.000000 0.000000 0.000000 0.000000 0.000000 0.000000
16750000000.000000 0.267396 7.791251 0.000000 0.000000 0.321769 26.082401 0.000000 0.000000
                0.000000 0.000000 0.000000 0.000000 0.000000 0.000000 0.000000 0.000000
                0.290623 18.215164 0.000000 0.000000 0.544153 99.606558 0.000000 0.000000
                0.000000 0.000000 0.000000 0.000000 0.000000 0.000000 0.000000 0.000000
16800000000.000000 0.268602 7.395142 0.000000 0.000000 0.309139 22.619105 0.000000 0.000000
                0.000000 0.000000 0.000000 0.000000 0.000000 0.000000 0.000000 0.000000
                0.298695 20.404291 0.000000 0.000000 0.542816 99.109685 0.000000 0.000000
                0.000000 0.000000 0.000000 0.000000 0.000000 0.000000 0.000000 0.000000
16850000000.000000 0.270577 6.769318 0.000000 0.000000 0.306118 21.511712 0.000000 0.000000
                0.000000 0.000000 0.000000 0.000000 0.000000 0.000000 0.000000 0.000000
                0.301295 20.574848 0.000000 0.000000 0.540437 98.505956 0.000000 0.000000
                0.000000 0.000000 0.000000 0.000000 0.000000 0.000000 0.000000 0.000000
16900000000.000000 0.271021 6.211719 0.000000 0.000000 0.305503 20.809678 0.000000 0.000000
                0.000000 0.000000 0.000000 0.000000 0.000000 0.000000 0.000000 0.000000
                0.302077 20.385332 0.000000 0.000000 0.540037 98.044235 0.000000 0.000000
                0.000000 0.000000 0.000000 0.000000 0.000000 0.000000 0.000000 0.000000
16950000000.000000 0.271416 5.837329 0.000000 0.000000 0.304915 20.303422 0.000000 0.000000
                0.000000 0.000000 0.000000 0.000000 0.000000 0.000000 0.000000 0.000000
                0.302375 20.089938 0.000000 0.000000 0.539425 97.695934 0.000000 0.000000
                0.000000 0.000000 0.000000 0.000000 0.000000 0.000000 0.000000 0.000000
17000000000.000000 0.273121 5.418083 0.000000 0.000000 0.304166 19.711071 0.000000 0.000000
                0.000000 0.000000 0.000000 0.000000 0.000000 0.000000 0.000000 0.000000
                0.303030 19.809323 0.000000 0.000000 0.538536 97.240013 0.000000 0.000000
                0.000000 0.000000 0.000000 0.000000 0.000000 0.000000 0.000000 0.000000
17050000000.000000 0.273482 4.614195 0.000000 0.000000 0.304453 19.289960 0.000000 0.000000
                0.000000 0.000000 0.000000 0.000000 0.000000 0.000000 0.000000 0.000000
                0.303444 19.470750 0.000000 0.000000 0.536086 96.970220 0.000000 0.000000
                0.000000 0.000000 0.000000 0.000000 0.000000 0.000000 0.000000 0.000000
17100000000.000000 0.274297 4.042039 0.000000 0.000000 0.304678 18.823421 0.000000 0.000000
                0.000000 0.000000 0.000000 0.000000 0.000000 0.000000 0.000000 0.000000
                0.303599 19.016643 0.000000 0.000000 0.533734 96.447837 0.000000 0.000000
                0.000000 0.000000 0.000000 0.000000 0.000000 0.000000 0.000000 0.000000
17150000000.000000 0.275774 3.786597 0.000000 0.000000 0.304451 18.394311 0.000000 0.000000
                0.000000 0.000000 0.000000 0.000000 0.000000 0.000000 0.000000 0.000000
                0.303445 18.559040 0.000000 0.000000 0.532241 95.785782 0.000000 0.000000
                0.000000 0.000000 0.000000 0.000000 0.000000 0.000000 0.000000 0.000000
17200000000.000000 0.275554 3.229040 0.000000 0.000000 0.304891 17.932980 0.000000 0.000000
                0.000000 0.000000 0.000000 0.000000 0.000000 0.000000 0.000000 0.000000
                0.303919 18.102417 0.000000 0.000000 0.530462 95.331686 0.000000 0.000000
                0.000000 0.000000 0.000000 0.000000 0.000000 0.000000 0.000000 0.000000
17250000000.000000 0.276065 2.873790 0.000000 0.000000 0.304809 17.454237 0.000000 0.000000
                0.000000 0.000000 0.000000 0.000000 0.000000 0.000000 0.000000 0.000000
                0.303755 17.663545 0.000000 0.000000 0.529882 94.953440 0.000000 0.000000
                0.000000 0.000000 0.000000 0.000000 0.000000 0.000000 0.000000 0.000000
17300000000.000000 0.277074 2.309091 0.000000 0.000000 0.304534 17.040905 0.000000 0.000000
                0.000000 0.000000 0.000000 0.000000 0.000000 0.000000 0.000000 0.000000
                0.303744 17.243133 0.000000 0.000000 0.527881 94.507882 0.000000 0.000000
                0.000000 0.000000 0.000000 0.000000 0.000000 0.000000 0.000000 0.000000
17350000000.000000 0.277484 1.803386 0.000000 0.000000 0.304510 16.656377 0.000000 0.000000
                0.000000 0.000000 0.000000 0.000000 0.000000 0.000000 0.000000 0.000000
                0.304030 16.821978 0.000000 0.000000 0.526997 94.167375 0.000000 0.000000
                0.000000 0.000000 0.000000 0.000000 0.000000 0.000000 0.000000 0.000000
17400000000.000000 0.278894 1.262099 0.000000 0.000000 0.304414 16.210132 0.000000 0.000000
                0.000000 0.000000 0.000000 0.000000 0.000000 0.000000 0.000000 0.000000
                0.303899 16.399437 0.000000 0.000000 0.524848 93.955303 0.000000 0.000000
                0.000000 0.000000 0.000000 0.000000 0.000000 0.000000 0.000000 0.000000
17450000000.000000 0.279911 0.609030 0.000000 0.000000 0.304620 15.813304 0.000000 0.000000
                0.000000 0.000000 0.000000 0.000000 0.000000 0.000000 0.000000 0.000000
                0.304337 15.982069 0.000000 0.000000 0.521931 93.373866 0.000000 0.000000
                0.000000 0.000000 0.000000 0.000000 0.000000 0.000000 0.000000 0.000000
17500000000.000000 0.280018 0.075696 0.000000 0.000000 0.304968 15.411795 0.000000 0.000000
                0.000000 0.000000 0.000000 0.000000 0.000000 0.000000 0.000000 0.000000
                0.304751 15.555151 0.000000 0.000000 0.521004 92.691620 0.000000 0.000000
                0.000000 0.000000 0.000000 0.000000 0.000000 0.000000 0.000000 0.000000
17550000000.000000 0.280925 -0.565263 0.000000 0.000000 0.305010 14.967532 0.000000 0.000000
                0.000000 0.000000 0.000000 0.000000 0.000000 0.000000 0.000000 0.000000
                0.304726 15.113207 0.000000 0.000000 0.519148 92.138620 0.000000 0.000000
                0.000000 0.000000 0.000000 0.000000 0.000000 0.000000 0.000000 0.000000
17600000000.000000 0.282099 -1.393078 0.000000 0.000000 0.305131 14.544440 0.000000 0.000000
                0.000000 0.000000 0.000000 0.000000 0.000000 0.000000 0.000000 0.000000
                0.304933 14.672583 0.000000 0.000000 0.518331 91.684595 0.000000 0.000000
                0.000000 0.000000 0.000000 0.000000 0.000000 0.000000 0.000000 0.000000
17650000000.000000 0.283836 -1.897575 0.000000 0.000000 0.305463 14.082580 0.000000 0.000000
