#6183449!Ceyear Technologies,3672E,ZKJ00317,2.1.6
!Calibration ON : 4P/1,2,3,4
!Balanced Topology: BBAL
!Sweep Type: lin Frequency Sweep
!S4P File: Measurements: <Sdd11, Sdc11, Sdd12, Sdc12>,
!<Scd11, Scc11, Scd12, Scc12>,
!<Sdd21, Sdc21, Sdd22, Sdc22>,
!<Scd21, Scc21, Scd22, Scc22>:
!Thursday, March 14, 2024  16 : 31
# Hz  S  MA  R 50.000
15000000000.000000 0.299976 21.976353 0.000000 0.000000 0.120274 -160.553946 0.000000 0.000000
                0.000000 0.000000 0.000000 0.000000 0.000000 0.000000 0.000000 0.000000
                0.119214 -160.656705 0.000000 0.000000 0.497633 87.336341 0.000000 0.000000
                0.000000 0.000000 0.000000 0.000000 0.000000 0.000000 0.000000 0.000000
15050000000.000000 0.300334 21.436537 0.000000 0.000000 0.120782 -161.727105 0.000000 0.000000
                0.000000 0.000000 0.000000 0.000000 0.000000 0.000000 0.000000 0.000000
                0.118956 -160.892570 0.000000 0.000000 0.494206 86.780775 0.000000 0.000000
                0.000000 0.000000 0.000000 0.000000 0.000000 0.000000 0.000000 0.000000
15100000000.000000 0.301406 20.632668 0.000000 0.000000 0.120741 -162.208393 0.000000 0.000000
                0.000000 0.000000 0.000000 0.000000 0.000000 0.000000 0.000000 0.000000
                0.119204 -161.720278 0.000000 0.000000 0.491318 86.170867 0.000000 0.000000
                0.000000 0.000000 0.000000 0.000000 0.000000 0.000000 0.000000 0.000000
15150000000.000000 0.300825 20.114706 0.000000 0.000000 0.120365 -162.445920 0.000000 0.000000
                0.000000 0.000000 0.000000 0.000000 0.000000 0.000000 0.000000 0.000000
                0.119599 -162.687523 0.000000 0.000000 0.489176 85.657574 0.000000 0.000000
                0.000000 0.000000 0.000000 0.000000 0.000000 0.000000 0.000000 0.000000
15200000000.000000 0.301611 19.604108 0.000000 0.000000 0.120453 -163.091726 0.000000 0.000000
                0.000000 0.000000 0.000000 0.000000 0.000000 0.000000 0.000000 0.000000
                0.119699 -163.292714 0.000000 0.000000 0.486215 85.001953 0.000000 0.000000
                0.000000 0.000000 0.000000 0.000000 0.000000 0.000000 0.000000 0.000000
15250000000.000000 0.302147 18.867110 0.000000 0.000000 0.120594 -163.682064 0.000000 0.000000
                0.000000 0.000000 0.000000 0.000000 0.000000 0.000000 0.000000 0.000000
                0.119851 -163.928038 0.000000 0.000000 0.483340 84.317838 0.000000 0.000000
                0.000000 0.000000 0.000000 0.000000 0.000000 0.000000 0.000000 0.000000
15300000000.000000 0.301711 18.361385 0.000000 0.000000 0.120763 -164.329096 0.000000 0.000000
                0.000000 0.000000 0.000000 0.000000 0.000000 0.000000 0.000000 0.000000
                0.119943 -164.587526 0.000000 0.000000 0.480867 83.630719 0.000000 0.000000
                0.000000 0.000000 0.000000 0.000000 0.000000 0.000000 0.000000 0.000000
15350000000.000000 0.301923 17.730616 0.000000 0.000000 0.120776 -165.052154 0.000000 0.000000
                0.000000 0.000000 0.000000 0.000000 0.000000 0.000000 0.000000 0.000000
                0.120084 -165.276990 0.000000 0.000000 0.478691 83.138225 0.000000 0.000000
                0.000000 0.000000 0.000000 0.000000 0.000000 0.000000 0.000000 0.000000
15400000000.000000 0.302931 16.987911 0.000000 0.000000 0.121152 -165.808824 0.000000 0.000000
                0.000000 0.000000 0.000000 0.000000 0.000000 0.000000 0.000000 0.000000
                0.120248 -165.944709 0.000000 0.000000 0.476140 82.772645 0.000000 0.000000
                0.000000 0.000000 0.000000 0.000000 0.000000 0.000000 0.000000 0.000000
15450000000.000000 0.303085 16.320130 0.000000 0.000000 0.121435 -166.415276 0.000000 0.000000
                0.000000 0.000000 0.000000 0.000000 0.000000 0.000000 0.000000 0.000000
                0.120417 -166.640331 0.000000 0.000000 0.473971 82.271119 0.000000 0.000000
                0.000000 0.000000 0.000000 0.000000 0.000000 0.000000 0.000000 0.000000
15500000000.000000 0.303034 15.771013 0.000000 0.000000 0.121365 -167.029298 0.000000 0.000000
                0.000000 0.000000 0.000000 0.000000 0.000000 0.000000 0.000000 0.000000
                0.120441 -167.297831 0.000000 0.000000 0.470292 81.758945 0.000000 0.000000
                0.000000 0.000000 0.000000 0.000000 0.000000 0.000000 0.000000 0.000000
15550000000.000000 0.304872 15.043582 0.000000 0.000000 0.121461 -167.617657 0.000000 0.000000
                0.000000 0.000000 0.000000 0.000000 0.000000 0.000000 0.000000 0.000000
                0.120507 -167.973120 0.000000 0.000000 0.468687 81.004852 0.000000 0.000000
                0.000000 0.000000 0.000000 0.000000 0.000000 0.000000 0.000000 0.000000
15600000000.000000 0.304786 14.461599 0.000000 0.000000 0.122290 -168.376525 0.000000 0.000000
                0.000000 0.000000 0.000000 0.000000 0.000000 0.000000 0.000000 0.000000
                0.120653 -168.603374 0.000000 0.000000 0.466205 80.442572 0.000000 0.000000
                0.000000 0.000000 0.000000 0.000000 0.000000 0.000000 0.000000 0.000000
15650000000.000000 0.304455 13.882116 0.000000 0.000000 0.122375 -169.105161 0.000000 0.000000
                0.000000 0.000000 0.000000 0.000000 0.000000 0.000000 0.000000 0.000000
                0.120804 -169.298711 0.000000 0.000000 0.463349 79.928180 0.000000 0.000000
                0.000000 0.000000 0.000000 0.000000 0.000000 0.000000 0.000000 0.000000
15700000000.000000 0.305904 13.243057 0.000000 0.000000 0.122660 -169.799910 0.000000 0.000000
                0.000000 0.000000 0.000000 0.000000 0.000000 0.000000 0.000000 0.000000
                0.120968 -169.970176 0.000000 0.000000 0.461340 79.181267 0.000000 0.000000
                0.000000 0.000000 0.000000 0.000000 0.000000 0.000000 0.000000 0.000000
15750000000.000000 0.306208 12.734750 0.000000 0.000000 0.123040 -170.460169 0.000000 0.000000
                0.000000 0.000000 0.000000 0.000000 0.000000 0.000000 0.000000 0.000000
                0.121160 -170.647707 0.000000 0.000000 0.459305 78.608089 0.000000 0.000000
                0.000000 0.000000 0.000000 0.000000 0.000000 0.000000 0.000000 0.000000
15800000000.000000 0.305493 12.233370 0.000000 0.000000 0.122854 -171.134420 0.000000 0.000000
                0.000000 0.000000 0.000000 0.000000 0.000000 0.000000 0.000000 0.000000
                0.121234 -171.358125 0.000000 0.000000 0.457201 78.132491 0.000000 0.000000
                0.000000 0.000000 0.000000 0.000000 0.000000 0.000000 0.000000 0.000000
15850000000.000000 0.306825 11.610789 0.000000 0.000000 0.123070 -171.804207 0.000000 0.000000
                0.000000 0.000000 0.000000 0.000000 0.000000 0.000000 0.000000 0.000000
                0.121403 -172.003398 0.000000 0.000000 0.453713 77.586344 0.000000 0.000000
                0.000000 0.000000 0.000000 0.000000 0.000000 0.000000 0.000000 0.000000
15900000000.000000 0.307598 11.047310 0.000000 0.000000 0.123454 -172.412489 0.000000 0.000000
                0.000000 0.000000 0.000000 0.000000 0.000000 0.000000 0.000000 0.000000
                0.121399 -172.734578 0.000000 0.000000 0.451525 76.702914 0.000000 0.000000
                0.000000 0.000000 0.000000 0.000000 0.000000 0.000000 0.000000 0.000000
15950000000.000000 0.306746 10.510684 0.000000 0.000000 0.123501 -173.108392 0.000000 0.000000
                0.000000 0.000000 0.000000 0.000000 0.000000 0.000000 0.000000 0.000000
                0.121546 -173.443502 0.000000 0.000000 0.449944 76.058712 0.000000 0.000000
                0.000000 0.000000 0.000000 0.000000 0.000000 0.000000 0.000000 0.000000
16000000000.000000 0.307780 9.990786 0.000000 0.000000 0.123662 -173.813020 0.000000 0.000000
                0.000000 0.000000 0.000000 0.000000 0.000000 0.000000 0.000000 0.000000
                0.121760 -174.049808 0.000000 0.000000 0.447230 75.450301 0.000000 0.000000
                0.000000 0.000000 0.000000 0.000000 0.000000 0.000000 0.000000 0.000000
16050000000.000000 0.309603 9.287410 0.000000 0.000000 0.124296 -174.506667 0.000000 0.000000
                0.000000 0.000000 0.000000 0.000000 0.000000 0.000000 0.000000 0.000000
                0.122079 -174.711161 0.000000 0.000000 0.446053 74.609533 0.000000 0.000000
                0.000000 0.000000 0.000000 0.000000 0.000000 0.000000 0.000000 0.000000
16100000000.000000 0.308243 8.822757 0.000000 0.000000 0.124258 -175.190745 0.000000 0.000000
                0.000000 0.000000 0.000000 0.000000 0.000000 0.000000 0.000000 0.000000
                0.122268 -175.483344 0.000000 0.000000 0.443581 74.055328 0.000000 0.000000
                0.000000 0.000000 0.000000 0.000000 0.000000 0.000000 0.000000 0.000000
16150000000.000000 0.309124 8.495280 0.000000 0.000000 0.123840 -175.747810 0.000000 0.000000
                0.000000 0.000000 0.000000 0.000000 0.000000 0.000000 0.000000 0.000000
                0.122133 -176.152884 0.000000 0.000000 0.442420 73.281982 0.000000 0.000000
                0.000000 0.000000 0.000000 0.000000 0.000000 0.000000 0.000000 0.000000
16200000000.000000 0.310964 7.862681 0.000000 0.000000 0.124062 -176.450921 0.000000 0.000000
                0.000000 0.000000 0.000000 0.000000 0.000000 0.000000 0.000000 0.000000
                0.122280 -176.862699 0.000000 0.000000 0.440613 72.562085 0.000000 0.000000
                0.000000 0.000000 0.000000 0.000000 0.000000 0.000000 0.000000 0.000000
16250000000.000000 0.310184 7.382835 0.000000 0.000000 0.124275 -177.144920 0.000000 0.000000
                0.000000 0.000000 0.000000 0.000000 0.000000 0.000000 0.000000 0.000000
                0.122445 -177.589605 0.000000 0.000000 0.437170 71.889378 0.000000 0.000000
                0.000000 0.000000 0.000000 0.000000 0.000000 0.000000 0.000000 0.000000
16300000000.000000 0.311065 7.004673 0.000000 0.000000 0.124045 -177.712664 0.000000 0.000000
                0.000000 0.000000 0.000000 0.000000 0.000000 0.000000 0.000000 0.000000
                0.122455 -178.241668 0.000000 0.000000 0.435334 71.169275 0.000000 0.000000
                0.000000 0.000000 0.000000 0.000000 0.000000 0.000000 0.000000 0.000000
16350000000.000000 0.313533 6.299844 0.000000 0.000000 0.124498 -178.421584 0.000000 0.000000
                0.000000 0.000000 0.000000 0.000000 0.000000 0.000000 0.000000 0.000000
                0.122664 -178.856350 0.000000 0.000000 0.432894 70.337523 0.000000 0.000000
                0.000000 0.000000 0.000000 0.000000 0.000000 0.000000 0.000000 0.000000
16400000000.000000 0.312717 5.639773 0.000000 0.000000 0.134158 175.097525 0.000000 0.000000
                0.000000 0.000000 0.000000 0.000000 0.000000 0.000000 0.000000 0.000000
                0.115744 -173.624576 0.000000 0.000000 0.430685 69.618029 0.000000 0.000000
                0.000000 0.000000 0.000000 0.000000 0.000000 0.000000 0.000000 0.000000
16450000000.000000 0.312739 5.318836 0.000000 0.000000 0.146460 169.764162 0.000000 0.000000
                0.000000 0.000000 0.000000 0.000000 0.000000 0.000000 0.000000 0.000000
                0.109810 -169.235846 0.000000 0.000000 0.427636 69.134647 0.000000 0.000000
                0.000000 0.000000 0.000000 0.000000 0.000000 0.000000 0.000000 0.000000
16500000000.000000 0.314745 4.782255 0.000000 0.000000 0.150937 165.405016 0.000000 0.000000
                0.000000 0.000000 0.000000 0.000000 0.000000 0.000000 0.000000 0.000000
                0.109677 -166.748428 0.000000 0.000000 0.425367 68.323625 0.000000 0.000000
                0.000000 0.000000 0.000000 0.000000 0.000000 0.000000 0.000000 0.000000
16550000000.000000 0.314894 4.133316 0.000000 0.000000 0.153845 164.379773 0.000000 0.000000
                0.000000 0.000000 0.000000 0.000000 0.000000 0.000000 0.000000 0.000000
                0.108720 -166.882298 0.000000 0.000000 0.424002 67.696904 0.000000 0.000000
                0.000000 0.000000 0.000000 0.000000 0.000000 0.000000 0.000000 0.000000
16600000000.000000 0.316165 3.716983 0.000000 0.000000 0.153347 164.135279 0.000000 0.000000
                0.000000 0.000000 0.000000 0.000000 0.000000 0.000000 0.000000 0.000000
                0.108588 -167.981768 0.000000 0.000000 0.421135 67.232042 0.000000 0.000000
                0.000000 0.000000 0.000000 0.000000 0.000000 0.000000 0.000000 0.000000
16650000000.000000 0.316180 3.339333 0.000000 0.000000 0.162542 159.526345 0.000000 0.000000
                0.000000 0.000000 0.000000 0.000000 0.000000 0.000000 0.000000 0.000000
                0.107011 -164.974627 0.000000 0.000000 0.418762 66.524896 0.000000 0.000000
                0.000000 0.000000 0.000000 0.000000 0.000000 0.000000 0.000000 0.000000
16700000000.000000 0.316647 2.641182 0.000000 0.000000 0.168107 159.595368 0.000000 0.000000
                0.000000 0.000000 0.000000 0.000000 0.000000 0.000000 0.000000 0.000000
                0.104557 -165.443447 0.000000 0.000000 0.416135 65.836832 0.000000 0.000000
                0.000000 0.000000 0.000000 0.000000 0.000000 0.000000 0.000000 0.000000
16750000000.000000 0.316991 2.070246 0.000000 0.000000 0.147017 167.232334 0.000000 0.000000
                0.000000 0.000000 0.000000 0.000000 0.000000 0.000000 0.000000 0.000000
                0.109925 -174.676968 0.000000 0.000000 0.415091 65.123011 0.000000 0.000000
                0.000000 0.000000 0.000000 0.000000 0.000000 0.000000 0.000000 0.000000
16800000000.000000 0.317548 1.670496 0.000000 0.000000 0.131559 172.512968 0.000000 0.000000
                0.000000 0.000000 0.000000 0.000000 0.000000 0.000000 0.000000 0.000000
                0.119046 178.180347 0.000000 0.000000 0.413188 64.361486 0.000000 0.000000
                0.000000 0.000000 0.000000 0.000000 0.000000 0.000000 0.000000 0.000000
16850000000.000000 0.318823 1.201744 0.000000 0.000000 0.128303 173.454587 0.000000 0.000000
                0.000000 0.000000 0.000000 0.000000 0.000000 0.000000 0.000000 0.000000
                0.121729 175.793289 0.000000 0.000000 0.410998 63.568799 0.000000 0.000000
                0.000000 0.000000 0.000000 0.000000 0.000000 0.000000 0.000000 0.000000
16900000000.000000 0.318716 0.691997 0.000000 0.000000 0.127246 173.224077 0.000000 0.000000
                0.000000 0.000000 0.000000 0.000000 0.000000 0.000000 0.000000 0.000000
                0.123212 174.578502 0.000000 0.000000 0.409151 62.978149 0.000000 0.000000
                0.000000 0.000000 0.000000 0.000000 0.000000 0.000000 0.000000 0.000000
16950000000.000000 0.318494 0.299818 0.000000 0.000000 0.127176 172.790333 0.000000 0.000000
                0.000000 0.000000 0.000000 0.000000 0.000000 0.000000 0.000000 0.000000
                0.123891 173.642997 0.000000 0.000000 0.406601 62.563903 0.000000 0.000000
                0.000000 0.000000 0.000000 0.000000 0.000000 0.000000 0.000000 0.000000
17000000000.000000 0.319170 -0.081567 0.000000 0.000000 0.126916 172.298820 0.000000 0.000000
                0.000000 0.000000 0.000000 0.000000 0.000000 0.000000 0.000000 0.000000
                0.124815 172.464656 0.000000 0.000000 0.404495 62.246686 0.000000 0.000000
                0.000000 0.000000 0.000000 0.000000 0.000000 0.000000 0.000000 0.000000
17050000000.000000 0.319014 -0.781633 0.000000 0.000000 0.126928 171.743918 0.000000 0.000000
                0.000000 0.000000 0.000000 0.000000 0.000000 0.000000 0.000000 0.000000
                0.125523 171.693419 0.000000 0.000000 0.401176 61.691645 0.000000 0.000000
                0.000000 0.000000 0.000000 0.000000 0.000000 0.000000 0.000000 0.000000
17100000000.000000 0.319574 -1.303610 0.000000 0.000000 0.127236 171.073162 0.000000 0.000000
                0.000000 0.000000 0.000000 0.000000 0.000000 0.000000 0.000000 0.000000
                0.125666 171.004674 0.000000 0.000000 0.398475 60.910317 0.000000 0.000000
                0.000000 0.000000 0.000000 0.000000 0.000000 0.000000 0.000000 0.000000
17150000000.000000 0.319969 -1.568456 0.000000 0.000000 0.127343 170.355110 0.000000 0.000000
                0.000000 0.000000 0.000000 0.000000 0.000000 0.000000 0.000000 0.000000
                0.125671 170.269420 0.000000 0.000000 0.397542 60.157263 0.000000 0.000000
                0.000000 0.000000 0.000000 0.000000 0.000000 0.000000 0.000000 0.000000
17200000000.000000 0.319422 -2.063009 0.000000 0.000000 0.127521 169.672215 0.000000 0.000000
                0.000000 0.000000 0.000000 0.000000 0.000000 0.000000 0.000000 0.000000
                0.125992 169.566304 0.000000 0.000000 0.394446 59.446758 0.000000 0.000000
                0.000000 0.000000 0.000000 0.000000 0.000000 0.000000 0.000000 0.000000
17250000000.000000 0.319687 -2.409323 0.000000 0.000000 0.127474 169.003747 0.000000 0.000000
                0.000000 0.000000 0.000000 0.000000 0.000000 0.000000 0.000000 0.000000
                0.126173 168.877123 0.000000 0.000000 0.392008 58.879980 0.000000 0.000000
                0.000000 0.000000 0.000000 0.000000 0.000000 0.000000 0.000000 0.000000
17300000000.000000 0.320124 -2.922108 0.000000 0.000000 0.127396 168.443847 0.000000 0.000000
                0.000000 0.000000 0.000000 0.000000 0.000000 0.000000 0.000000 0.000000
                0.126160 168.187481 0.000000 0.000000 0.390163 58.050199 0.000000 0.000000
                0.000000 0.000000 0.000000 0.000000 0.000000 0.000000 0.000000 0.000000
17350000000.000000 0.319916 -3.343960 0.000000 0.000000 0.127582 167.882170 0.000000 0.000000
                0.000000 0.000000 0.000000 0.000000 0.000000 0.000000 0.000000 0.000000
                0.126220 167.470969 0.000000 0.000000 0.388041 57.499582 0.000000 0.000000
                0.000000 0.000000 0.000000 0.000000 0.000000 0.000000 0.000000 0.000000
17400000000.000000 0.321257 -3.815774 0.000000 0.000000 0.127640 167.241610 0.000000 0.000000
                0.000000 0.000000 0.000000 0.000000 0.000000 0.000000 0.000000 0.000000
                0.126290 166.835942 0.000000 0.000000 0.384413 57.001355 0.000000 0.000000
                0.000000 0.000000 0.000000 0.000000 0.000000 0.000000 0.000000 0.000000
17450000000.000000 0.321668 -4.392333 0.000000 0.000000 0.128045 166.566681 0.000000 0.000000
                0.000000 0.000000 0.000000 0.000000 0.000000 0.000000 0.000000 0.000000
                0.126477 166.140527 0.000000 0.000000 0.382415 56.117223 0.000000 0.000000
                0.000000 0.000000 0.000000 0.000000 0.000000 0.000000 0.000000 0.000000
17500000000.000000 0.321065 -4.824137 0.000000 0.000000 0.128306 165.909799 0.000000 0.000000
                0.000000 0.000000 0.000000 0.000000 0.000000 0.000000 0.000000 0.000000
                0.126689 165.403279 0.000000 0.000000 0.381483 55.302465 0.000000 0.000000
                0.000000 0.000000 0.000000 0.000000 0.000000 0.000000 0.000000 0.000000
17550000000.000000 0.321650 -5.364792 0.000000 0.000000 0.128538 165.217333 0.000000 0.000000
                0.000000 0.000000 0.000000 0.000000 0.000000 0.000000 0.000000 0.000000
                0.126881 164.716807 0.000000 0.000000 0.379059 54.555189 0.000000 0.000000
                0.000000 0.000000 0.000000 0.000000 0.000000 0.000000 0.000000 0.000000
17600000000.000000 0.322528 -6.049512 0.000000 0.000000 0.128915 164.536286 0.000000 0.000000
                0.000000 0.000000 0.000000 0.000000 0.000000 0.000000 0.000000 0.000000
                0.127141 164.097238 0.000000 0.000000 0.377414 53.945051 0.000000 0.000000
                0.000000 0.000000 0.000000 0.000000 0.000000 0.000000 0.000000 0.000000
