#6203916!Ceyear Technologies,3672E,ZKJ00317,2.1.6
!Calibration ON : 4P/1,2,3,4
!Balanced Topology: BBAL
!Sweep Type: lin Frequency Sweep
!S4P File: Measurements: <Sdd11, Sdc11, Sdd12, Sdc12>,
!<Scd11, Scc11, Scd12, Scc12>,
!<Sdd21, Sdc21, Sdd22, Sdc22>,
!<Scd21, Scc21, Scd22, Scc22>:
!Friday, March 01, 2024  15 : 07
# Hz  S  dB  R 50.000
15000000000.000000 -7.146970 86.110219 -300.000000 0.000000 -16.717087 -25.407605 -300.000000 0.000000
                -300.000000 0.000000 -300.000000 0.000000 -300.000000 0.000000 -300.000000 0.000000
                -16.588313 -25.039635 -300.000000 0.000000 -7.360299 87.597855 -300.000000 0.000000
                -300.000000 0.000000 -300.000000 0.000000 -300.000000 0.000000 -300.000000 0.000000
15050000000.000000 -7.084287 84.958155 -300.000000 0.000000 -16.443268 -26.195583 -300.000000 0.000000
                -300.000000 0.000000 -300.000000 0.000000 -300.000000 0.000000 -300.000000 0.000000
                -16.311095 -25.648139 -300.000000 0.000000 -7.480149 86.227702 -300.000000 0.000000
                -300.000000 0.000000 -300.000000 0.000000 -300.000000 0.000000 -300.000000 0.000000
15100000000.000000 -7.254031 83.572949 -300.000000 0.000000 -16.199567 -26.629312 -300.000000 0.000000
                -300.000000 0.000000 -300.000000 0.000000 -300.000000 0.000000 -300.000000 0.000000
                -16.078568 -26.511322 -300.000000 0.000000 -7.511257 85.303908 -300.000000 0.000000
                -300.000000 0.000000 -300.000000 0.000000 -300.000000 0.000000 -300.000000 0.000000
15150000000.000000 -7.371189 83.578329 -300.000000 0.000000 -16.005344 -27.726650 -300.000000 0.000000
                -300.000000 0.000000 -300.000000 0.000000 -300.000000 0.000000 -300.000000 0.000000
                -15.864447 -27.314155 -300.000000 0.000000 -7.600716 84.557805 -300.000000 0.000000
                -300.000000 0.000000 -300.000000 0.000000 -300.000000 0.000000 -300.000000 0.000000
15200000000.000000 -7.368480 81.730743 -300.000000 0.000000 -15.645500 -28.067098 -300.000000 0.000000
                -300.000000 0.000000 -300.000000 0.000000 -300.000000 0.000000 -300.000000 0.000000
                -15.505324 -27.799708 -300.000000 0.000000 -7.638398 83.236249 -300.000000 0.000000
                -300.000000 0.000000 -300.000000 0.000000 -300.000000 0.000000 -300.000000 0.000000
15250000000.000000 -7.516233 80.099478 -300.000000 0.000000 -15.497997 -30.348289 -300.000000 0.000000
                -300.000000 0.000000 -300.000000 0.000000 -300.000000 0.000000 -300.000000 0.000000
                -15.380544 -29.825035 -300.000000 0.000000 -7.691555 82.127591 -300.000000 0.000000
                -300.000000 0.000000 -300.000000 0.000000 -300.000000 0.000000 -300.000000 0.000000
15300000000.000000 -7.597167 79.756036 -300.000000 0.000000 -15.468390 -31.788518 -300.000000 0.000000
                -300.000000 0.000000 -300.000000 0.000000 -300.000000 0.000000 -300.000000 0.000000
                -15.342844 -31.334574 -300.000000 0.000000 -7.843315 81.637305 -300.000000 0.000000
                -300.000000 0.000000 -300.000000 0.000000 -300.000000 0.000000 -300.000000 0.000000
15350000000.000000 -7.596300 79.210568 -300.000000 0.000000 -15.341460 -32.228821 -300.000000 0.000000
                -300.000000 0.000000 -300.000000 0.000000 -300.000000 0.000000 -300.000000 0.000000
                -15.212806 -31.616548 -300.000000 0.000000 -7.895555 80.672264 -300.000000 0.000000
                -300.000000 0.000000 -300.000000 0.000000 -300.000000 0.000000 -300.000000 0.000000
15400000000.000000 -7.700509 78.530152 -300.000000 0.000000 -15.306004 -34.418636 -300.000000 0.000000
                -300.000000 0.000000 -300.000000 0.000000 -300.000000 0.000000 -300.000000 0.000000
                -15.145260 -33.995298 -300.000000 0.000000 -8.011862 79.856307 -300.000000 0.000000
                -300.000000 0.000000 -300.000000 0.000000 -300.000000 0.000000 -300.000000 0.000000
15450000000.000000 -7.795212 78.166330 -300.000000 0.000000 -15.212409 -36.037276 -300.000000 0.000000
                -300.000000 0.000000 -300.000000 0.000000 -300.000000 0.000000 -300.000000 0.000000
                -15.080463 -35.029147 -300.000000 0.000000 -8.187126 78.908113 -300.000000 0.000000
                -300.000000 0.000000 -300.000000 0.000000 -300.000000 0.000000 -300.000000 0.000000
15500000000.000000 -7.966929 78.858630 -300.000000 0.000000 -15.104585 -36.478273 -300.000000 0.000000
                -300.000000 0.000000 -300.000000 0.000000 -300.000000 0.000000 -300.000000 0.000000
                -14.933185 -35.468052 -300.000000 0.000000 -8.279465 78.791964 -300.000000 0.000000
                -300.000000 0.000000 -300.000000 0.000000 -300.000000 0.000000 -300.000000 0.000000
15550000000.000000 -7.937321 77.757709 -300.000000 0.000000 -15.033842 -38.592758 -300.000000 0.000000
                -300.000000 0.000000 -300.000000 0.000000 -300.000000 0.000000 -300.000000 0.000000
                -14.866593 -37.509689 -300.000000 0.000000 -8.316948 77.861745 -300.000000 0.000000
                -300.000000 0.000000 -300.000000 0.000000 -300.000000 0.000000 -300.000000 0.000000
15600000000.000000 -8.212225 75.451147 -300.000000 0.000000 -14.970372 -41.529775 -300.000000 0.000000
                -300.000000 0.000000 -300.000000 0.000000 -300.000000 0.000000 -300.000000 0.000000
                -14.785182 -40.413544 -300.000000 0.000000 -8.500617 77.184427 -300.000000 0.000000
                -300.000000 0.000000 -300.000000 0.000000 -300.000000 0.000000 -300.000000 0.000000
15650000000.000000 -8.403569 76.529425 -300.000000 0.000000 -14.897535 -42.547488 -300.000000 0.000000
                -300.000000 0.000000 -300.000000 0.000000 -300.000000 0.000000 -300.000000 0.000000
                -14.722297 -41.506242 -300.000000 0.000000 -8.600575 76.637411 -300.000000 0.000000
                -300.000000 0.000000 -300.000000 0.000000 -300.000000 0.000000 -300.000000 0.000000
15700000000.000000 -8.248751 75.078571 -300.000000 0.000000 -14.800360 -45.842449 -300.000000 0.000000
                -300.000000 0.000000 -300.000000 0.000000 -300.000000 0.000000 -300.000000 0.000000
                -14.596758 -44.797027 -300.000000 0.000000 -8.700501 76.204419 -300.000000 0.000000
                -300.000000 0.000000 -300.000000 0.000000 -300.000000 0.000000 -300.000000 0.000000
15750000000.000000 -8.486146 74.061755 -300.000000 0.000000 -15.116025 -45.558381 -300.000000 0.000000
                -300.000000 0.000000 -300.000000 0.000000 -300.000000 0.000000 -300.000000 0.000000
                -14.761510 -46.908151 -300.000000 0.000000 -8.592086 77.922477 -300.000000 0.000000
                -300.000000 0.000000 -300.000000 0.000000 -300.000000 0.000000 -300.000000 0.000000
15800000000.000000 -8.747265 77.115519 -300.000000 0.000000 -15.075323 -50.081318 -300.000000 0.000000
                -300.000000 0.000000 -300.000000 0.000000 -300.000000 0.000000 -300.000000 0.000000
                -14.867356 -49.303372 -300.000000 0.000000 -9.025484 76.357914 -300.000000 0.000000
                -300.000000 0.000000 -300.000000 0.000000 -300.000000 0.000000 -300.000000 0.000000
15850000000.000000 -8.514032 76.659410 -300.000000 0.000000 -14.979407 -52.849289 -300.000000 0.000000
                -300.000000 0.000000 -300.000000 0.000000 -300.000000 0.000000 -300.000000 0.000000
                -14.846268 -51.532392 -300.000000 0.000000 -9.018986 75.752207 -300.000000 0.000000
                -300.000000 0.000000 -300.000000 0.000000 -300.000000 0.000000 -300.000000 0.000000
15900000000.000000 -8.894944 74.670735 -300.000000 0.000000 -14.882984 -56.116984 -300.000000 0.000000
                -300.000000 0.000000 -300.000000 0.000000 -300.000000 0.000000 -300.000000 0.000000
                -14.733966 -54.409501 -300.000000 0.000000 -9.255707 74.643518 -300.000000 0.000000
                -300.000000 0.000000 -300.000000 0.000000 -300.000000 0.000000 -300.000000 0.000000
15950000000.000000 -9.185430 77.339383 -300.000000 0.000000 -15.146839 -57.960283 -300.000000 0.000000
                -300.000000 0.000000 -300.000000 0.000000 -300.000000 0.000000 -300.000000 0.000000
                -15.030330 -55.863658 -300.000000 0.000000 -9.364000 75.557565 -300.000000 0.000000
                -300.000000 0.000000 -300.000000 0.000000 -300.000000 0.000000 -300.000000 0.000000
16000000000.000000 -8.803311 77.382408 -300.000000 0.000000 -15.260666 -61.709833 -300.000000 0.000000
                -300.000000 0.000000 -300.000000 0.000000 -300.000000 0.000000 -300.000000 0.000000
                -15.204904 -59.814002 -300.000000 0.000000 -9.360906 76.138155 -300.000000 0.000000
                -300.000000 0.000000 -300.000000 0.000000 -300.000000 0.000000 -300.000000 0.000000
16050000000.000000 -9.022413 74.417750 -300.000000 0.000000 -15.421623 -64.004630 -300.000000 0.000000
                -300.000000 0.000000 -300.000000 0.000000 -300.000000 0.000000 -300.000000 0.000000
                -15.326350 -62.238524 -300.000000 0.000000 -9.278435 75.208920 -300.000000 0.000000
                -300.000000 0.000000 -300.000000 0.000000 -300.000000 0.000000 -300.000000 0.000000
16100000000.000000 -9.037482 78.434767 -300.000000 0.000000 -15.877279 -67.399571 -300.000000 0.000000
                -300.000000 0.000000 -300.000000 0.000000 -300.000000 0.000000 -300.000000 0.000000
                -15.870567 -65.526961 -300.000000 0.000000 -9.513558 75.841953 -300.000000 0.000000
                -300.000000 0.000000 -300.000000 0.000000 -300.000000 0.000000 -300.000000 0.000000
16150000000.000000 -8.743849 78.942723 -300.000000 0.000000 -16.058286 -68.250397 -300.000000 0.000000
                -300.000000 0.000000 -300.000000 0.000000 -300.000000 0.000000 -300.000000 0.000000
                -16.032639 -66.896853 -300.000000 0.000000 -9.253890 77.681833 -300.000000 0.000000
                -300.000000 0.000000 -300.000000 0.000000 -300.000000 0.000000 -300.000000 0.000000
16200000000.000000 -8.639025 77.236887 -300.000000 0.000000 -16.653003 -70.336570 -300.000000 0.000000
                -300.000000 0.000000 -300.000000 0.000000 -300.000000 0.000000 -300.000000 0.000000
                -16.600656 -68.860420 -300.000000 0.000000 -9.083480 76.306886 -300.000000 0.000000
                -300.000000 0.000000 -300.000000 0.000000 -300.000000 0.000000 -300.000000 0.000000
16250000000.000000 -8.795613 78.253898 -300.000000 0.000000 -16.925386 -70.632478 -300.000000 0.000000
                -300.000000 0.000000 -300.000000 0.000000 -300.000000 0.000000 -300.000000 0.000000
                -16.932887 -68.574989 -300.000000 0.000000 -9.181728 76.245793 -300.000000 0.000000
                -300.000000 0.000000 -300.000000 0.000000 -300.000000 0.000000 -300.000000 0.000000
16300000000.000000 -8.550648 79.333293 -300.000000 0.000000 -17.071891 -68.758871 -300.000000 0.000000
                -300.000000 0.000000 -300.000000 0.000000 -300.000000 0.000000 -300.000000 0.000000
                -16.900468 -69.108169 -300.000000 0.000000 -8.927227 77.835527 -300.000000 0.000000
                -300.000000 0.000000 -300.000000 0.000000 -300.000000 0.000000 -300.000000 0.000000
16350000000.000000 -8.474563 75.328795 -300.000000 0.000000 -17.066504 -71.720054 -300.000000 0.000000
                -300.000000 0.000000 -300.000000 0.000000 -300.000000 0.000000 -300.000000 0.000000
                -17.036133 -70.129964 -300.000000 0.000000 -8.900770 75.543542 -300.000000 0.000000
                -300.000000 0.000000 -300.000000 0.000000 -300.000000 0.000000 -300.000000 0.000000
16400000000.000000 -8.781900 76.115139 -300.000000 0.000000 -17.472300 -72.426954 -300.000000 0.000000
                -300.000000 0.000000 -300.000000 0.000000 -300.000000 0.000000 -300.000000 0.000000
                -17.317283 -72.658734 -300.000000 0.000000 -8.928415 75.680937 -300.000000 0.000000
                -300.000000 0.000000 -300.000000 0.000000 -300.000000 0.000000 -300.000000 0.000000
16450000000.000000 -8.478681 77.705030 -300.000000 0.000000 -17.731234 -72.892320 -300.000000 0.000000
                -300.000000 0.000000 -300.000000 0.000000 -300.000000 0.000000 -300.000000 0.000000
                -17.593166 -72.833651 -300.000000 0.000000 -8.881714 77.276515 -300.000000 0.000000
                -300.000000 0.000000 -300.000000 0.000000 -300.000000 0.000000 -300.000000 0.000000
16500000000.000000 -8.262894 75.028973 -300.000000 0.000000 -17.838262 -76.905738 -300.000000 0.000000
                -300.000000 0.000000 -300.000000 0.000000 -300.000000 0.000000 -300.000000 0.000000
                -17.808832 -75.608126 -300.000000 0.000000 -8.757128 75.812947 -300.000000 0.000000
                -300.000000 0.000000 -300.000000 0.000000 -300.000000 0.000000 -300.000000 0.000000
16550000000.000000 -8.579393 75.528327 -300.000000 0.000000 -18.482605 -77.170788 -300.000000 0.000000
                -300.000000 0.000000 -300.000000 0.000000 -300.000000 0.000000 -300.000000 0.000000
                -18.293311 -77.014715 -300.000000 0.000000 -8.787809 76.026730 -300.000000 0.000000
                -300.000000 0.000000 -300.000000 0.000000 -300.000000 0.000000 -300.000000 0.000000
16600000000.000000 -8.262494 77.623376 -300.000000 0.000000 -18.781707 -76.331915 -300.000000 0.000000
                -300.000000 0.000000 -300.000000 0.000000 -300.000000 0.000000 -300.000000 0.000000
                -18.749407 -75.076037 -300.000000 0.000000 -8.767025 76.841719 -300.000000 0.000000
                -300.000000 0.000000 -300.000000 0.000000 -300.000000 0.000000 -300.000000 0.000000
16650000000.000000 -7.971249 75.635340 -300.000000 0.000000 -19.217003 -77.365376 -300.000000 0.000000
                -300.000000 0.000000 -300.000000 0.000000 -300.000000 0.000000 -300.000000 0.000000
                -19.093332 -76.251391 -300.000000 0.000000 -8.343283 76.833056 -300.000000 0.000000
                -300.000000 0.000000 -300.000000 0.000000 -300.000000 0.000000 -300.000000 0.000000
16700000000.000000 -8.387026 74.077239 -300.000000 0.000000 -19.184371 -75.700465 -300.000000 0.000000
                -300.000000 0.000000 -300.000000 0.000000 -300.000000 0.000000 -300.000000 0.000000
                -19.065196 -74.685020 -300.000000 0.000000 -8.494177 74.599422 -300.000000 0.000000
                -300.000000 0.000000 -300.000000 0.000000 -300.000000 0.000000 -300.000000 0.000000
16750000000.000000 -8.274269 76.703646 -300.000000 0.000000 -19.540696 -77.654521 -300.000000 0.000000
                -300.000000 0.000000 -300.000000 0.000000 -300.000000 0.000000 -300.000000 0.000000
                -19.444880 -76.074871 -300.000000 0.000000 -8.552307 76.446610 -300.000000 0.000000
                -300.000000 0.000000 -300.000000 0.000000 -300.000000 0.000000 -300.000000 0.000000
16800000000.000000 -8.030939 74.019114 -300.000000 0.000000 -19.640520 -78.182870 -300.000000 0.000000
                -300.000000 0.000000 -300.000000 0.000000 -300.000000 0.000000 -300.000000 0.000000
                -19.434797 -77.368568 -300.000000 0.000000 -8.206819 76.232401 -300.000000 0.000000
                -300.000000 0.000000 -300.000000 0.000000 -300.000000 0.000000 -300.000000 0.000000
16850000000.000000 -8.192596 72.854865 -300.000000 0.000000 -20.032636 -80.483427 -300.000000 0.000000
                -300.000000 0.000000 -300.000000 0.000000 -300.000000 0.000000 -300.000000 0.000000
                -19.962841 -78.460787 -300.000000 0.000000 -8.383929 74.530551 -300.000000 0.000000
                -300.000000 0.000000 -300.000000 0.000000 -300.000000 0.000000 -300.000000 0.000000
16900000000.000000 -8.102530 75.033565 -300.000000 0.000000 -20.367709 -77.914421 -300.000000 0.000000
                -300.000000 0.000000 -300.000000 0.000000 -300.000000 0.000000 -300.000000 0.000000
                -20.174426 -76.818467 -300.000000 0.000000 -8.396886 75.234895 -300.000000 0.000000
                -300.000000 0.000000 -300.000000 0.000000 -300.000000 0.000000 -300.000000 0.000000
16950000000.000000 -7.810164 74.626816 -300.000000 0.000000 -20.376221 -79.926272 -300.000000 0.000000
                -300.000000 0.000000 -300.000000 0.000000 -300.000000 0.000000 -300.000000 0.000000
                -20.298678 -78.211879 -300.000000 0.000000 -8.182745 75.514500 -300.000000 0.000000
                -300.000000 0.000000 -300.000000 0.000000 -300.000000 0.000000 -300.000000 0.000000
17000000000.000000 -7.949344 72.791859 -300.000000 0.000000 -20.572309 -78.654273 -300.000000 0.000000
                -300.000000 0.000000 -300.000000 0.000000 -300.000000 0.000000 -300.000000 0.000000
                -20.427972 -76.998962 -300.000000 0.000000 -8.163298 73.687342 -300.000000 0.000000
                -300.000000 0.000000 -300.000000 0.000000 -300.000000 0.000000 -300.000000 0.000000
17050000000.000000 -8.061412 75.702212 -300.000000 0.000000 -20.985063 -80.896391 -300.000000 0.000000
                -300.000000 0.000000 -300.000000 0.000000 -300.000000 0.000000 -300.000000 0.000000
                -20.873070 -78.889448 -300.000000 0.000000 -8.349901 75.164803 -300.000000 0.000000
                -300.000000 0.000000 -300.000000 0.000000 -300.000000 0.000000 -300.000000 0.000000
17100000000.000000 -7.757215 74.243109 -300.000000 0.000000 -21.144187 -81.023753 -300.000000 0.000000
                -300.000000 0.000000 -300.000000 0.000000 -300.000000 0.000000 -300.000000 0.000000
                -21.024920 -77.982150 -300.000000 0.000000 -8.074868 75.519887 -300.000000 0.000000
                -300.000000 0.000000 -300.000000 0.000000 -300.000000 0.000000 -300.000000 0.000000
17150000000.000000 -7.795222 71.684062 -300.000000 0.000000 -21.528379 -82.350704 -300.000000 0.000000
                -300.000000 0.000000 -300.000000 0.000000 -300.000000 0.000000 -300.000000 0.000000
                -21.369386 -79.012482 -300.000000 0.000000 -8.037223 73.381004 -300.000000 0.000000
                -300.000000 0.000000 -300.000000 0.000000 -300.000000 0.000000 -300.000000 0.000000
17200000000.000000 -7.979606 72.758895 -300.000000 0.000000 -21.434742 -83.481398 -300.000000 0.000000
                -300.000000 0.000000 -300.000000 0.000000 -300.000000 0.000000 -300.000000 0.000000
                -21.324672 -79.766076 -300.000000 0.000000 -8.268914 73.511947 -300.000000 0.000000
                -300.000000 0.000000 -300.000000 0.000000 -300.000000 0.000000 -300.000000 0.000000
17250000000.000000 -7.603302 72.473139 -300.000000 0.000000 -21.799289 -81.652022 -300.000000 0.000000
                -300.000000 0.000000 -300.000000 0.000000 -300.000000 0.000000 -300.000000 0.000000
                -21.572741 -77.367871 -300.000000 0.000000 -8.041587 74.515859 -300.000000 0.000000
                -300.000000 0.000000 -300.000000 0.000000 -300.000000 0.000000 -300.000000 0.000000
17300000000.000000 -7.580538 70.766387 -300.000000 0.000000 -21.857883 -81.782034 -300.000000 0.000000
                -300.000000 0.000000 -300.000000 0.000000 -300.000000 0.000000 -300.000000 0.000000
                -21.657019 -77.893427 -300.000000 0.000000 -8.022377 72.125550 -300.000000 0.000000
                -300.000000 0.000000 -300.000000 0.000000 -300.000000 0.000000 -300.000000 0.000000
17350000000.000000 -7.876017 72.794917 -300.000000 0.000000 -22.389924 -74.605101 -300.000000 0.000000
                -300.000000 0.000000 -300.000000 0.000000 -300.000000 0.000000 -300.000000 0.000000
                -21.742742 -78.631510 -300.000000 0.000000 -7.799392 74.416509 -300.000000 0.000000
