#6203880!Ceyear Technologies,3672E,ZKJ00317,2.1.6
!Calibration ON : 4P/1,2,3,4
!Balanced Topology: BBAL
!Sweep Type: lin Frequency Sweep
!S4P File: Measurements: <Sdd11, Sdc11, Sdd12, Sdc12>,
!<Scd11, Scc11, Scd12, Scc12>,
!<Sdd21, Sdc21, Sdd22, Sdc22>,
!<Scd21, Scc21, Scd22, Scc22>:
!Friday, March 01, 2024  15 : 05
# Hz  S  dB  R 50.000
15000000000.000000 -5.924405 61.324011 -300.000000 0.000000 -19.124277 -158.399097 -300.000000 0.000000
                -300.000000 0.000000 -300.000000 0.000000 -300.000000 0.000000 -300.000000 0.000000
                -19.592667 -158.616892 -300.000000 0.000000 -5.776410 59.513526 -300.000000 0.000000
                -300.000000 0.000000 -300.000000 0.000000 -300.000000 0.000000 -300.000000 0.000000
15050000000.000000 -5.944921 61.304904 -300.000000 0.000000 -19.728173 -156.580405 -300.000000 0.000000
                -300.000000 0.000000 -300.000000 0.000000 -300.000000 0.000000 -300.000000 0.000000
                -18.895479 -153.277491 -300.000000 0.000000 -5.660301 58.223478 -300.000000 0.000000
                -300.000000 0.000000 -300.000000 0.000000 -300.000000 0.000000 -300.000000 0.000000
15100000000.000000 -5.964091 59.216762 -300.000000 0.000000 -19.592322 -155.671956 -300.000000 0.000000
                -300.000000 0.000000 -300.000000 0.000000 -300.000000 0.000000 -300.000000 0.000000
                -19.811013 -155.313597 -300.000000 0.000000 -5.782791 57.427755 -300.000000 0.000000
                -300.000000 0.000000 -300.000000 0.000000 -300.000000 0.000000 -300.000000 0.000000
15150000000.000000 -6.147801 59.291588 -300.000000 0.000000 -19.600417 -153.308787 -300.000000 0.000000
                -300.000000 0.000000 -300.000000 0.000000 -300.000000 0.000000 -300.000000 0.000000
                -19.306276 -152.200208 -300.000000 0.000000 -5.831250 56.578248 -300.000000 0.000000
                -300.000000 0.000000 -300.000000 0.000000 -300.000000 0.000000 -300.000000 0.000000
15200000000.000000 -6.084320 57.950883 -300.000000 0.000000 -19.971379 -151.579311 -300.000000 0.000000
                -300.000000 0.000000 -300.000000 0.000000 -300.000000 0.000000 -300.000000 0.000000
                -19.705689 -149.459241 -300.000000 0.000000 -5.791358 55.715393 -300.000000 0.000000
                -300.000000 0.000000 -300.000000 0.000000 -300.000000 0.000000 -300.000000 0.000000
15250000000.000000 -6.187610 56.307489 -300.000000 0.000000 -19.501488 -150.385270 -300.000000 0.000000
                -300.000000 0.000000 -300.000000 0.000000 -300.000000 0.000000 -300.000000 0.000000
                -19.478658 -148.985429 -300.000000 0.000000 -5.920814 54.749046 -300.000000 0.000000
                -300.000000 0.000000 -300.000000 0.000000 -300.000000 0.000000 -300.000000 0.000000
15300000000.000000 -6.305294 56.404237 -300.000000 0.000000 -19.689615 -148.885039 -300.000000 0.000000
                -300.000000 0.000000 -300.000000 0.000000 -300.000000 0.000000 -300.000000 0.000000
                -18.834392 -146.947164 -300.000000 0.000000 -5.908522 53.984274 -300.000000 0.000000
                -300.000000 0.000000 -300.000000 0.000000 -300.000000 0.000000 -300.000000 0.000000
15350000000.000000 -6.258025 55.481956 -300.000000 0.000000 -19.339764 -149.302314 -300.000000 0.000000
                -300.000000 0.000000 -300.000000 0.000000 -300.000000 0.000000 -300.000000 0.000000
                -19.643022 -148.399389 -300.000000 0.000000 -6.113137 53.509175 -300.000000 0.000000
                -300.000000 0.000000 -300.000000 0.000000 -300.000000 0.000000 -300.000000 0.000000
15400000000.000000 -6.423156 55.443217 -300.000000 0.000000 -19.562425 -147.124929 -300.000000 0.000000
                -300.000000 0.000000 -300.000000 0.000000 -300.000000 0.000000 -300.000000 0.000000
                -18.708917 -144.786602 -300.000000 0.000000 -5.977329 52.595820 -300.000000 0.000000
                -300.000000 0.000000 -300.000000 0.000000 -300.000000 0.000000 -300.000000 0.000000
15450000000.000000 -6.410665 54.422587 -300.000000 0.000000 -18.770931 -148.465151 -300.000000 0.000000
                -300.000000 0.000000 -300.000000 0.000000 -300.000000 0.000000 -300.000000 0.000000
                -19.232339 -147.413705 -300.000000 0.000000 -6.313510 52.098627 -300.000000 0.000000
                -300.000000 0.000000 -300.000000 0.000000 -300.000000 0.000000 -300.000000 0.000000
15500000000.000000 -6.743775 55.548303 -300.000000 0.000000 -19.306486 -145.528676 -300.000000 0.000000
                -300.000000 0.000000 -300.000000 0.000000 -300.000000 0.000000 -300.000000 0.000000
                -18.041400 -142.916070 -300.000000 0.000000 -6.143011 51.479768 -300.000000 0.000000
                -300.000000 0.000000 -300.000000 0.000000 -300.000000 0.000000 -300.000000 0.000000
15550000000.000000 -6.535972 53.610355 -300.000000 0.000000 -18.550958 -147.440610 -300.000000 0.000000
                -300.000000 0.000000 -300.000000 0.000000 -300.000000 0.000000 -300.000000 0.000000
                -19.096011 -146.625092 -300.000000 0.000000 -6.364237 51.229011 -300.000000 0.000000
                -300.000000 0.000000 -300.000000 0.000000 -300.000000 0.000000 -300.000000 0.000000
15600000000.000000 -6.694764 52.498394 -300.000000 0.000000 -18.453224 -145.392844 -300.000000 0.000000
                -300.000000 0.000000 -300.000000 0.000000 -300.000000 0.000000 -300.000000 0.000000
                -17.917703 -149.612884 -300.000000 0.000000 -6.323061 50.024959 -300.000000 0.000000
                -300.000000 0.000000 -300.000000 0.000000 -300.000000 0.000000 -300.000000 0.000000
15650000000.000000 -6.954734 52.316718 -300.000000 0.000000 -18.060796 -146.811750 -300.000000 0.000000
                -300.000000 0.000000 -300.000000 0.000000 -300.000000 0.000000 -300.000000 0.000000
                -18.316492 -144.939419 -300.000000 0.000000 -6.551339 50.018385 -300.000000 0.000000
                -300.000000 0.000000 -300.000000 0.000000 -300.000000 0.000000 -300.000000 0.000000
15700000000.000000 -6.921296 52.361262 -300.000000 0.000000 -17.759679 -144.832047 -300.000000 0.000000
                -300.000000 0.000000 -300.000000 0.000000 -300.000000 0.000000 -300.000000 0.000000
                -17.219377 -144.065398 -300.000000 0.000000 -6.536423 49.267326 -300.000000 0.000000
                -300.000000 0.000000 -300.000000 0.000000 -300.000000 0.000000 -300.000000 0.000000
15750000000.000000 -7.052470 51.006371 -300.000000 0.000000 -17.356922 -146.992408 -300.000000 0.000000
                -300.000000 0.000000 -300.000000 0.000000 -300.000000 0.000000 -300.000000 0.000000
                -17.102762 -146.096258 -300.000000 0.000000 -6.630586 48.672885 -300.000000 0.000000
                -300.000000 0.000000 -300.000000 0.000000 -300.000000 0.000000 -300.000000 0.000000
15800000000.000000 -7.364601 52.923184 -300.000000 0.000000 -16.922919 -149.309665 -300.000000 0.000000
                -300.000000 0.000000 -300.000000 0.000000 -300.000000 0.000000 -300.000000 0.000000
                -16.764558 -148.519625 -300.000000 0.000000 -6.914185 49.228939 -300.000000 0.000000
                -300.000000 0.000000 -300.000000 0.000000 -300.000000 0.000000 -300.000000 0.000000
15850000000.000000 -7.260648 53.589704 -300.000000 0.000000 -16.890333 -148.737356 -300.000000 0.000000
                -300.000000 0.000000 -300.000000 0.000000 -300.000000 0.000000 -300.000000 0.000000
                -16.270112 -147.500279 -300.000000 0.000000 -6.765308 49.031078 -300.000000 0.000000
                -300.000000 0.000000 -300.000000 0.000000 -300.000000 0.000000 -300.000000 0.000000
15900000000.000000 -7.362441 50.576090 -300.000000 0.000000 -16.094484 -151.513716 -300.000000 0.000000
                -300.000000 0.000000 -300.000000 0.000000 -300.000000 0.000000 -300.000000 0.000000
                -16.486351 -150.771810 -300.000000 0.000000 -7.125917 48.707597 -300.000000 0.000000
                -300.000000 0.000000 -300.000000 0.000000 -300.000000 0.000000 -300.000000 0.000000
15950000000.000000 -7.851614 53.759338 -300.000000 0.000000 -16.226793 -151.814310 -300.000000 0.000000
                -300.000000 0.000000 -300.000000 0.000000 -300.000000 0.000000 -300.000000 0.000000
                -15.307311 -151.353176 -300.000000 0.000000 -6.999356 48.477958 -300.000000 0.000000
                -300.000000 0.000000 -300.000000 0.000000 -300.000000 0.000000 -300.000000 0.000000
16000000000.000000 -7.454179 52.754011 -300.000000 0.000000 -15.575695 -156.480086 -300.000000 0.000000
                -300.000000 0.000000 -300.000000 0.000000 -300.000000 0.000000 -300.000000 0.000000
                -16.001185 -155.324074 -300.000000 0.000000 -7.267115 50.346642 -300.000000 0.000000
                -300.000000 0.000000 -300.000000 0.000000 -300.000000 0.000000 -300.000000 0.000000
16050000000.000000 -7.640784 52.037557 -300.000000 0.000000 -15.616351 -156.350419 -300.000000 0.000000
                -300.000000 0.000000 -300.000000 0.000000 -300.000000 0.000000 -300.000000 0.000000
                -14.898542 -155.747488 -300.000000 0.000000 -7.029441 48.753943 -300.000000 0.000000
                -300.000000 0.000000 -300.000000 0.000000 -300.000000 0.000000 -300.000000 0.000000
16100000000.000000 -7.688353 53.585476 -300.000000 0.000000 -15.074953 -162.537865 -300.000000 0.000000
                -300.000000 0.000000 -300.000000 0.000000 -300.000000 0.000000 -300.000000 0.000000
                -15.451532 -161.090732 -300.000000 0.000000 -7.404898 50.512962 -300.000000 0.000000
                -300.000000 0.000000 -300.000000 0.000000 -300.000000 0.000000 -300.000000 0.000000
16150000000.000000 -7.536538 56.390462 -300.000000 0.000000 -15.223194 -162.407543 -300.000000 0.000000
                -300.000000 0.000000 -300.000000 0.000000 -300.000000 0.000000 -300.000000 0.000000
                -14.527450 -162.544852 -300.000000 0.000000 -7.180189 50.760434 -300.000000 0.000000
                -300.000000 0.000000 -300.000000 0.000000 -300.000000 0.000000 -300.000000 0.000000
16200000000.000000 -7.340723 53.529477 -300.000000 0.000000 -15.053783 -167.543804 -300.000000 0.000000
                -300.000000 0.000000 -300.000000 0.000000 -300.000000 0.000000 -300.000000 0.000000
                -15.260040 -166.873641 -300.000000 0.000000 -7.113472 51.084260 -300.000000 0.000000
                -300.000000 0.000000 -300.000000 0.000000 -300.000000 0.000000 -300.000000 0.000000
16250000000.000000 -7.575641 54.973660 -300.000000 0.000000 -15.132890 -168.896437 -300.000000 0.000000
                -300.000000 0.000000 -300.000000 0.000000 -300.000000 0.000000 -300.000000 0.000000
                -14.782032 -167.972438 -300.000000 0.000000 -7.138229 50.377024 -300.000000 0.000000
                -300.000000 0.000000 -300.000000 0.000000 -300.000000 0.000000 -300.000000 0.000000
16300000000.000000 -7.407592 55.776277 -300.000000 0.000000 -15.250819 -170.128092 -300.000000 0.000000
                -300.000000 0.000000 -300.000000 0.000000 -300.000000 0.000000 -300.000000 0.000000
                -15.090161 -169.037986 -300.000000 0.000000 -7.111141 51.386403 -300.000000 0.000000
                -300.000000 0.000000 -300.000000 0.000000 -300.000000 0.000000 -300.000000 0.000000
16350000000.000000 -7.224894 52.774585 -300.000000 0.000000 -15.257143 -171.789716 -300.000000 0.000000
                -300.000000 0.000000 -300.000000 0.000000 -300.000000 0.000000 -300.000000 0.000000
                -15.125921 -170.664096 -300.000000 0.000000 -6.955241 50.923284 -300.000000 0.000000
                -300.000000 0.000000 -300.000000 0.000000 -300.000000 0.000000 -300.000000 0.000000
16400000000.000000 -7.553773 53.621333 -300.000000 0.000000 -15.114201 -172.779471 -300.000000 0.000000
                -300.000000 0.000000 -300.000000 0.000000 -300.000000 0.000000 -300.000000 0.000000
                -14.610460 -171.205453 -300.000000 0.000000 -7.030062 49.377193 -300.000000 0.000000
                -300.000000 0.000000 -300.000000 0.000000 -300.000000 0.000000 -300.000000 0.000000
16450000000.000000 -7.340637 54.448801 -300.000000 0.000000 -14.888589 -175.573488 -300.000000 0.000000
                -300.000000 0.000000 -300.000000 0.000000 -300.000000 0.000000 -300.000000 0.000000
                -15.035052 -175.010206 -300.000000 0.000000 -7.220278 51.136120 -300.000000 0.000000
                -300.000000 0.000000 -300.000000 0.000000 -300.000000 0.000000 -300.000000 0.000000
16500000000.000000 -7.127229 54.105312 -300.000000 0.000000 -14.971938 -176.095186 -300.000000 0.000000
                -300.000000 0.000000 -300.000000 0.000000 -300.000000 0.000000 -300.000000 0.000000
                -14.461969 -174.571841 -300.000000 0.000000 -6.911488 50.237441 -300.000000 0.000000
                -300.000000 0.000000 -300.000000 0.000000 -300.000000 0.000000 -300.000000 0.000000
16550000000.000000 -7.317954 52.558922 -300.000000 0.000000 -14.585811 -179.572332 -300.000000 0.000000
                -300.000000 0.000000 -300.000000 0.000000 -300.000000 0.000000 -300.000000 0.000000
                -14.941301 -179.315670 -300.000000 0.000000 -7.165780 50.352109 -300.000000 0.000000
                -300.000000 0.000000 -300.000000 0.000000 -300.000000 0.000000 -300.000000 0.000000
16600000000.000000 -7.237961 56.293358 -300.000000 0.000000 -14.999908 179.521490 -300.000000 0.000000
                -300.000000 0.000000 -300.000000 0.000000 -300.000000 0.000000 -300.000000 0.000000
                -14.418217 -178.516058 -300.000000 0.000000 -7.029299 50.055663 -300.000000 0.000000
                -300.000000 0.000000 -300.000000 0.000000 -300.000000 0.000000 -300.000000 0.000000
16650000000.000000 -6.860374 53.609247 -300.000000 0.000000 -14.783549 176.451346 -300.000000 0.000000
                -300.000000 0.000000 -300.000000 0.000000 -300.000000 0.000000 -300.000000 0.000000
                -15.051019 176.354248 -300.000000 0.000000 -6.891276 51.255586 -300.000000 0.000000
                -300.000000 0.000000 -300.000000 0.000000 -300.000000 0.000000 -300.000000 0.000000
16700000000.000000 -7.240179 52.493227 -300.000000 0.000000 -15.112839 176.971647 -300.000000 0.000000
                -300.000000 0.000000 -300.000000 0.000000 -300.000000 0.000000 -300.000000 0.000000
                -14.773309 178.787116 -300.000000 0.000000 -6.855701 48.750422 -300.000000 0.000000
                -300.000000 0.000000 -300.000000 0.000000 -300.000000 0.000000 -300.000000 0.000000
16750000000.000000 -7.215208 54.417980 -300.000000 0.000000 -14.818677 174.738221 -300.000000 0.000000
                -300.000000 0.000000 -300.000000 0.000000 -300.000000 0.000000 -300.000000 0.000000
                -14.847756 175.654066 -300.000000 0.000000 -7.052391 49.960985 -300.000000 0.000000
                -300.000000 0.000000 -300.000000 0.000000 -300.000000 0.000000 -300.000000 0.000000
16800000000.000000 -6.996914 52.780069 -300.000000 0.000000 -14.937967 174.020117 -300.000000 0.000000
                -300.000000 0.000000 -300.000000 0.000000 -300.000000 0.000000 -300.000000 0.000000
                -14.857427 175.252588 -300.000000 0.000000 -6.823428 50.332183 -300.000000 0.000000
                -300.000000 0.000000 -300.000000 0.000000 -300.000000 0.000000 -300.000000 0.000000
16850000000.000000 -7.088206 51.997975 -300.000000 0.000000 -14.880522 173.073740 -300.000000 0.000000
                -300.000000 0.000000 -300.000000 0.000000 -300.000000 0.000000 -300.000000 0.000000
                -14.624930 174.495979 -300.000000 0.000000 -6.831490 48.389193 -300.000000 0.000000
                -300.000000 0.000000 -300.000000 0.000000 -300.000000 0.000000 -300.000000 0.000000
16900000000.000000 -7.098187 53.071768 -300.000000 0.000000 -14.831587 171.195683 -300.000000 0.000000
                -300.000000 0.000000 -300.000000 0.000000 -300.000000 0.000000 -300.000000 0.000000
                -14.975984 171.461223 -300.000000 0.000000 -7.038929 48.826191 -300.000000 0.000000
                -300.000000 0.000000 -300.000000 0.000000 -300.000000 0.000000 -300.000000 0.000000
16950000000.000000 -6.930643 54.247307 -300.000000 0.000000 -15.055686 170.631472 -300.000000 0.000000
                -300.000000 0.000000 -300.000000 0.000000 -300.000000 0.000000 -300.000000 0.000000
                -14.704832 172.955565 -300.000000 0.000000 -6.759448 49.239916 -300.000000 0.000000
                -300.000000 0.000000 -300.000000 0.000000 -300.000000 0.000000 -300.000000 0.000000
17000000000.000000 -6.907555 51.392181 -300.000000 0.000000 -14.838677 169.186782 -300.000000 0.000000
                -300.000000 0.000000 -300.000000 0.000000 -300.000000 0.000000 -300.000000 0.000000
                -15.151944 168.981457 -300.000000 0.000000 -6.845068 48.482923 -300.000000 0.000000
                -300.000000 0.000000 -300.000000 0.000000 -300.000000 0.000000 -300.000000 0.000000
17050000000.000000 -7.016341 54.686140 -300.000000 0.000000 -14.928812 168.073894 -300.000000 0.000000
                -300.000000 0.000000 -300.000000 0.000000 -300.000000 0.000000 -300.000000 0.000000
                -14.175348 167.004950 -300.000000 0.000000 -6.889053 48.079479 -300.000000 0.000000
                -300.000000 0.000000 -300.000000 0.000000 -300.000000 0.000000 -300.000000 0.000000
17100000000.000000 -6.831545 52.355983 -300.000000 0.000000 -14.778755 166.822887 -300.000000 0.000000
                -300.000000 0.000000 -300.000000 0.000000 -300.000000 0.000000 -300.000000 0.000000
                -15.039968 165.098937 -300.000000 0.000000 -6.868083 49.151917 -300.000000 0.000000
                -300.000000 0.000000 -300.000000 0.000000 -300.000000 0.000000 -300.000000 0.000000
17150000000.000000 -6.469282 50.694277 -300.000000 0.000000 -15.003807 164.780326 -300.000000 0.000000
                -300.000000 0.000000 -300.000000 0.000000 -300.000000 0.000000 -300.000000 0.000000
                -14.269278 156.651175 -300.000000 0.000000 -6.601548 47.816677 -300.000000 0.000000
                -300.000000 0.000000 -300.000000 0.000000 -300.000000 0.000000 -300.000000 0.000000
17200000000.000000 -6.612353 50.775230 -300.000000 0.000000 -14.811523 164.476985 -300.000000 0.000000
                -300.000000 0.000000 -300.000000 0.000000 -300.000000 0.000000 -300.000000 0.000000
                -14.349428 154.241825 -300.000000 0.000000 -6.899794 47.465035 -300.000000 0.000000
                -300.000000 0.000000 -300.000000 0.000000 -300.000000 0.000000 -300.000000 0.000000
17250000000.000000 -6.819169 51.978422 -300.000000 0.000000 -15.059451 163.121831 -300.000000 0.000000
                -300.000000 0.000000 -300.000000 0.000000 -300.000000 0.000000 -300.000000 0.000000
                -14.897105 165.171944 -300.000000 0.000000 -6.767058 48.362887 -300.000000 0.000000
                -300.000000 0.000000 -300.000000 0.000000 -300.000000 0.000000 -300.000000 0.000000
17300000000.000000 -6.132298 50.296957 -300.000000 0.000000 -15.152694 162.555136 -300.000000 0.000000
                -300.000000 0.000000 -300.000000 0.000000 -300.000000 0.000000 -300.000000 0.000000
                -13.965860 149.404712 -300.000000 0.000000 -6.649483 46.603222 -300.000000 0.000000
                -300.000000 0.000000 -300.000000 0.000000 -300.000000 0.000000 -300.000000 0.000000
17350000000.000000 -7.103321 51.266899 -300.000000 0.000000 -14.895768 162.054865 -300.000000 0.000000
                -300.000000 0.000000 -300.000000 0.000000 -300.000000 0.000000 -300.000000 0.000000
