#6203912!Ceyear Technologies,3672E,ZKJ00317,2.1.6
!Calibration ON : 4P/1,2,3,4
!Balanced Topology: BBAL
!Sweep Type: lin Frequency Sweep
!S4P File: Measurements: <Sdd11, Sdc11, Sdd12, Sdc12>,
!<Scd11, Scc11, Scd12, Scc12>,
!<Sdd21, Sdc21, Sdd22, Sdc22>,
!<Scd21, Scc21, Scd22, Scc22>:
!Friday, March 01, 2024  15 : 08
# Hz  S  dB  R 50.000
15000000000.000000 -5.941662 61.682482 -300.000000 0.000000 -19.668307 -156.805271 -300.000000 0.000000
                -300.000000 0.000000 -300.000000 0.000000 -300.000000 0.000000 -300.000000 0.000000
                -19.718684 -156.981422 -300.000000 0.000000 -5.640973 59.035151 -300.000000 0.000000
                -300.000000 0.000000 -300.000000 0.000000 -300.000000 0.000000 -300.000000 0.000000
15050000000.000000 -5.870695 61.119951 -300.000000 0.000000 -19.792936 -154.797155 -300.000000 0.000000
                -300.000000 0.000000 -300.000000 0.000000 -300.000000 0.000000 -300.000000 0.000000
                -19.859278 -154.988999 -300.000000 0.000000 -5.705612 57.578229 -300.000000 0.000000
                -300.000000 0.000000 -300.000000 0.000000 -300.000000 0.000000 -300.000000 0.000000
15100000000.000000 -5.974787 59.585309 -300.000000 0.000000 -19.928037 -153.505378 -300.000000 0.000000
                -300.000000 0.000000 -300.000000 0.000000 -300.000000 0.000000 -300.000000 0.000000
                -20.014308 -153.703524 -300.000000 0.000000 -5.741896 56.762293 -300.000000 0.000000
                -300.000000 0.000000 -300.000000 0.000000 -300.000000 0.000000 -300.000000 0.000000
15150000000.000000 -6.107232 59.419562 -300.000000 0.000000 -19.923183 -151.856050 -300.000000 0.000000
                -300.000000 0.000000 -300.000000 0.000000 -300.000000 0.000000 -300.000000 0.000000
                -19.995990 -151.923620 -300.000000 0.000000 -5.784491 56.306809 -300.000000 0.000000
                -300.000000 0.000000 -300.000000 0.000000 -300.000000 0.000000 -300.000000 0.000000
15200000000.000000 -6.067795 57.999621 -300.000000 0.000000 -20.131241 -149.073603 -300.000000 0.000000
                -300.000000 0.000000 -300.000000 0.000000 -300.000000 0.000000 -300.000000 0.000000
                -20.158826 -149.016532 -300.000000 0.000000 -5.787480 54.896163 -300.000000 0.000000
                -300.000000 0.000000 -300.000000 0.000000 -300.000000 0.000000 -300.000000 0.000000
15250000000.000000 -6.170800 56.472921 -300.000000 0.000000 -19.879513 -147.504096 -300.000000 0.000000
                -300.000000 0.000000 -300.000000 0.000000 -300.000000 0.000000 -300.000000 0.000000
                -19.931847 -147.562342 -300.000000 0.000000 -5.840224 54.019721 -300.000000 0.000000
                -300.000000 0.000000 -300.000000 0.000000 -300.000000 0.000000 -300.000000 0.000000
15300000000.000000 -6.242111 56.074774 -300.000000 0.000000 -19.714798 -147.121843 -300.000000 0.000000
                -300.000000 0.000000 -300.000000 0.000000 -300.000000 0.000000 -300.000000 0.000000
                -19.779287 -147.200604 -300.000000 0.000000 -5.943331 53.530807 -300.000000 0.000000
                -300.000000 0.000000 -300.000000 0.000000 -300.000000 0.000000 -300.000000 0.000000
15350000000.000000 -6.271618 55.932023 -300.000000 0.000000 -19.806116 -145.890264 -300.000000 0.000000
                -300.000000 0.000000 -300.000000 0.000000 -300.000000 0.000000 -300.000000 0.000000
                -19.799729 -145.820354 -300.000000 0.000000 -5.973430 52.612797 -300.000000 0.000000
                -300.000000 0.000000 -300.000000 0.000000 -300.000000 0.000000 -300.000000 0.000000
15400000000.000000 -6.342615 55.250911 -300.000000 0.000000 -19.463554 -145.070304 -300.000000 0.000000
                -300.000000 0.000000 -300.000000 0.000000 -300.000000 0.000000 -300.000000 0.000000
                -19.567024 -145.300206 -300.000000 0.000000 -6.052638 51.908689 -300.000000 0.000000
                -300.000000 0.000000 -300.000000 0.000000 -300.000000 0.000000 -300.000000 0.000000
15450000000.000000 -6.443723 54.896472 -300.000000 0.000000 -19.206859 -144.686557 -300.000000 0.000000
                -300.000000 0.000000 -300.000000 0.000000 -300.000000 0.000000 -300.000000 0.000000
                -19.230599 -144.601305 -300.000000 0.000000 -6.154445 51.101331 -300.000000 0.000000
                -300.000000 0.000000 -300.000000 0.000000 -300.000000 0.000000 -300.000000 0.000000
15500000000.000000 -6.628495 55.122756 -300.000000 0.000000 -19.167563 -143.464445 -300.000000 0.000000
                -300.000000 0.000000 -300.000000 0.000000 -300.000000 0.000000 -300.000000 0.000000
                -19.223238 -143.627075 -300.000000 0.000000 -6.215182 50.647138 -300.000000 0.000000
                -300.000000 0.000000 -300.000000 0.000000 -300.000000 0.000000 -300.000000 0.000000
15550000000.000000 -6.593480 54.318312 -300.000000 0.000000 -18.880924 -143.614794 -300.000000 0.000000
                -300.000000 0.000000 -300.000000 0.000000 -300.000000 0.000000 -300.000000 0.000000
                -18.938184 -143.627977 -300.000000 0.000000 -6.243305 50.131386 -300.000000 0.000000
                -300.000000 0.000000 -300.000000 0.000000 -300.000000 0.000000 -300.000000 0.000000
15600000000.000000 -6.767613 51.954140 -300.000000 0.000000 -18.394282 -143.392780 -300.000000 0.000000
                -300.000000 0.000000 -300.000000 0.000000 -300.000000 0.000000 -300.000000 0.000000
                -18.482222 -143.378127 -300.000000 0.000000 -6.360197 49.293254 -300.000000 0.000000
                -300.000000 0.000000 -300.000000 0.000000 -300.000000 0.000000 -300.000000 0.000000
15650000000.000000 -7.008250 52.649686 -300.000000 0.000000 -18.274261 -143.014753 -300.000000 0.000000
                -300.000000 0.000000 -300.000000 0.000000 -300.000000 0.000000 -300.000000 0.000000
                -18.272861 -142.871982 -300.000000 0.000000 -6.439714 48.689338 -300.000000 0.000000
                -300.000000 0.000000 -300.000000 0.000000 -300.000000 0.000000 -300.000000 0.000000
15700000000.000000 -6.865281 52.118013 -300.000000 0.000000 -17.741675 -142.468160 -300.000000 0.000000
                -300.000000 0.000000 -300.000000 0.000000 -300.000000 0.000000 -300.000000 0.000000
                -17.831709 -142.545329 -300.000000 0.000000 -6.554372 48.315902 -300.000000 0.000000
                -300.000000 0.000000 -300.000000 0.000000 -300.000000 0.000000 -300.000000 0.000000
15750000000.000000 -7.044940 50.977582 -300.000000 0.000000 -17.414083 -144.800841 -300.000000 0.000000
                -300.000000 0.000000 -300.000000 0.000000 -300.000000 0.000000 -300.000000 0.000000
                -17.445514 -144.650166 -300.000000 0.000000 -6.609443 47.861549 -300.000000 0.000000
                -300.000000 0.000000 -300.000000 0.000000 -300.000000 0.000000 -300.000000 0.000000
15800000000.000000 -7.367275 53.012612 -300.000000 0.000000 -17.074545 -146.252233 -300.000000 0.000000
                -300.000000 0.000000 -300.000000 0.000000 -300.000000 0.000000 -300.000000 0.000000
                -17.168616 -146.297599 -300.000000 0.000000 -6.830694 47.945788 -300.000000 0.000000
                -300.000000 0.000000 -300.000000 0.000000 -300.000000 0.000000 -300.000000 0.000000
15850000000.000000 -7.201991 53.283777 -300.000000 0.000000 -16.812988 -146.980513 -300.000000 0.000000
                -300.000000 0.000000 -300.000000 0.000000 -300.000000 0.000000 -300.000000 0.000000
                -16.844230 -146.985511 -300.000000 0.000000 -6.830116 48.178925 -300.000000 0.000000
                -300.000000 0.000000 -300.000000 0.000000 -300.000000 0.000000 -300.000000 0.000000
15900000000.000000 -7.454016 50.948664 -300.000000 0.000000 -16.359447 -147.737294 -300.000000 0.000000
                -300.000000 0.000000 -300.000000 0.000000 -300.000000 0.000000 -300.000000 0.000000
                -16.446671 -147.588810 -300.000000 0.000000 -6.953929 47.226840 -300.000000 0.000000
                -300.000000 0.000000 -300.000000 0.000000 -300.000000 0.000000 -300.000000 0.000000
15950000000.000000 -7.803418 52.708833 -300.000000 0.000000 -16.110197 -150.208084 -300.000000 0.000000
                -300.000000 0.000000 -300.000000 0.000000 -300.000000 0.000000 -300.000000 0.000000
                -16.170116 -150.235544 -300.000000 0.000000 -7.081700 47.528375 -300.000000 0.000000
                -300.000000 0.000000 -300.000000 0.000000 -300.000000 0.000000 -300.000000 0.000000
16000000000.000000 -7.517355 53.442683 -300.000000 0.000000 -15.852303 -153.171892 -300.000000 0.000000
                -300.000000 0.000000 -300.000000 0.000000 -300.000000 0.000000 -300.000000 0.000000
                -15.918229 -153.178370 -300.000000 0.000000 -7.126212 48.859418 -300.000000 0.000000
                -300.000000 0.000000 -300.000000 0.000000 -300.000000 0.000000 -300.000000 0.000000
16050000000.000000 -7.592997 50.982819 -300.000000 0.000000 -15.549140 -154.878627 -300.000000 0.000000
                -300.000000 0.000000 -300.000000 0.000000 -300.000000 0.000000 -300.000000 0.000000
                -15.629314 -154.923184 -300.000000 0.000000 -7.094350 47.995210 -300.000000 0.000000
                -300.000000 0.000000 -300.000000 0.000000 -300.000000 0.000000 -300.000000 0.000000
16100000000.000000 -7.751295 54.032436 -300.000000 0.000000 -15.351625 -159.274825 -300.000000 0.000000
                -300.000000 0.000000 -300.000000 0.000000 -300.000000 0.000000 -300.000000 0.000000
                -15.441197 -159.309762 -300.000000 0.000000 -7.256663 48.717805 -300.000000 0.000000
                -300.000000 0.000000 -300.000000 0.000000 -300.000000 0.000000 -300.000000 0.000000
16150000000.000000 -7.558033 55.449703 -300.000000 0.000000 -15.181838 -160.970477 -300.000000 0.000000
                -300.000000 0.000000 -300.000000 0.000000 -300.000000 0.000000 -300.000000 0.000000
                -15.225335 -160.984955 -300.000000 0.000000 -7.259922 49.962668 -300.000000 0.000000
                -300.000000 0.000000 -300.000000 0.000000 -300.000000 0.000000 -300.000000 0.000000
16200000000.000000 -7.392147 53.972754 -300.000000 0.000000 -15.224317 -165.208739 -300.000000 0.000000
                -300.000000 0.000000 -300.000000 0.000000 -300.000000 0.000000 -300.000000 0.000000
                -15.298797 -165.228647 -300.000000 0.000000 -7.055307 49.888144 -300.000000 0.000000
                -300.000000 0.000000 -300.000000 0.000000 -300.000000 0.000000 -300.000000 0.000000
16250000000.000000 -7.575703 54.553975 -300.000000 0.000000 -15.246639 -167.257610 -300.000000 0.000000
                -300.000000 0.000000 -300.000000 0.000000 -300.000000 0.000000 -300.000000 0.000000
                -15.296966 -167.321122 -300.000000 0.000000 -7.123936 49.432814 -300.000000 0.000000
                -300.000000 0.000000 -300.000000 0.000000 -300.000000 0.000000 -300.000000 0.000000
16300000000.000000 -7.444263 55.575974 -300.000000 0.000000 -15.358854 -168.174505 -300.000000 0.000000
                -300.000000 0.000000 -300.000000 0.000000 -300.000000 0.000000 -300.000000 0.000000
                -15.413161 -168.138711 -300.000000 0.000000 -7.117378 50.329360 -300.000000 0.000000
                -300.000000 0.000000 -300.000000 0.000000 -300.000000 0.000000 -300.000000 0.000000
16350000000.000000 -7.254195 52.844151 -300.000000 0.000000 -15.292437 -169.152116 -300.000000 0.000000
                -300.000000 0.000000 -300.000000 0.000000 -300.000000 0.000000 -300.000000 0.000000
                -15.331643 -169.264162 -300.000000 0.000000 -6.982818 49.495271 -300.000000 0.000000
                -300.000000 0.000000 -300.000000 0.000000 -300.000000 0.000000 -300.000000 0.000000
16400000000.000000 -7.547594 52.752072 -300.000000 0.000000 -15.150235 -171.469739 -300.000000 0.000000
                -300.000000 0.000000 -300.000000 0.000000 -300.000000 0.000000 -300.000000 0.000000
                -15.208955 -171.466416 -300.000000 0.000000 -7.066605 48.656242 -300.000000 0.000000
                -300.000000 0.000000 -300.000000 0.000000 -300.000000 0.000000 -300.000000 0.000000
16450000000.000000 -7.389002 54.793065 -300.000000 0.000000 -15.161433 -173.333058 -300.000000 0.000000
                -300.000000 0.000000 -300.000000 0.000000 -300.000000 0.000000 -300.000000 0.000000
                -15.206230 -173.386555 -300.000000 0.000000 -7.134289 49.799772 -300.000000 0.000000
                -300.000000 0.000000 -300.000000 0.000000 -300.000000 0.000000 -300.000000 0.000000
16500000000.000000 -7.114658 53.323438 -300.000000 0.000000 -14.968961 -174.856651 -300.000000 0.000000
                -300.000000 0.000000 -300.000000 0.000000 -300.000000 0.000000 -300.000000 0.000000
                -15.011190 -174.739013 -300.000000 0.000000 -6.976220 49.742682 -300.000000 0.000000
                -300.000000 0.000000 -300.000000 0.000000 -300.000000 0.000000 -300.000000 0.000000
16550000000.000000 -7.382799 52.981478 -300.000000 0.000000 -14.909882 -177.369351 -300.000000 0.000000
                -300.000000 0.000000 -300.000000 0.000000 -300.000000 0.000000 -300.000000 0.000000
                -14.956564 -177.460017 -300.000000 0.000000 -7.031720 48.923004 -300.000000 0.000000
                -300.000000 0.000000 -300.000000 0.000000 -300.000000 0.000000 -300.000000 0.000000
16600000000.000000 -7.229439 55.474894 -300.000000 0.000000 -15.011625 -179.441892 -300.000000 0.000000
                -300.000000 0.000000 -300.000000 0.000000 -300.000000 0.000000 -300.000000 0.000000
                -15.043735 -179.252047 -300.000000 0.000000 -7.106041 49.605379 -300.000000 0.000000
                -300.000000 0.000000 -300.000000 0.000000 -300.000000 0.000000 -300.000000 0.000000
16650000000.000000 -6.914343 54.200019 -300.000000 0.000000 -15.031495 178.352477 -300.000000 0.000000
                -300.000000 0.000000 -300.000000 0.000000 -300.000000 0.000000 -300.000000 0.000000
                -15.064819 178.321711 -300.000000 0.000000 -6.828113 50.240013 -300.000000 0.000000
                -300.000000 0.000000 -300.000000 0.000000 -300.000000 0.000000 -300.000000 0.000000
16700000000.000000 -7.223950 51.984347 -300.000000 0.000000 -15.201085 178.124070 -300.000000 0.000000
                -300.000000 0.000000 -300.000000 0.000000 -300.000000 0.000000 -300.000000 0.000000
                -15.264341 178.129764 -300.000000 0.000000 -6.864325 48.208217 -300.000000 0.000000
                -300.000000 0.000000 -300.000000 0.000000 -300.000000 0.000000 -300.000000 0.000000
16750000000.000000 -7.264423 54.482014 -300.000000 0.000000 -15.004351 176.395107 -300.000000 0.000000
                -300.000000 0.000000 -300.000000 0.000000 -300.000000 0.000000 -300.000000 0.000000
                -15.022775 176.488091 -300.000000 0.000000 -7.026872 48.993508 -300.000000 0.000000
                -300.000000 0.000000 -300.000000 0.000000 -300.000000 0.000000 -300.000000 0.000000
16800000000.000000 -6.998281 52.667460 -300.000000 0.000000 -15.097240 175.487403 -300.000000 0.000000
                -300.000000 0.000000 -300.000000 0.000000 -300.000000 0.000000 -300.000000 0.000000
                -15.149233 175.335807 -300.000000 0.000000 -6.806026 49.704643 -300.000000 0.000000
                -300.000000 0.000000 -300.000000 0.000000 -300.000000 0.000000 -300.000000 0.000000
16850000000.000000 -7.093266 51.612461 -300.000000 0.000000 -14.945877 173.848509 -300.000000 0.000000
                -300.000000 0.000000 -300.000000 0.000000 -300.000000 0.000000 -300.000000 0.000000
                -14.977301 174.100093 -300.000000 0.000000 -6.846407 48.111087 -300.000000 0.000000
                -300.000000 0.000000 -300.000000 0.000000 -300.000000 0.000000 -300.000000 0.000000
16900000000.000000 -7.130714 53.501365 -300.000000 0.000000 -15.110820 172.722659 -300.000000 0.000000
                -300.000000 0.000000 -300.000000 0.000000 -300.000000 0.000000 -300.000000 0.000000
                -15.131657 172.621812 -300.000000 0.000000 -6.955853 47.836573 -300.000000 0.000000
                -300.000000 0.000000 -300.000000 0.000000 -300.000000 0.000000 -300.000000 0.000000
16950000000.000000 -6.907984 53.905395 -300.000000 0.000000 -15.057253 171.823267 -300.000000 0.000000
                -300.000000 0.000000 -300.000000 0.000000 -300.000000 0.000000 -300.000000 0.000000
                -15.061485 171.931467 -300.000000 0.000000 -6.828084 48.978951 -300.000000 0.000000
                -300.000000 0.000000 -300.000000 0.000000 -300.000000 0.000000 -300.000000 0.000000
17000000000.000000 -6.962505 51.927255 -300.000000 0.000000 -15.168544 171.052665 -300.000000 0.000000
                -300.000000 0.000000 -300.000000 0.000000 -300.000000 0.000000 -300.000000 0.000000
                -15.205178 170.852485 -300.000000 0.000000 -6.717221 47.320201 -300.000000 0.000000
                -300.000000 0.000000 -300.000000 0.000000 -300.000000 0.000000 -300.000000 0.000000
17050000000.000000 -7.187400 54.051312 -300.000000 0.000000 -14.940188 169.489279 -300.000000 0.000000
                -300.000000 0.000000 -300.000000 0.000000 -300.000000 0.000000 -300.000000 0.000000
                -14.948392 169.336457 -300.000000 0.000000 -6.961347 47.484887 -300.000000 0.000000
                -300.000000 0.000000 -300.000000 0.000000 -300.000000 0.000000 -300.000000 0.000000
17100000000.000000 -6.922035 53.349864 -300.000000 0.000000 -15.018286 167.879334 -300.000000 0.000000
                -300.000000 0.000000 -300.000000 0.000000 -300.000000 0.000000 -300.000000 0.000000
                -15.043248 167.878460 -300.000000 0.000000 -6.798660 48.646887 -300.000000 0.000000
                -300.000000 0.000000 -300.000000 0.000000 -300.000000 0.000000 -300.000000 0.000000
17150000000.000000 -6.880087 51.086399 -300.000000 0.000000 -15.049558 166.625352 -300.000000 0.000000
                -300.000000 0.000000 -300.000000 0.000000 -300.000000 0.000000 -300.000000 0.000000
                -15.065311 166.445975 -300.000000 0.000000 -6.635839 47.052913 -300.000000 0.000000
                -300.000000 0.000000 -300.000000 0.000000 -300.000000 0.000000 -300.000000 0.000000
17200000000.000000 -7.113231 51.646213 -300.000000 0.000000 -15.007988 166.256198 -300.000000 0.000000
                -300.000000 0.000000 -300.000000 0.000000 -300.000000 0.000000 -300.000000 0.000000
                -15.031904 166.097275 -300.000000 0.000000 -6.866028 46.356693 -300.000000 0.000000
                -300.000000 0.000000 -300.000000 0.000000 -300.000000 0.000000 -300.000000 0.000000
17250000000.000000 -6.817150 52.242696 -300.000000 0.000000 -15.182688 164.882668 -300.000000 0.000000
                -300.000000 0.000000 -300.000000 0.000000 -300.000000 0.000000 -300.000000 0.000000
                -15.193135 164.844256 -300.000000 0.000000 -6.783419 47.655484 -300.000000 0.000000
                -300.000000 0.000000 -300.000000 0.000000 -300.000000 0.000000 -300.000000 0.000000
17300000000.000000 -6.757537 50.764067 -300.000000 0.000000 -15.248138 163.858143 -300.000000 0.000000
                -300.000000 0.000000 -300.000000 0.000000 -300.000000 0.000000 -300.000000 0.000000
                -15.257206 163.758749 -300.000000 0.000000 -6.643327 46.099708 -300.000000 0.000000
                -300.000000 0.000000 -300.000000 0.000000 -300.000000 0.000000 -300.000000 0.000000
17350000000.000000 -7.097648 51.865259 -300.000000 0.000000 -15.127958 163.889883 -300.000000 0.000000
                -300.000000 0.000000 -300.000000 0.000000 -300.000000 0.000000 -300.000000 0.000000
