
SetupTitle, idvg3.3
PrimitiveTest, I/V Sweep
TestParameter, Context.MainFrame, B1500A
TestParameter, Channel.UnitType, SMU, SMU, SMU, SMU
TestParameter, Channel.Unit, SMU4:HR, SMU3:HR, SMU1:HR, SMU2:HR
TestParameter, Channel.IName, Id, Ig, Is, Ibg
TestParameter, Channel.VName, Vd, Vg, Vs, Vbg
TestParameter, Channel.Mode, V, V, V, V
TestParameter, Channel.Func, CONST, VAR1, CONST, VAR2
TestParameter, Channel.Index, 
TestParameter, Channel.Time, 
TestParameter, Measurement.Port.Unit, SMU4:HR, SMU3:HR, SMU1:HR, SMU2:HR
TestParameter, Measurement.Port.SeriesResistor, NONE, NONE, NONE, NONE
TestParameter, Measurement.Port.Filter, ON, ON, ON, ON
TestParameter, Measurement.Port.OutputVoltageComparison, 0, 0, 0, 0
TestParameter, Measurement.Primary.Locus, Single
TestParameter, Measurement.Primary.Scale, LINEAR
TestParameter, Measurement.Primary.Start, -2.1
TestParameter, Measurement.Primary.Stop, 3.63
TestParameter, Measurement.Primary.Step, 0.03
TestParameter, Measurement.Primary.Compliance, 0.1
TestParameter, Measurement.Primary.PowerCompliance, 0
TestParameter, Measurement.Aborting.Condition, CONTINUE AT ANY
TestParameter, Measurement.PostOutput.Value, START
TestParameter, Measurement.PostOutput.Retention, OFF
TestParameter, Measurement.Secondary.Start, -2
TestParameter, Measurement.Secondary.Count, 5
TestParameter, Measurement.Secondary.Step, 2
TestParameter, Measurement.Secondary.Compliance, 0.1
TestParameter, Measurement.Secondary.PowerCompliance, 0
TestParameter, Measurement.Bias.Source, 3.3000000000000003, -2.1, 0, -2
TestParameter, Measurement.Bias.Compliance, 0.1, 0.1, 0.1, 0.1
TestParameter, Measurement.Monitor.Unit, SMU4:HR, SMU3:HR, SMU1:HR, SMU2:HR
TestParameter, Measurement.Monitor.Adc, HR ADC, HR ADC, HR ADC, HR ADC
TestParameter, Measurement.Monitor.Measurement, Compliance Side, Compliance Side, Compliance Side, Compliance Side
TestParameter, Measurement.Monitor.RangingMode, LIMITED, LIMITED, LIMITED, LIMITED
TestParameter, Measurement.Monitor.RangeBoundary, 1nA, 1nA, 1nA, 1nA
TestParameter, Measurement.Monitor.RangeRating, BY FULL RANGE, BY FULL RANGE, BY FULL RANGE, BY FULL RANGE
TestParameter, Measurement.Monitor.RangeRatingCoeff, 50, 50, 50, 50
TestParameter, Measurement.Timing.Hold, 0
TestParameter, Measurement.Timing.Delay, 0
TestParameter, Measurement.Adc.HighSpeed.Mode, AUTO
TestParameter, Measurement.Adc.HighSpeed.Coeff, 1
TestParameter, Measurement.Adc.HighResolution.AutoZero, OFF
TestParameter, Measurement.Adc.HighResolution.Mode, PLC
TestParameter, Measurement.Adc.HighResolution.Coeff, 1
TestParameter, Measurement.WaitTime.Source.Coeff, 1
TestParameter, Measurement.WaitTime.Source.Offset, 0
TestParameter, Measurement.WaitTime.Monitor.Coeff, 1
TestParameter, Measurement.WaitTime.Monitor.Offset, 0
TestParameter, Function.User.Name, gm, absId
TestParameter, Function.User.Unit, S, A
TestParameter, Function.User.Definition, diff(Id,Vg), abs(Id)
TestParameter, Output.Graph.Enabled, true
TestParameter, Output.Graph.AutoScaling, false
TestParameter, Output.Graph.XAxis.Data, Vg
TestParameter, Output.Graph.XAxis.Scale, Linear
TestParameter, Output.Graph.XAxis.Left, -3
TestParameter, Output.Graph.XAxis.Right, 3.63
TestParameter, Output.Graph.XAxis.RunTimeAutoScale, true
TestParameter, Output.Graph.YAxis.Data, Id, Ig, Ib
TestParameter, Output.Graph.YAxis.Scale, Log, Linear, Linear
TestParameter, Output.Graph.YAxis.Bottom, 0.001, -0.1, -0.1
TestParameter, Output.Graph.YAxis.Top, 0.01, 0.1, 0.1
TestParameter, Output.Graph.YAxis.Group, , , 
TestParameter, Output.Graph.YAxis.RunTimeAutoScale, true, true, true
TestParameter, Output.List.Data, Vg, Vd, Ig, Id, Ibg, Is, gm, Vbg, absId
TestParameter, AutoAnalysis.Interpolation, false
TestParameter, AutoAnalysis.Var2StepCount, 1
TestParameter, AutoAnalysis.Var2StepScript, 
TestParameter, AutoAnalysis.Line1.Enabled, false
TestParameter, AutoAnalysis.Line1.Type, 2
TestParameter, AutoAnalysis.Line1.Fix, True
TestParameter, AutoAnalysis.Line1.YAxis, 0
TestParameter, AutoAnalysis.Line1.Point1.Type, 1
TestParameter, AutoAnalysis.Line1.Point1.XY.X, 
TestParameter, AutoAnalysis.Line1.Point1.XY.Y, 
TestParameter, AutoAnalysis.Line1.Point1.Data.Var, Id
TestParameter, AutoAnalysis.Line1.Point1.Data.Condition, 
TestParameter, AutoAnalysis.Line1.Point1.Data.Start, false
TestParameter, AutoAnalysis.Line1.Point1.Data.StartVar, 
TestParameter, AutoAnalysis.Line1.Point1.Data.StartCondition, 
TestParameter, AutoAnalysis.Line1.Point2.Type, 0
TestParameter, AutoAnalysis.Line1.Point2.XY.X, 
TestParameter, AutoAnalysis.Line1.Point2.XY.Y, 
TestParameter, AutoAnalysis.Line1.Point2.Data.Var, 
TestParameter, AutoAnalysis.Line1.Point2.Data.Condition, 
TestParameter, AutoAnalysis.Line1.Point2.Data.Start, false
TestParameter, AutoAnalysis.Line1.Point2.Data.StartVar, 
TestParameter, AutoAnalysis.Line1.Point2.Data.StartCondition, 
TestParameter, AutoAnalysis.Line1.GradientExpr, 0
TestParameter, AutoAnalysis.Line2.Enabled, false
TestParameter, AutoAnalysis.Line2.Type, 1
TestParameter, AutoAnalysis.Line2.Fix, True
TestParameter, AutoAnalysis.Line2.YAxis, 0
TestParameter, AutoAnalysis.Line2.Point1.Type, 0
TestParameter, AutoAnalysis.Line2.Point1.XY.X, 
TestParameter, AutoAnalysis.Line2.Point1.XY.Y, 
TestParameter, AutoAnalysis.Line2.Point1.Data.Var, 
TestParameter, AutoAnalysis.Line2.Point1.Data.Condition, 
TestParameter, AutoAnalysis.Line2.Point1.Data.Start, false
TestParameter, AutoAnalysis.Line2.Point1.Data.StartVar, 
TestParameter, AutoAnalysis.Line2.Point1.Data.StartCondition, 
TestParameter, AutoAnalysis.Line2.Point2.Type, 0
TestParameter, AutoAnalysis.Line2.Point2.XY.X, 
TestParameter, AutoAnalysis.Line2.Point2.XY.Y, 
TestParameter, AutoAnalysis.Line2.Point2.Data.Var, 
TestParameter, AutoAnalysis.Line2.Point2.Data.Condition, 
TestParameter, AutoAnalysis.Line2.Point2.Data.Start, false
TestParameter, AutoAnalysis.Line2.Point2.Data.StartVar, 
TestParameter, AutoAnalysis.Line2.Point2.Data.StartCondition, 
TestParameter, AutoAnalysis.Line2.GradientExpr, 0
TestParameter, AutoAnalysis.Marker.Enabled, false
TestParameter, AutoAnalysis.Marker.Data.Var, 
TestParameter, AutoAnalysis.Marker.Data.Condition, 
TestParameter, AutoAnalysis.Marker.Data.Start, false
TestParameter, AutoAnalysis.Marker.Data.StartVar, 
TestParameter, AutoAnalysis.Marker.Data.StartCondition, 
MetaData, TestRecord.EntryPoint, true
MetaData, TestRecord.RecordTime, 01/15/2024 19:01:04
MetaData, TestRecord.TestTarget, N-1-1-298K
MetaData, TestRecord.IterationIndex, 1
MetaData, TestRecord.Preservation, true
MetaData, TestRecord.Flag, 
MetaData, TestRecord.Remarks, 
MetaData, TestRecord.LinkKey, 61145cda-deb4-4f7e-a0b9-6253b9913af2
MetaData, TestRecord.Parameters, 
Dimension1, 192, 192, 192, 192, 192, 192, 192, 192, 192, 192
Dimension2, 5, 5, 5, 5, 5, 5, 5, 5, 5, 5
DataName, Vg, Vbg, Vd, Id, Ig, Is, Ibg, gm, absId, Ib
DataValue, -2.1, -2, 3.3000000000000003, 3.7326E-11, 2.7000000000000002E-14, 9.499E-12, -1.0599E-06, -8.5133333333332486E-11, 3.7326E-11, 
DataValue, -2.07, -2, 3.3000000000000003, 3.4772000000000004E-11, -5.8E-14, 9.4550000000000012E-12, -1.0569200000000001E-06, -7.8783333333333253E-11, 3.4772000000000004E-11, 
DataValue, -2.04, -2, 3.3000000000000003, 3.2599E-11, 4.3000000000000006E-14, 9.424E-12, -1.05685E-06, -6.8816666666667122E-11, 3.2599E-11, 
DataValue, -2.0100000000000002, -2, 3.3000000000000003, 3.0643000000000003E-11, -1.0000000000000002E-14, 9.401E-12, -1.0563600000000001E-06, -5.9049999999999915E-11, 3.0643000000000003E-11, 
DataValue, -1.98, -2, 3.3000000000000003, 2.9056000000000002E-11, 1.1000000000000001E-13, 9.4070000000000014E-12, -1.05674E-06, -5.326666666666643E-11, 2.9056000000000002E-11, 
DataValue, -1.95, -2, 3.3000000000000003, 2.7447000000000003E-11, 6.3000000000000009E-14, 9.46E-12, -1.0572200000000002E-06, -5.1366666666666648E-11, 2.7447000000000003E-11, 
DataValue, -1.92, -2, 3.3000000000000003, 2.5974E-11, 9.0000000000000008E-14, 9.4360000000000014E-12, -1.0578100000000001E-06, -4.3016666666666808E-11, 2.5974E-11, 
DataValue, -1.8900000000000001, -2, 3.3000000000000003, 2.4866000000000002E-11, 4.8000000000000004E-14, 9.431E-12, -1.05863E-06, -3.9516666666666768E-11, 2.4866000000000002E-11, 
DataValue, -1.86, -2, 3.3000000000000003, 2.3603E-11, 1.3300000000000001E-13, 9.434E-12, -1.0580200000000002E-06, -3.8449999999999962E-11, 2.3603E-11, 
DataValue, -1.83, -2, 3.3000000000000003, 2.2559000000000002E-11, 9.3000000000000008E-14, 9.4260000000000012E-12, -1.05773E-06, -3.3433333333333294E-11, 2.2559000000000002E-11, 
DataValue, -1.8, -2, 3.3000000000000003, 2.1597000000000002E-11, 1.34E-13, 9.472E-12, -1.0579100000000001E-06, -3.1766666666666653E-11, 2.1597000000000002E-11, 
DataValue, -1.77, -2, 3.3000000000000003, 2.0653E-11, 6.2E-14, 9.499E-12, -1.0586400000000002E-06, -2.775E-11, 2.0653E-11, 
DataValue, -1.74, -2, 3.3000000000000003, 1.9932E-11, 1.6000000000000003E-13, 9.469E-12, -1.0579200000000002E-06, -2.3833333333333287E-11, 1.9932E-11, 
DataValue, -1.71, -2, 3.3000000000000003, 1.9223000000000002E-11, 1.64E-13, 9.483E-12, -1.0572900000000002E-06, -2.3733333333333291E-11, 1.9223000000000002E-11, 
DataValue, -1.68, -2, 3.3000000000000003, 1.8508E-11, 1.3300000000000001E-13, 9.4480000000000009E-12, -1.05717E-06, -2.0216666666666748E-11, 1.8508E-11, 
DataValue, -1.6500000000000001, -2, 3.3000000000000003, 1.801E-11, 1.9000000000000002E-13, 9.4770000000000009E-12, -1.05826E-06, -1.7050000000000047E-11, 1.801E-11, 
DataValue, -1.62, -2, 3.3000000000000003, 1.7485E-11, 1.65E-13, 9.479E-12, -1.0728700000000002E-06, -1.5150000000000004E-11, 1.7485E-11, 
DataValue, -1.59, -2, 3.3000000000000003, 1.7101E-11, 1.2100000000000002E-13, 9.5290000000000011E-12, -1.07351E-06, -1.3983333333333348E-11, 1.7101E-11, 
DataValue, -1.56, -2, 3.3000000000000003, 1.6646E-11, 1.9600000000000002E-13, 9.4780000000000014E-12, -1.07364E-06, -1.3316666666666617E-11, 1.6646E-11, 
DataValue, -1.53, -2, 3.3000000000000003, 1.6302000000000002E-11, 2.61E-13, 9.453E-12, -1.07309E-06, -1.1149999999999945E-11, 1.6302000000000002E-11, 
DataValue, -1.5, -2, 3.3000000000000003, 1.5977000000000003E-11, 2.4000000000000004E-13, 9.4130000000000012E-12, -1.07377E-06, -1.2100000000000015E-11, 1.5977000000000003E-11, 
DataValue, -1.47, -2, 3.3000000000000003, 1.5576E-11, 2.69E-13, 9.456E-12, -1.0741900000000002E-06, -1.1083333333333352E-11, 1.5576E-11, 
DataValue, -1.44, -2, 3.3000000000000003, 1.5312E-11, 2.32E-13, 9.5420000000000011E-12, -1.07496E-06, -6.2499999999999728E-12, 1.5312E-11, 
DataValue, -1.41, -2, 3.3000000000000003, 1.5201000000000002E-11, 2.47E-13, 9.4620000000000015E-12, -1.0760300000000001E-06, -7.46666666666671E-12, 1.5201000000000002E-11, 
DataValue, -1.3800000000000001, -2, 3.3000000000000003, 1.4864E-11, 2.5100000000000004E-13, 9.44E-12, -1.07601E-06, -7.1500000000000186E-12, 1.4864E-11, 
DataValue, -1.35, -2, 3.3000000000000003, 1.4772000000000002E-11, 2.7800000000000003E-13, 9.501E-12, -1.0744800000000001E-06, -2.9499999999999933E-12, 1.4772000000000002E-11, 
DataValue, -1.32, -2, 3.3000000000000003, 1.4687E-11, 2.9900000000000004E-13, 9.479E-12, -1.07417E-06, -6.2333333333333519E-12, 1.4687E-11, 
DataValue, -1.29, -2, 3.3000000000000003, 1.4398E-11, 3.31E-13, 9.4870000000000011E-12, -1.0748100000000001E-06, -4.9666666666666448E-12, 1.4398E-11, 
DataValue, -1.26, -2, 3.3000000000000003, 1.4389000000000001E-11, 3.7200000000000003E-13, 9.45E-12, -1.0742200000000002E-06, -3.5999999999999948E-12, 1.4389000000000001E-11, 
DataValue, -1.23, -2, 3.3000000000000003, 1.4182E-11, 3.4700000000000004E-13, 9.4710000000000011E-12, -1.0742900000000002E-06, -4.8500000000000005E-12, 1.4182E-11, 
DataValue, -1.2, -2, 3.3000000000000003, 1.4098E-11, 3.4600000000000004E-13, 9.4780000000000014E-12, -1.07401E-06, -2.783333333333324E-12, 1.4098E-11, 
DataValue, -1.17, -2, 3.3000000000000003, 1.4015000000000001E-11, 3.5600000000000005E-13, 9.517E-12, -1.07374E-06, -2.9833333333333272E-12, 1.4015000000000001E-11, 
DataValue, -1.1400000000000001, -2, 3.3000000000000003, 1.3919000000000002E-11, 3.5500000000000005E-13, 9.474000000000001E-12, -1.06613E-06, -1.7666666666666676E-12, 1.3919000000000002E-11, 
DataValue, -1.11, -2, 3.3000000000000003, 1.3909000000000001E-11, 4.2500000000000006E-13, 9.5160000000000011E-12, -1.06389E-06, -7.1666666666667475E-13, 1.3909000000000001E-11, 
DataValue, -1.08, -2, 3.3000000000000003, 1.3876000000000001E-11, 4.45E-13, 9.509E-12, -1.06511E-06, -2.4000000000000144E-12, 1.3876000000000001E-11, 
DataValue, -1.05, -2, 3.3000000000000003, 1.3765E-11, 4.5800000000000007E-13, 9.527E-12, -1.06419E-06, -4.03333333333333E-12, 1.3765E-11, 
DataValue, -1.02, -2, 3.3000000000000003, 1.3634000000000001E-11, 3.7000000000000004E-13, 9.532000000000001E-12, -1.06399E-06, -3.1333333333333106E-12, 1.3634000000000001E-11, 
DataValue, -0.99, -2, 3.3000000000000003, 1.3577000000000002E-11, 4.5000000000000005E-13, 9.5000000000000011E-12, -1.063E-06, -1.6166666666666668E-12, 1.3577000000000002E-11, 
DataValue, -0.96, -2, 3.3000000000000003, 1.3537000000000001E-11, 4.0600000000000004E-13, 9.4640000000000009E-12, -1.0640100000000002E-06, -4.0000000000001213E-13, 1.3537000000000001E-11, 
DataValue, -0.93, -2, 3.3000000000000003, 1.3553000000000001E-11, 5.2E-13, 9.6290000000000011E-12, -1.06333E-06, -1.3166666666666539E-12, 1.3553000000000001E-11, 
DataValue, -0.9, -2, 3.3000000000000003, 1.3458000000000002E-11, 5.16E-13, 9.5390000000000013E-12, -1.06379E-06, -1.6666666666666648E-12, 1.3458000000000002E-11, 
DataValue, -0.87, -2, 3.3000000000000003, 1.3453000000000001E-11, 5.7500000000000007E-13, 9.5640000000000008E-12, -1.0630800000000001E-06, 4.4999999999998253E-13, 1.3453000000000001E-11, 
DataValue, -0.84, -2, 3.3000000000000003, 1.3485E-11, 5.38E-13, 9.4910000000000015E-12, -1.06574E-06, -1.5333333333333216E-12, 1.3485E-11, 
DataValue, -0.81, -2, 3.3000000000000003, 1.3361000000000002E-11, 5.83E-13, 9.4620000000000015E-12, -1.0640800000000002E-06, -7.3333333333332422E-13, 1.3361000000000002E-11, 
DataValue, -0.78, -2, 3.3000000000000003, 1.3441000000000001E-11, 5.9700000000000008E-13, 9.4750000000000015E-12, -1.06413E-06, -6.5000000000000167E-13, 1.3441000000000001E-11, 
DataValue, -0.75, -2, 3.3000000000000003, 1.3322000000000002E-11, 5.7300000000000008E-13, 9.4970000000000012E-12, -1.0639700000000001E-06, -2.0333333333333262E-12, 1.3322000000000002E-11, 
DataValue, -0.72, -2, 3.3000000000000003, 1.3319000000000002E-11, 6.4300000000000009E-13, 9.5460000000000015E-12, -1.0632E-06, -6.5000000000000288E-13, 1.3319000000000002E-11, 
DataValue, -0.69000000000000006, -2, 3.3000000000000003, 1.3283000000000002E-11, 6.15E-13, 9.5460000000000015E-12, -1.0661500000000002E-06, 5.833333333333297E-13, 1.3283000000000002E-11, 
DataValue, -0.66, -2, 3.3000000000000003, 1.3354000000000002E-11, 6.4900000000000006E-13, 9.5640000000000008E-12, -1.0655500000000001E-06, 9.99999999999988E-13, 1.3354000000000002E-11, 
DataValue, -0.63, -2, 3.3000000000000003, 1.3343E-11, 7.03E-13, 9.574000000000001E-12, -1.06574E-06, -6.000000000000036E-13, 1.3343E-11, 
DataValue, -0.6, -2, 3.3000000000000003, 1.3318000000000001E-11, 6.6600000000000009E-13, 9.5480000000000009E-12, -1.0660900000000002E-06, -3.3333333333333895E-13, 1.3318000000000001E-11, 
DataValue, -0.57000000000000006, -2, 3.3000000000000003, 1.3323E-11, 7.4200000000000007E-13, 9.521E-12, -1.06617E-06, 1.8333333333331757E-13, 1.3323E-11, 
DataValue, -0.54, -2, 3.3000000000000003, 1.3329E-11, 7.6300000000000008E-13, 9.5750000000000015E-12, -1.0663200000000002E-06, 1.500000000000211E-13, 1.3329E-11, 
DataValue, -0.51, -2, 3.3000000000000003, 1.3332000000000002E-11, 8.01E-13, 9.5520000000000013E-12, -1.06742E-06, 3.5000000000001335E-13, 1.3332000000000002E-11, 
DataValue, -0.48, -2, 3.3000000000000003, 1.3350000000000001E-11, 8.5900000000000008E-13, 9.592E-12, -1.0680600000000002E-06, -1.1666666666666853E-12, 1.3350000000000001E-11, 
DataValue, -0.45, -2, 3.3000000000000003, 1.3262E-11, 7.9300000000000005E-13, 9.4750000000000015E-12, -1.06683E-06, -2.7000000000000055E-12, 1.3262E-11, 
DataValue, -0.42, -2, 3.3000000000000003, 1.3188E-11, 7.96E-13, 9.524E-12, -1.06728E-06, 6.6666666666673118E-14, 1.3188E-11, 
DataValue, -0.39, -2, 3.3000000000000003, 1.3266000000000001E-11, 9.0800000000000007E-13, 9.5580000000000011E-12, -1.06659E-06, -6.8333333333332544E-13, 1.3266000000000001E-11, 
DataValue, -0.36, -2, 3.3000000000000003, 1.3147000000000001E-11, 9.29E-13, 9.5330000000000015E-12, -1.06686E-06, -3.8333333333333677E-13, 1.3147000000000001E-11, 
DataValue, -0.33, -2, 3.3000000000000003, 1.3243000000000001E-11, 8.8700000000000006E-13, 9.5910000000000014E-12, -1.06659E-06, 2.2333333333333205E-12, 1.3243000000000001E-11, 
DataValue, -0.3, -2, 3.3000000000000003, 1.3281E-11, 9.71E-13, 9.55E-12, -1.06647E-06, 1.1000000000000123E-12, 1.3281E-11, 
DataValue, -0.27, -2, 3.3000000000000003, 1.3309000000000002E-11, 9.5800000000000016E-13, 9.6000000000000011E-12, -1.06505E-06, 4.500000000000099E-13, 1.3309000000000002E-11, 
DataValue, -0.24, -2, 3.3000000000000003, 1.3308000000000001E-11, 1.001E-12, 9.517E-12, -1.06752E-06, -2.016666666666679E-12, 1.3308000000000001E-11, 
DataValue, -0.21, -2, 3.3000000000000003, 1.3188E-11, 9.6800000000000012E-13, 9.553E-12, -1.06672E-06, -1.1166666666666602E-12, 1.3188E-11, 
DataValue, -0.18, -2, 3.3000000000000003, 1.3241000000000001E-11, 1E-12, 9.56E-12, -1.0667800000000002E-06, -9.99999999999989E-13, 1.3241000000000001E-11, 
DataValue, -0.15, -2, 3.3000000000000003, 1.3128000000000001E-11, 1.049E-12, 9.582E-12, -1.06709E-06, 6.3333333333332727E-13, 1.3128000000000001E-11, 
DataValue, -0.12, -2, 3.3000000000000003, 1.3279000000000001E-11, 1.162E-12, 9.5750000000000015E-12, -1.0668400000000002E-06, 1.3000000000000046E-12, 1.3279000000000001E-11, 
DataValue, -0.09, -2, 3.3000000000000003, 1.3206000000000002E-11, 1.086E-12, 9.5520000000000013E-12, -1.06435E-06, -8.9999999999999283E-13, 1.3206000000000002E-11, 
DataValue, -0.06, -2, 3.3000000000000003, 1.3225000000000002E-11, 1.068E-12, 9.567E-12, -1.06616E-06, -9.33333333333343E-13, 1.3225000000000002E-11, 
DataValue, -0.03, -2, 3.3000000000000003, 1.3150000000000001E-11, 1.182E-12, 9.5330000000000015E-12, -1.06541E-06, -1.6666666666666932E-13, 1.3150000000000001E-11, 
DataValue, 0, -2, 3.3000000000000003, 1.3215000000000001E-11, 1.1440000000000002E-12, 9.6620000000000014E-12, -1.06515E-06, 4.0000000000001178E-13, 1.3215000000000001E-11, 
DataValue, 0.03, -2, 3.3000000000000003, 1.3174000000000002E-11, 1.214E-12, 9.518E-12, -1.0655500000000001E-06, -7.8333333333334854E-13, 1.3174000000000002E-11, 
DataValue, 0.06, -2, 3.3000000000000003, 1.3168E-11, 1.209E-12, 9.5070000000000014E-12, -1.06547E-06, -9.0000000000001979E-13, 1.3168E-11, 
DataValue, 0.09, -2, 3.3000000000000003, 1.312E-11, 1.2650000000000002E-12, 9.5490000000000014E-12, -1.06534E-06, -7.6666666666664657E-13, 1.312E-11, 
DataValue, 0.12, -2, 3.3000000000000003, 1.3122000000000002E-11, 1.337E-12, 9.566E-12, -1.0659500000000001E-06, 1.3333333333334624E-13, 1.3122000000000002E-11, 
DataValue, 0.15, -2, 3.3000000000000003, 1.3128000000000001E-11, 1.3570000000000002E-12, 9.563E-12, -1.06669E-06, -1.8333333333334433E-13, 1.3128000000000001E-11, 
DataValue, 0.18, -2, 3.3000000000000003, 1.3111000000000001E-11, 1.4090000000000002E-12, 9.592E-12, -1.0657E-06, 1.8166666666666607E-12, 1.3111000000000001E-11, 
DataValue, 0.21, -2, 3.3000000000000003, 1.3237000000000001E-11, 1.3860000000000002E-12, 9.4750000000000015E-12, -1.0654000000000002E-06, 7.9999999999999659E-13, 1.3237000000000001E-11, 
DataValue, 0.24, -2, 3.3000000000000003, 1.3159E-11, 1.375E-12, 9.58E-12, -1.0650600000000001E-06, 6.6666666666673081E-14, 1.3159E-11, 
DataValue, 0.27, -2, 3.3000000000000003, 1.3241000000000001E-11, 1.437E-12, 9.551E-12, -1.06218E-06, 9.33333333333343E-13, 1.3241000000000001E-11, 
DataValue, 0.3, -2, 3.3000000000000003, 1.3215000000000001E-11, 1.5110000000000001E-12, 9.6490000000000014E-12, -1.0656500000000001E-06, -2.1499999999999995E-12, 1.3215000000000001E-11, 
