
SetupTitle, PMOS-id-vg-vbs@vds=-3.3
PrimitiveTest, I/V Sweep
TestParameter, Context.MainFrame, B1500A
TestParameter, Channel.UnitType, SMU, SMU, SMU, SMU
TestParameter, Channel.Unit, SMU4:HR, SMU3:HR, SMU1:HR, SMU2:HR
TestParameter, Channel.IName, ib, is, ig, id
TestParameter, Channel.VName, vb, vs, vg, vd
TestParameter, Channel.Mode, V, COMMON, V, V
TestParameter, Channel.Func, VAR2, CONST, VAR1, CONST
TestParameter, Channel.Index, 
TestParameter, Channel.Time, 
TestParameter, Measurement.Port.Unit, SMU4:HR, SMU3:HR, SMU1:HR, SMU2:HR
TestParameter, Measurement.Port.SeriesResistor, NONE, NONE, NONE, NONE
TestParameter, Measurement.Port.Filter, ON, ON, ON, ON
TestParameter, Measurement.Port.OutputVoltageComparison, 0, 0, 0, 0
TestParameter, Measurement.Primary.Locus, Single
TestParameter, Measurement.Primary.Scale, LINEAR
TestParameter, Measurement.Primary.Start, 0.5
TestParameter, Measurement.Primary.Stop, -3.3000000000000003
TestParameter, Measurement.Primary.Step, -0.01
TestParameter, Measurement.Primary.Compliance, 0.001
TestParameter, Measurement.Primary.PowerCompliance, 0
TestParameter, Measurement.Aborting.Condition, SKIP AT ANY ABNORMAL
TestParameter, Measurement.PostOutput.Value, START
TestParameter, Measurement.PostOutput.Retention, OFF
TestParameter, Measurement.Secondary.Start, 0
TestParameter, Measurement.Secondary.Count, 7
TestParameter, Measurement.Secondary.Step, 0.6
TestParameter, Measurement.Secondary.Compliance, 0.1
TestParameter, Measurement.Secondary.PowerCompliance, 0
TestParameter, Measurement.Bias.Source, 0, 0, 0.5, -3.3000000000000003
TestParameter, Measurement.Bias.Compliance, 0.1, 0.1, 0.001, 0.1
TestParameter, Measurement.Monitor.Unit, SMU4:HR, SMU3:HR, SMU1:HR, SMU2:HR
TestParameter, Measurement.Monitor.Adc, HR ADC, HR ADC, HR ADC, HR ADC
TestParameter, Measurement.Monitor.Measurement, Compliance Side, Compliance Side, Compliance Side, Compliance Side
TestParameter, Measurement.Monitor.RangingMode, LIMITED, LIMITED, LIMITED, LIMITED
TestParameter, Measurement.Monitor.RangeBoundary, 1nA, 1nA, 1nA, 1nA
TestParameter, Measurement.Monitor.RangeRating, BY FULL RANGE, BY FULL RANGE, BY FULL RANGE, BY FULL RANGE
TestParameter, Measurement.Monitor.RangeRatingCoeff, 50, 50, 50, 50
TestParameter, Measurement.Timing.Hold, 0
TestParameter, Measurement.Timing.Delay, 0
TestParameter, Measurement.Adc.HighSpeed.Mode, AUTO
TestParameter, Measurement.Adc.HighSpeed.Coeff, 1
TestParameter, Measurement.Adc.HighResolution.AutoZero, OFF
TestParameter, Measurement.Adc.HighResolution.Mode, AUTO
TestParameter, Measurement.Adc.HighResolution.Coeff, 6
TestParameter, Measurement.WaitTime.Source.Coeff, 1
TestParameter, Measurement.WaitTime.Source.Offset, 0
TestParameter, Measurement.WaitTime.Monitor.Coeff, 1
TestParameter, Measurement.WaitTime.Monitor.Offset, 0
TestParameter, Output.Graph.Enabled, true
TestParameter, Output.Graph.AutoScaling, false
TestParameter, Output.Graph.XAxis.Data, vg
TestParameter, Output.Graph.XAxis.Scale, Linear
TestParameter, Output.Graph.XAxis.Left, 0
TestParameter, Output.Graph.XAxis.Right, 0.9
TestParameter, Output.Graph.XAxis.RunTimeAutoScale, true
TestParameter, Output.Graph.YAxis.Data, id
TestParameter, Output.Graph.YAxis.Scale, Linear
TestParameter, Output.Graph.YAxis.Bottom, -0.1
TestParameter, Output.Graph.YAxis.Top, 0.1
TestParameter, Output.Graph.YAxis.Group, 
TestParameter, Output.Graph.YAxis.RunTimeAutoScale, true
TestParameter, AutoAnalysis.Interpolation, false
TestParameter, AutoAnalysis.Var2StepCount, 1
TestParameter, AutoAnalysis.Var2StepScript, 
TestParameter, AutoAnalysis.Line1.Enabled, false
TestParameter, AutoAnalysis.Line1.Type, 1
TestParameter, AutoAnalysis.Line1.Fix, True
TestParameter, AutoAnalysis.Line1.YAxis, 0
TestParameter, AutoAnalysis.Line1.Point1.Type, 0
TestParameter, AutoAnalysis.Line1.Point1.XY.X, 
TestParameter, AutoAnalysis.Line1.Point1.XY.Y, 
TestParameter, AutoAnalysis.Line1.Point1.Data.Var, 
TestParameter, AutoAnalysis.Line1.Point1.Data.Condition, 
TestParameter, AutoAnalysis.Line1.Point1.Data.Start, false
TestParameter, AutoAnalysis.Line1.Point1.Data.StartVar, 
TestParameter, AutoAnalysis.Line1.Point1.Data.StartCondition, 
TestParameter, AutoAnalysis.Line1.Point2.Type, 0
TestParameter, AutoAnalysis.Line1.Point2.XY.X, 
TestParameter, AutoAnalysis.Line1.Point2.XY.Y, 
TestParameter, AutoAnalysis.Line1.Point2.Data.Var, 
TestParameter, AutoAnalysis.Line1.Point2.Data.Condition, 
TestParameter, AutoAnalysis.Line1.Point2.Data.Start, false
TestParameter, AutoAnalysis.Line1.Point2.Data.StartVar, 
TestParameter, AutoAnalysis.Line1.Point2.Data.StartCondition, 
TestParameter, AutoAnalysis.Line1.GradientExpr, 0
TestParameter, AutoAnalysis.Line2.Enabled, false
TestParameter, AutoAnalysis.Line2.Type, 1
TestParameter, AutoAnalysis.Line2.Fix, True
TestParameter, AutoAnalysis.Line2.YAxis, 0
TestParameter, AutoAnalysis.Line2.Point1.Type, 0
TestParameter, AutoAnalysis.Line2.Point1.XY.X, 
TestParameter, AutoAnalysis.Line2.Point1.XY.Y, 
TestParameter, AutoAnalysis.Line2.Point1.Data.Var, 
TestParameter, AutoAnalysis.Line2.Point1.Data.Condition, 
TestParameter, AutoAnalysis.Line2.Point1.Data.Start, false
TestParameter, AutoAnalysis.Line2.Point1.Data.StartVar, 
TestParameter, AutoAnalysis.Line2.Point1.Data.StartCondition, 
TestParameter, AutoAnalysis.Line2.Point2.Type, 0
TestParameter, AutoAnalysis.Line2.Point2.XY.X, 
TestParameter, AutoAnalysis.Line2.Point2.XY.Y, 
TestParameter, AutoAnalysis.Line2.Point2.Data.Var, 
TestParameter, AutoAnalysis.Line2.Point2.Data.Condition, 
TestParameter, AutoAnalysis.Line2.Point2.Data.Start, false
TestParameter, AutoAnalysis.Line2.Point2.Data.StartVar, 
TestParameter, AutoAnalysis.Line2.Point2.Data.StartCondition, 
TestParameter, AutoAnalysis.Line2.GradientExpr, 0
TestParameter, AutoAnalysis.Marker.Enabled, false
TestParameter, AutoAnalysis.Marker.Data.Var, 
TestParameter, AutoAnalysis.Marker.Data.Condition, 
TestParameter, AutoAnalysis.Marker.Data.Start, false
TestParameter, AutoAnalysis.Marker.Data.StartVar, 
TestParameter, AutoAnalysis.Marker.Data.StartCondition, 
MetaData, TestRecord.EntryPoint, true
MetaData, TestRecord.RecordTime, 01/15/2024 18:07:17
MetaData, TestRecord.TestTarget, P-20-1-298K
MetaData, TestRecord.IterationIndex, 1
MetaData, TestRecord.Preservation, true
MetaData, TestRecord.Flag, 
MetaData, TestRecord.Remarks, 
MetaData, TestRecord.LinkKey, 047f1899-a64f-4445-962c-dec4aa8e7210
MetaData, TestRecord.Parameters, 
Dimension1, 381, 381
Dimension2, 7, 7
DataName, vg, id
DataValue, 0.5, -6.164E-11
DataValue, 0.49, -5.04E-11
DataValue, 0.48, -5.983E-11
DataValue, 0.47000000000000003, -5.7630000000000005E-11
DataValue, 0.46, -4.7540000000000005E-11
DataValue, 0.45, -5.8460000000000011E-11
DataValue, 0.44, -5.517E-11
DataValue, 0.43, -4.676E-11
DataValue, 0.42, -5.854E-11
DataValue, 0.41000000000000003, -5.2570000000000006E-11
DataValue, 0.4, -4.5970000000000004E-11
DataValue, 0.39, -5.7340000000000006E-11
DataValue, 0.38, -4.9440000000000006E-11
DataValue, 0.37, -4.501E-11
DataValue, 0.36, -5.5980000000000003E-11
DataValue, 0.35000000000000003, -4.4150000000000004E-11
DataValue, 0.34, -4.6970000000000007E-11
DataValue, 0.33, -5.2130000000000005E-11
DataValue, 0.32, -4.014E-11
DataValue, 0.31, -4.5860000000000004E-11
DataValue, 0.3, -5.003E-11
DataValue, 0.29, -4.1710000000000004E-11
DataValue, 0.28, -4.1250000000000006E-11
DataValue, 0.27, -4.985E-11
DataValue, 0.26, -4.133E-11
DataValue, 0.25, -4.21E-11
DataValue, 0.24, -4.756E-11
DataValue, 0.23, -3.6580000000000004E-11
DataValue, 0.22, -3.915E-11
DataValue, 0.21, -4.77E-11
DataValue, 0.2, -3.903E-11
DataValue, 0.19, -3.248E-11
DataValue, 0.18, -4.308E-11
DataValue, 0.17, -3.8950000000000005E-11
DataValue, 0.16, -3.0170000000000004E-11
DataValue, 0.15, -3.903E-11
DataValue, 0.14, -3.889E-11
DataValue, 0.13, -2.7470000000000003E-11
DataValue, 0.12, -3.714E-11
DataValue, 0.11, -3.7740000000000004E-11
DataValue, 0.1, -2.768E-11
DataValue, 0.09, -3.506E-11
DataValue, 0.08, -3.8920000000000006E-11
DataValue, 0.07, -3.0970000000000004E-11
DataValue, 0.06, -3.346E-11
DataValue, 0.05, -4.137E-11
DataValue, 0.04, -3.275E-11
DataValue, 0.03, -2.9330000000000004E-11
DataValue, 0.02, -3.9210000000000006E-11
DataValue, 0.01, -3.313E-11
DataValue, 0, -2.6160000000000003E-11
DataValue, -0.01, -3.6950000000000006E-11
DataValue, -0.02, -3.2460000000000003E-11
DataValue, -0.03, -2.2110000000000002E-11
DataValue, -0.04, -3.263E-11
DataValue, -0.05, -2.9010000000000002E-11
DataValue, -0.06, -3.182E-11
DataValue, -0.07, -3.659E-11
DataValue, -0.08, -2.509E-11
DataValue, -0.09, -3.11E-11
DataValue, -0.1, -3.4210000000000004E-11
DataValue, -0.11, -2.1930000000000002E-11
DataValue, -0.12, -3.19E-11
DataValue, -0.13, -3.328E-11
DataValue, -0.14, -2.234E-11
DataValue, -0.15, -3.2430000000000005E-11
DataValue, -0.16, -3.5230000000000004E-11
DataValue, -0.17, -2.549E-11
DataValue, -0.18, -3.284E-11
DataValue, -0.19, -4.1500000000000005E-11
DataValue, -0.2, -3.475E-11
DataValue, -0.21, -3.012E-11
DataValue, -0.22, -4.5220000000000006E-11
DataValue, -0.23, -4.0870000000000003E-11
DataValue, -0.24, -3.8070000000000004E-11
DataValue, -0.25, -5.1870000000000004E-11
DataValue, -0.26, -5.6280000000000005E-11
DataValue, -0.27, -5.3880000000000005E-11
DataValue, -0.28, -7.291000000000001E-11
DataValue, -0.29, -8.7580000000000009E-11
DataValue, -0.3, -9.450000000000001E-11
DataValue, -0.31, -1.1766E-10
DataValue, -0.32, -1.5033E-10
DataValue, -0.33, -1.7510000000000002E-10
DataValue, -0.34, -2.1514000000000002E-10
DataValue, -0.35000000000000003, -2.7037E-10
DataValue, -0.36, -3.29E-10
DataValue, -0.37, -4.2649000000000004E-10
DataValue, -0.38, -5.3866000000000008E-10
DataValue, -0.39, -6.6856E-10
DataValue, -0.4, -8.6016000000000006E-10
DataValue, -0.41000000000000003, -1.08933E-09
DataValue, -0.42, -1.4783E-09
DataValue, -0.43, -1.7895E-09
DataValue, -0.44, -2.2971E-09
DataValue, -0.45, -2.9296E-09
DataValue, -0.46, -3.749E-09
DataValue, -0.47000000000000003, -4.8053E-09
DataValue, -0.48, -6.1525E-09
DataValue, -0.49, -7.9098E-09
DataValue, -0.5, -1.01553E-08
DataValue, -0.51, -1.37214E-08
DataValue, -0.52, -1.7546199999999998E-08
DataValue, -0.53, -2.25012E-08
DataValue, -0.54, -2.8844599999999996E-08
DataValue, -0.55, -3.6847799999999996E-08
DataValue, -0.56, -4.7314599999999995E-08
DataValue, -0.57000000000000006, -6.0428199999999988E-08
DataValue, -0.58, -7.7011999999999988E-08
DataValue, -0.59, -9.7957799999999985E-08
DataValue, -0.6, -1.2428E-07
DataValue, -0.61, -1.5748E-07
DataValue, -0.62, -1.9876E-07
DataValue, -0.63, -2.5056E-07
DataValue, -0.64, -3.1382E-07
DataValue, -0.65, -3.908E-07
DataValue, -0.66, -4.867E-07
DataValue, -0.67, -5.9604E-07
DataValue, -0.68, -7.3044E-07
DataValue, -0.69000000000000006, -8.9213999999999994E-07
DataValue, -0.70000000000000007, -1.0791E-06
DataValue, -0.71, -1.2951E-06
DataValue, -0.72, -1.5462000000000001E-06
DataValue, -0.73, -1.8354000000000003E-06
DataValue, -0.74, -2.1628000000000003E-06
DataValue, -0.75, -2.5316000000000005E-06
DataValue, -0.76, -2.9549000000000003E-06
DataValue, -0.77, -3.418E-06
DataValue, -0.78, -3.9300000000000005E-06
DataValue, -0.79, -4.4916E-06
DataValue, -0.8, -5.1124E-06
DataValue, -0.81, -5.7822E-06
DataValue, -0.82000000000000006, -6.5167000000000006E-06
DataValue, -0.83000000000000007, -7.3151000000000005E-06
DataValue, -0.84, -8.1665E-06
DataValue, -0.85, -9.0698E-06
DataValue, -0.86, -1.0036500000000001E-05
DataValue, -0.87, -1.1070300000000001E-05
DataValue, -0.88, -1.2164E-05
DataValue, -0.89, -1.3318E-05
DataValue, -0.9, -1.4538E-05
DataValue, -0.91, -1.5856000000000002E-05
DataValue, -0.92, -1.7192E-05
DataValue, -0.93, -1.8612E-05
DataValue, -0.94000000000000006, -2.0098E-05
DataValue, -0.95000000000000007, -2.164E-05
DataValue, -0.96, -2.325E-05
DataValue, -0.97, -2.4928000000000003E-05
DataValue, -0.98, -2.6702E-05
DataValue, -0.99, -2.851E-05
DataValue, -1, -3.0374E-05
DataValue, -1.01, -3.232E-05
DataValue, -1.02, -3.4326E-05
DataValue, -1.03, -3.6386E-05
DataValue, -1.04, -3.8518E-05
DataValue, -1.05, -4.0714000000000004E-05
DataValue, -1.06, -4.303E-05
DataValue, -1.07, -4.5352E-05
DataValue, -1.08, -4.7742000000000005E-05
DataValue, -1.09, -5.0212E-05
DataValue, -1.1, -5.271E-05
DataValue, -1.11, -5.53E-05
DataValue, -1.12, -5.7928000000000005E-05
DataValue, -1.1300000000000001, -6.0692E-05
DataValue, -1.1400000000000001, -6.345E-05
DataValue, -1.1500000000000001, -6.6278E-05
DataValue, -1.16, -6.9202E-05
DataValue, -1.17, -7.2126000000000007E-05
DataValue, -1.18, -7.5130000000000007E-05
DataValue, -1.19, -7.8208000000000007E-05
DataValue, -1.2, -8.135E-05
DataValue, -1.21, -8.4608E-05
DataValue, -1.22, -8.7866E-05
DataValue, -1.23, -9.1178E-05
DataValue, -1.24, -9.4562000000000007E-05
DataValue, -1.25, -9.7986000000000007E-05
DataValue, -1.26, -0.00010149200000000001
DataValue, -1.27, -0.000105022
DataValue, -1.28, -0.000108688
DataValue, -1.29, -0.00011236
DataValue, -1.3, -0.00011598000000000001
DataValue, -1.31, -0.00011978000000000001
DataValue, -1.32, -0.00012362
DataValue, -1.33, -0.00012748000000000002
DataValue, -1.34, -0.00013144
DataValue, -1.35, -0.00013552
DataValue, -1.36, -0.00013962000000000002
DataValue, -1.37, -0.00014372
DataValue, -1.3800000000000001, -0.00014786
DataValue, -1.3900000000000001, -0.0001521
DataValue, -1.4000000000000001, -0.00015638000000000002
DataValue, -1.41, -0.0001607
DataValue, -1.42, -0.00016508
DataValue, -1.43, -0.0001696
DataValue, -1.44, -0.00017408000000000001
DataValue, -1.45, -0.00017862000000000002
DataValue, -1.46, -0.00018322000000000003
DataValue, -1.47, -0.00018784000000000002
DataValue, -1.48, -0.00019256
DataValue, -1.49, -0.00019730000000000003
DataValue, -1.5, -0.0002022
DataValue, -1.51, -0.00020706
DataValue, -1.52, -0.00021194
DataValue, -1.53, -0.00021688000000000002
DataValue, -1.54, -0.00022186000000000002
DataValue, -1.55, -0.0002269
DataValue, -1.56, -0.00023202000000000002
DataValue, -1.57, -0.00023714000000000002
DataValue, -1.58, -0.00024244000000000002
DataValue, -1.59, -0.0002477
DataValue, -1.6, -0.00025296
DataValue, -1.61, -0.00025832000000000003
DataValue, -1.62, -0.0002637
DataValue, -1.6300000000000001, -0.00026914
DataValue, -1.6400000000000001, -0.00027468
DataValue, -1.6500000000000001, -0.00028022
DataValue, -1.6600000000000001, -0.00028576000000000003
DataValue, -1.67, -0.00029138
DataValue, -1.68, -0.000297
DataValue, -1.69, -0.00030276
DataValue, -1.7, -0.0003086
DataValue, -1.71, -0.0003144
DataValue, -1.72, -0.00032022
DataValue, -1.73, -0.00032608
DataValue, -1.74, -0.00033202000000000004
DataValue, -1.75, -0.00033796
DataValue, -1.76, -0.000344
DataValue, -1.77, -0.00035012000000000004
DataValue, -1.78, -0.00035626
DataValue, -1.79, -0.00036238000000000004
DataValue, -1.8, -0.00036854000000000005
DataValue, -1.81, -0.00037476
DataValue, -1.82, -0.00038104
DataValue, -1.83, -0.00038746
DataValue, -1.84, -0.00039378000000000004
DataValue, -1.85, -0.00040018000000000003
DataValue, -1.86, -0.00040664000000000005
DataValue, -1.87, -0.00041306000000000003
DataValue, -1.8800000000000001, -0.00041956000000000003
DataValue, -1.8900000000000001, -0.00042626000000000003
DataValue, -1.9000000000000001, -0.00043284000000000004
DataValue, -1.9100000000000001, -0.00043944000000000003
DataValue, -1.92, -0.00044606
DataValue, -1.93, -0.0004528
DataValue, -1.94, -0.00045948
DataValue, -1.95, -0.00046624000000000004
DataValue, -1.96, -0.0004732
DataValue, -1.97, -0.00048002000000000006
DataValue, -1.98, -0.00048688000000000003
DataValue, -1.99, -0.00049382000000000007
DataValue, -2, -0.00050078
DataValue, -2.0100000000000002, -0.00050776
DataValue, -2.02, -0.0005149
DataValue, -2.0300000000000002, -0.00052194
DataValue, -2.04, -0.00052908
DataValue, -2.05, -0.00053618
DataValue, -2.06, -0.00054336
DataValue, -2.07, -0.00055052
DataValue, -2.08, -0.00055774
DataValue, -2.09, -0.00056518000000000009
DataValue, -2.1, -0.0005725
DataValue, -2.11, -0.00057982
DataValue, -2.12, -0.00058722000000000006
DataValue, -2.13, -0.00059462
DataValue, -2.14, -0.00060204000000000008
DataValue, -2.15, -0.00060960000000000007
DataValue, -2.16, -0.00061714000000000007
DataValue, -2.17, -0.00062474
DataValue, -2.18, -0.0006323
DataValue, -2.19, -0.00063988
DataValue, -2.2, -0.00064756
DataValue, -2.21, -0.00065536
DataValue, -2.22, -0.00066306
DataValue, -2.23, -0.00067078
DataValue, -2.24, -0.00067852000000000006
DataValue, -2.25, -0.00068638
DataValue, -2.2600000000000002, -0.00069418000000000008
DataValue, -2.27, -0.000702
DataValue, -2.2800000000000002, -0.00071008000000000009
DataValue, -2.29, -0.000718
DataValue, -2.3000000000000003, -0.0007259
DataValue, -2.31, -0.00073396000000000008
DataValue, -2.32, -0.00074190000000000009
DataValue, -2.33, -0.00074990000000000007
DataValue, -2.34, -0.00075814
DataValue, -2.35, -0.00076618000000000009
DataValue, -2.36, -0.00077424
DataValue, -2.37, -0.00078246
DataValue, -2.38, -0.00079064
DataValue, -2.39, -0.00079882
DataValue, -2.4, -0.00080708000000000006
DataValue, -2.41, -0.00081548
DataValue, -2.42, -0.00082380000000000007
DataValue, -2.43, -0.0008321
DataValue, -2.44, -0.00084048
DataValue, -2.45, -0.0008488
DataValue, -2.46, -0.0008572
DataValue, -2.47, -0.0008656
DataValue, -2.48, -0.00087426000000000008
DataValue, -2.49, -0.0008827
DataValue, -2.5, -0.0008911800000000001
DataValue, -2.5100000000000002, -0.0008997
DataValue, -2.52, -0.00090826
DataValue, -2.5300000000000002, -0.00091686
DataValue, -2.54, -0.00092556000000000008
DataValue, -2.5500000000000003, -0.0009342
DataValue, -2.56, -0.00094298000000000006
DataValue, -2.57, -0.0009516
DataValue, -2.58, -0.0009602
DataValue, -2.59, -0.00096910000000000008
DataValue, -2.6, -0.0009778
DataValue, -2.61, -0.00098678
DataValue, -2.62, -0.0009955
DataValue, -2.63, -0.0010043200000000002
DataValue, -2.64, -0.0010131200000000002
DataValue, -2.65, -0.00102202
DataValue, -2.66, -0.0010309400000000002
DataValue, -2.67, -0.00103988
DataValue, -2.68, -0.001049
DataValue, -2.69, -0.0010579
DataValue, -2.7, -0.0010669
DataValue, -2.71, -0.00107594
DataValue, -2.72, -0.00108492
DataValue, -2.73, -0.00109394
DataValue, -2.74, -0.00110296
DataValue, -2.75, -0.0011122600000000001
DataValue, -2.7600000000000002, -0.00112136
DataValue, -2.77, -0.00113054
DataValue, -2.7800000000000002, -0.00113974
DataValue, -2.79, -0.0011488800000000001
DataValue, -2.8000000000000003, -0.001158
DataValue, -2.81, -0.0011672
DataValue, -2.82, -0.0011764
DataValue, -2.83, -0.0011858
DataValue, -2.84, -0.0011952
DataValue, -2.85, -0.0012044
DataValue, -2.86, -0.0012138000000000001
DataValue, -2.87, -0.0012230000000000001
DataValue, -2.88, -0.0012326
DataValue, -2.89, -0.001242
DataValue, -2.9, -0.0012514
DataValue, -2.91, -0.0012608
DataValue, -2.92, -0.0012702
DataValue, -2.93, -0.0012798
DataValue, -2.94, -0.0012892000000000001
DataValue, -2.95, -0.0012986
DataValue, -2.96, -0.0013086
DataValue, -2.97, -0.001318
DataValue, -2.98, -0.0013276
DataValue, -2.99, -0.001337
DataValue, -3, -0.0013466
DataValue, -3.0100000000000002, -0.0013562000000000001
DataValue, -3.02, -0.0013658000000000001
DataValue, -3.0300000000000002, -0.0013758
DataValue, -3.04, -0.0013854
DataValue, -3.0500000000000003, -0.001395
DataValue, -3.06, -0.0014046
DataValue, -3.0700000000000003, -0.0014144000000000001
DataValue, -3.08, -0.0014242
DataValue, -3.09, -0.001434
DataValue, -3.1, -0.0014436
DataValue, -3.11, -0.0014536
DataValue, -3.12, -0.0014632
DataValue, -3.13, -0.0014732
DataValue, -3.14, -0.001483
DataValue, -3.15, -0.0014928
DataValue, -3.16, -0.001503
DataValue, -3.17, -0.0015126
DataValue, -3.18, -0.0015224
DataValue, -3.19, -0.0015324
DataValue, -3.2, -0.0015424
DataValue, -3.21, -0.0015522
DataValue, -3.22, -0.0015622000000000001
DataValue, -3.23, -0.0015724
DataValue, -3.24, -0.0015824
DataValue, -3.25, -0.0015924000000000001
DataValue, -3.2600000000000002, -0.0016024000000000001
DataValue, -3.27, -0.0016124
DataValue, -3.2800000000000002, -0.0016224
DataValue, -3.29, -0.0016324
