
SetupTitle, PMOS-id-vg-vbs@vds=-0.05
PrimitiveTest, I/V Sweep
TestParameter, Context.MainFrame, B1500A
TestParameter, Channel.UnitType, SMU, SMU, SMU, SMU
TestParameter, Channel.Unit, SMU4:HR, SMU3:HR, SMU1:HR, SMU2:HR
TestParameter, Channel.IName, ib, is, ig, id
TestParameter, Channel.VName, vb, vs, vg, vd
TestParameter, Channel.Mode, V, COMMON, V, V
TestParameter, Channel.Func, VAR2, CONST, VAR1, CONST
TestParameter, Channel.Index, 
TestParameter, Channel.Time, 
TestParameter, Measurement.Port.Unit, SMU4:HR, SMU3:HR, SMU1:HR, SMU2:HR
TestParameter, Measurement.Port.SeriesResistor, NONE, NONE, NONE, NONE
TestParameter, Measurement.Port.Filter, ON, ON, ON, ON
TestParameter, Measurement.Port.OutputVoltageComparison, 0, 0, 0, 0
TestParameter, Measurement.Primary.Locus, Single
TestParameter, Measurement.Primary.Scale, LINEAR
TestParameter, Measurement.Primary.Start, 0.5
TestParameter, Measurement.Primary.Stop, -3.3000000000000003
TestParameter, Measurement.Primary.Step, -0.01
TestParameter, Measurement.Primary.Compliance, 0.001
TestParameter, Measurement.Primary.PowerCompliance, 0
TestParameter, Measurement.Aborting.Condition, SKIP AT ANY ABNORMAL
TestParameter, Measurement.PostOutput.Value, START
TestParameter, Measurement.PostOutput.Retention, OFF
TestParameter, Measurement.Secondary.Start, 0
TestParameter, Measurement.Secondary.Count, 7
TestParameter, Measurement.Secondary.Step, 0.6
TestParameter, Measurement.Secondary.Compliance, 0.1
TestParameter, Measurement.Secondary.PowerCompliance, 0
TestParameter, Measurement.Bias.Source, 0, 0, 0.5, -0.05
TestParameter, Measurement.Bias.Compliance, 0.1, 0.1, 0.001, 0.1
TestParameter, Measurement.Monitor.Unit, SMU4:HR, SMU3:HR, SMU1:HR, SMU2:HR
TestParameter, Measurement.Monitor.Adc, HR ADC, HR ADC, HR ADC, HR ADC
TestParameter, Measurement.Monitor.Measurement, Compliance Side, Compliance Side, Compliance Side, Compliance Side
TestParameter, Measurement.Monitor.RangingMode, LIMITED, LIMITED, LIMITED, LIMITED
TestParameter, Measurement.Monitor.RangeBoundary, 1nA, 1nA, 1nA, 1nA
TestParameter, Measurement.Monitor.RangeRating, BY FULL RANGE, BY FULL RANGE, BY FULL RANGE, BY FULL RANGE
TestParameter, Measurement.Monitor.RangeRatingCoeff, 50, 50, 50, 50
TestParameter, Measurement.Timing.Hold, 0
TestParameter, Measurement.Timing.Delay, 0
TestParameter, Measurement.Adc.HighSpeed.Mode, AUTO
TestParameter, Measurement.Adc.HighSpeed.Coeff, 1
TestParameter, Measurement.Adc.HighResolution.AutoZero, OFF
TestParameter, Measurement.Adc.HighResolution.Mode, AUTO
TestParameter, Measurement.Adc.HighResolution.Coeff, 6
TestParameter, Measurement.WaitTime.Source.Coeff, 1
TestParameter, Measurement.WaitTime.Source.Offset, 0
TestParameter, Measurement.WaitTime.Monitor.Coeff, 1
TestParameter, Measurement.WaitTime.Monitor.Offset, 0
TestParameter, Output.Graph.Enabled, true
TestParameter, Output.Graph.AutoScaling, false
TestParameter, Output.Graph.XAxis.Data, vg
TestParameter, Output.Graph.XAxis.Scale, Linear
TestParameter, Output.Graph.XAxis.Left, 0
TestParameter, Output.Graph.XAxis.Right, 0.9
TestParameter, Output.Graph.XAxis.RunTimeAutoScale, true
TestParameter, Output.Graph.YAxis.Data, id
TestParameter, Output.Graph.YAxis.Scale, Linear
TestParameter, Output.Graph.YAxis.Bottom, -0.1
TestParameter, Output.Graph.YAxis.Top, 0.1
TestParameter, Output.Graph.YAxis.Group, 
TestParameter, Output.Graph.YAxis.RunTimeAutoScale, true
TestParameter, AutoAnalysis.Interpolation, false
TestParameter, AutoAnalysis.Var2StepCount, 1
TestParameter, AutoAnalysis.Var2StepScript, 
TestParameter, AutoAnalysis.Line1.Enabled, false
TestParameter, AutoAnalysis.Line1.Type, 1
TestParameter, AutoAnalysis.Line1.Fix, True
TestParameter, AutoAnalysis.Line1.YAxis, 0
TestParameter, AutoAnalysis.Line1.Point1.Type, 0
TestParameter, AutoAnalysis.Line1.Point1.XY.X, 
TestParameter, AutoAnalysis.Line1.Point1.XY.Y, 
TestParameter, AutoAnalysis.Line1.Point1.Data.Var, 
TestParameter, AutoAnalysis.Line1.Point1.Data.Condition, 
TestParameter, AutoAnalysis.Line1.Point1.Data.Start, false
TestParameter, AutoAnalysis.Line1.Point1.Data.StartVar, 
TestParameter, AutoAnalysis.Line1.Point1.Data.StartCondition, 
TestParameter, AutoAnalysis.Line1.Point2.Type, 0
TestParameter, AutoAnalysis.Line1.Point2.XY.X, 
TestParameter, AutoAnalysis.Line1.Point2.XY.Y, 
TestParameter, AutoAnalysis.Line1.Point2.Data.Var, 
TestParameter, AutoAnalysis.Line1.Point2.Data.Condition, 
TestParameter, AutoAnalysis.Line1.Point2.Data.Start, false
TestParameter, AutoAnalysis.Line1.Point2.Data.StartVar, 
TestParameter, AutoAnalysis.Line1.Point2.Data.StartCondition, 
TestParameter, AutoAnalysis.Line1.GradientExpr, 0
TestParameter, AutoAnalysis.Line2.Enabled, false
TestParameter, AutoAnalysis.Line2.Type, 1
TestParameter, AutoAnalysis.Line2.Fix, True
TestParameter, AutoAnalysis.Line2.YAxis, 0
TestParameter, AutoAnalysis.Line2.Point1.Type, 0
TestParameter, AutoAnalysis.Line2.Point1.XY.X, 
TestParameter, AutoAnalysis.Line2.Point1.XY.Y, 
TestParameter, AutoAnalysis.Line2.Point1.Data.Var, 
TestParameter, AutoAnalysis.Line2.Point1.Data.Condition, 
TestParameter, AutoAnalysis.Line2.Point1.Data.Start, false
TestParameter, AutoAnalysis.Line2.Point1.Data.StartVar, 
TestParameter, AutoAnalysis.Line2.Point1.Data.StartCondition, 
TestParameter, AutoAnalysis.Line2.Point2.Type, 0
TestParameter, AutoAnalysis.Line2.Point2.XY.X, 
TestParameter, AutoAnalysis.Line2.Point2.XY.Y, 
TestParameter, AutoAnalysis.Line2.Point2.Data.Var, 
TestParameter, AutoAnalysis.Line2.Point2.Data.Condition, 
TestParameter, AutoAnalysis.Line2.Point2.Data.Start, false
TestParameter, AutoAnalysis.Line2.Point2.Data.StartVar, 
TestParameter, AutoAnalysis.Line2.Point2.Data.StartCondition, 
TestParameter, AutoAnalysis.Line2.GradientExpr, 0
TestParameter, AutoAnalysis.Marker.Enabled, false
TestParameter, AutoAnalysis.Marker.Data.Var, 
TestParameter, AutoAnalysis.Marker.Data.Condition, 
TestParameter, AutoAnalysis.Marker.Data.Start, false
TestParameter, AutoAnalysis.Marker.Data.StartVar, 
TestParameter, AutoAnalysis.Marker.Data.StartCondition, 
MetaData, TestRecord.EntryPoint, true
MetaData, TestRecord.RecordTime, 01/15/2024 18:06:55
MetaData, TestRecord.TestTarget, P-20-1-298K
MetaData, TestRecord.IterationIndex, 1
MetaData, TestRecord.Preservation, true
MetaData, TestRecord.Flag, 
MetaData, TestRecord.Remarks, 
MetaData, TestRecord.LinkKey, 0716cb1d-09af-419c-8a28-68a77283d65e
MetaData, TestRecord.Parameters, 
Dimension1, 381, 381
Dimension2, 7, 7
DataName, vg, id
DataValue, 0.5, -2.158E-11
DataValue, 0.49, -2.1660000000000003E-11
DataValue, 0.48, -1.1050000000000002E-11
DataValue, 0.47000000000000003, -2.183E-11
DataValue, 0.46, -2.083E-11
DataValue, 0.45, -1.1940000000000001E-11
DataValue, 0.44, -2.5030000000000003E-11
DataValue, 0.43, -2.0620000000000002E-11
DataValue, 0.42, -1.4150000000000001E-11
DataValue, 0.41000000000000003, -2.5500000000000002E-11
DataValue, 0.4, -2.019E-11
DataValue, 0.39, -1.3990000000000002E-11
DataValue, 0.38, -2.7380000000000003E-11
DataValue, 0.37, -1.968E-11
DataValue, 0.36, -1.49E-11
DataValue, 0.35000000000000003, -2.8160000000000003E-11
DataValue, 0.34, -2.0880000000000003E-11
DataValue, 0.33, -1.9000000000000002E-11
DataValue, 0.32, -2.8190000000000002E-11
DataValue, 0.31, -1.926E-11
DataValue, 0.3, -1.3770000000000001E-11
DataValue, 0.29, -2.815E-11
DataValue, 0.28, -2.014E-11
DataValue, 0.27, -1.413E-11
DataValue, 0.26, -2.3720000000000003E-11
DataValue, 0.25, -2.136E-11
DataValue, 0.24, -1.1960000000000002E-11
DataValue, 0.23, -2.1550000000000002E-11
DataValue, 0.22, -2.413E-11
DataValue, 0.21, -1.549E-11
DataValue, 0.2, -2.127E-11
DataValue, 0.19, -2.216E-11
DataValue, 0.18, -1.2730000000000001E-11
DataValue, 0.17, -2.3840000000000002E-11
DataValue, 0.16, -2.152E-11
DataValue, 0.15, -1.31E-11
DataValue, 0.14, -2.4860000000000002E-11
DataValue, 0.13, -2.028E-11
DataValue, 0.12, -1.3700000000000002E-11
DataValue, 0.11, -2.6690000000000004E-11
DataValue, 0.1, -2.0020000000000002E-11
DataValue, 0.09, -1.653E-11
DataValue, 0.08, -2.899E-11
DataValue, 0.07, -2.074E-11
DataValue, 0.06, -1.868E-11
DataValue, 0.05, -2.9190000000000005E-11
DataValue, 0.04, -1.9660000000000003E-11
DataValue, 0.03, -1.9220000000000003E-11
DataValue, 0.02, -2.7800000000000004E-11
DataValue, 0.01, -1.7760000000000002E-11
DataValue, 0, -1.912E-11
DataValue, -0.01, -2.936E-11
DataValue, -0.02, -2.11E-11
DataValue, -0.03, -1.717E-11
DataValue, -0.04, -2.5990000000000002E-11
DataValue, -0.05, -2.123E-11
DataValue, -0.06, -1.3390000000000002E-11
DataValue, -0.07, -2.307E-11
DataValue, -0.08, -2.325E-11
DataValue, -0.09, -1.252E-11
DataValue, -0.1, -2.152E-11
DataValue, -0.11, -2.311E-11
DataValue, -0.12, -1.5120000000000002E-11
DataValue, -0.13, -2.2820000000000002E-11
DataValue, -0.14, -2.857E-11
DataValue, -0.15, -2.0460000000000003E-11
DataValue, -0.16, -2.1640000000000002E-11
DataValue, -0.17, -3.055E-11
DataValue, -0.18, -2.4300000000000003E-11
DataValue, -0.19, -2.209E-11
DataValue, -0.2, -3.223E-11
DataValue, -0.21, -2.7580000000000003E-11
DataValue, -0.22, -2.163E-11
DataValue, -0.23, -3.391E-11
DataValue, -0.24, -2.742E-11
DataValue, -0.25, -3.98E-11
DataValue, -0.26, -4.5730000000000006E-11
DataValue, -0.27, -4.0630000000000006E-11
DataValue, -0.28, -5.768E-11
DataValue, -0.29, -6.761E-11
DataValue, -0.3, -7.085E-11
DataValue, -0.31, -9.836000000000001E-11
DataValue, -0.32, -1.1994E-10
DataValue, -0.33, -1.3654E-10
DataValue, -0.34, -1.8336000000000003E-10
DataValue, -0.35000000000000003, -2.2372000000000003E-10
DataValue, -0.36, -2.7333000000000003E-10
DataValue, -0.37, -3.5669000000000004E-10
DataValue, -0.38, -4.4231000000000005E-10
DataValue, -0.39, -5.5415E-10
DataValue, -0.4, -7.1455000000000008E-10
DataValue, -0.41000000000000003, -9.0249000000000005E-10
DataValue, -0.42, -1.2289E-09
DataValue, -0.43, -1.4895E-09
DataValue, -0.44, -1.892E-09
DataValue, -0.45, -2.4339E-09
DataValue, -0.46, -3.1089E-09
DataValue, -0.47000000000000003, -3.9706E-09
DataValue, -0.48, -5.1077E-09
DataValue, -0.49, -6.5564E-09
DataValue, -0.5, -8.4247E-09
DataValue, -0.51, -1.07658E-08
DataValue, -0.52, -1.4556799999999998E-08
DataValue, -0.53, -1.8638599999999997E-08
DataValue, -0.54, -2.3898999999999998E-08
DataValue, -0.55, -3.04538E-08
DataValue, -0.56, -3.91132E-08
DataValue, -0.57000000000000006, -4.9838999999999994E-08
DataValue, -0.58, -6.34986E-08
DataValue, -0.59, -8.05364E-08
DataValue, -0.6, -1.0205579999999999E-07
DataValue, -0.61, -1.2946E-07
DataValue, -0.62, -1.6184E-07
DataValue, -0.63, -2.0346E-07
DataValue, -0.64, -2.535E-07
DataValue, -0.65, -3.1361999999999997E-07
DataValue, -0.66, -3.8484E-07
DataValue, -0.67, -4.6926E-07
DataValue, -0.68, -5.6958E-07
DataValue, -0.69000000000000006, -6.8882E-07
DataValue, -0.70000000000000007, -8.2102E-07
DataValue, -0.71, -9.7242E-07
DataValue, -0.72, -1.14378E-06
DataValue, -0.73, -1.3335000000000002E-06
DataValue, -0.74, -1.5407000000000001E-06
DataValue, -0.75, -1.7703000000000002E-06
DataValue, -0.76, -2.0221E-06
DataValue, -0.77, -2.2894E-06
DataValue, -0.78, -2.5697E-06
DataValue, -0.79, -2.8697000000000002E-06
DataValue, -0.8, -3.1844000000000004E-06
DataValue, -0.81, -3.5127000000000003E-06
DataValue, -0.82000000000000006, -3.8541E-06
DataValue, -0.83000000000000007, -4.2134E-06
DataValue, -0.84, -4.5795000000000008E-06
DataValue, -0.85, -4.9485E-06
DataValue, -0.86, -5.3292000000000006E-06
DataValue, -0.87, -5.7164000000000009E-06
DataValue, -0.88, -6.1098E-06
DataValue, -0.89, -6.5085000000000005E-06
DataValue, -0.9, -6.9124000000000009E-06
DataValue, -0.91, -7.3264000000000007E-06
DataValue, -0.92, -7.7351000000000015E-06
DataValue, -0.93, -8.1458000000000009E-06
DataValue, -0.94000000000000006, -8.5599E-06
DataValue, -0.95000000000000007, -8.9762E-06
DataValue, -0.96, -9.3925E-06
DataValue, -0.97, -9.8105E-06
DataValue, -0.98, -1.02378E-05
DataValue, -0.99, -1.0653100000000001E-05
DataValue, -1, -1.1067900000000001E-05
DataValue, -1.01, -1.1483700000000002E-05
DataValue, -1.02, -1.1904E-05
DataValue, -1.03, -1.2316E-05
DataValue, -1.04, -1.273E-05
DataValue, -1.05, -1.3142E-05
DataValue, -1.06, -1.3566E-05
DataValue, -1.07, -1.3968E-05
DataValue, -1.08, -1.4380000000000001E-05
DataValue, -1.09, -1.4782E-05
DataValue, -1.1, -1.5188000000000001E-05
DataValue, -1.11, -1.559E-05
DataValue, -1.12, -1.5992000000000002E-05
DataValue, -1.1300000000000001, -1.6392E-05
DataValue, -1.1400000000000001, -1.6794000000000002E-05
DataValue, -1.1500000000000001, -1.719E-05
DataValue, -1.16, -1.7576E-05
DataValue, -1.17, -1.7964E-05
DataValue, -1.18, -1.8344E-05
DataValue, -1.19, -1.8734E-05
DataValue, -1.2, -1.9112E-05
DataValue, -1.21, -1.9504E-05
DataValue, -1.22, -1.9882E-05
DataValue, -1.23, -2.0248E-05
DataValue, -1.24, -2.0624E-05
DataValue, -1.25, -2.0996E-05
DataValue, -1.26, -2.1362E-05
DataValue, -1.27, -2.1732E-05
DataValue, -1.28, -2.2094000000000002E-05
DataValue, -1.29, -2.2460000000000002E-05
DataValue, -1.3, -2.2822E-05
DataValue, -1.31, -2.3174000000000002E-05
DataValue, -1.32, -2.353E-05
DataValue, -1.33, -2.3880000000000002E-05
DataValue, -1.34, -2.4226E-05
DataValue, -1.35, -2.4584E-05
DataValue, -1.36, -2.4924E-05
DataValue, -1.37, -2.527E-05
DataValue, -1.3800000000000001, -2.5608E-05
DataValue, -1.3900000000000001, -2.595E-05
DataValue, -1.4000000000000001, -2.6286000000000002E-05
DataValue, -1.41, -2.6614E-05
DataValue, -1.42, -2.695E-05
DataValue, -1.43, -2.7284E-05
DataValue, -1.44, -2.7614E-05
DataValue, -1.45, -2.7934E-05
DataValue, -1.46, -2.8262E-05
DataValue, -1.47, -2.8576000000000002E-05
DataValue, -1.48, -2.8894E-05
DataValue, -1.49, -2.9216E-05
DataValue, -1.5, -2.9538E-05
DataValue, -1.51, -2.9848E-05
DataValue, -1.52, -3.0152000000000002E-05
DataValue, -1.53, -3.0466000000000003E-05
DataValue, -1.54, -3.0772E-05
DataValue, -1.55, -3.1082E-05
DataValue, -1.56, -3.1378000000000003E-05
DataValue, -1.57, -3.168E-05
DataValue, -1.58, -3.1978000000000005E-05
DataValue, -1.59, -3.2272E-05
DataValue, -1.6, -3.2562000000000004E-05
DataValue, -1.61, -3.2866E-05
DataValue, -1.62, -3.3154E-05
DataValue, -1.6300000000000001, -3.3438E-05
DataValue, -1.6400000000000001, -3.3736000000000004E-05
DataValue, -1.6500000000000001, -3.4030000000000005E-05
DataValue, -1.6600000000000001, -3.4304E-05
DataValue, -1.67, -3.4580000000000004E-05
DataValue, -1.68, -3.4866E-05
DataValue, -1.69, -3.5146E-05
DataValue, -1.7, -3.542E-05
DataValue, -1.71, -3.5692E-05
DataValue, -1.72, -3.597E-05
DataValue, -1.73, -3.6238E-05
DataValue, -1.74, -3.6502000000000004E-05
DataValue, -1.75, -3.677E-05
DataValue, -1.76, -3.7034E-05
DataValue, -1.77, -3.731E-05
DataValue, -1.78, -3.757E-05
DataValue, -1.79, -3.7834000000000004E-05
DataValue, -1.8, -3.8096E-05
DataValue, -1.81, -3.8358E-05
DataValue, -1.82, -3.8612E-05
DataValue, -1.83, -3.8860000000000004E-05
DataValue, -1.84, -3.9122E-05
DataValue, -1.85, -3.9372E-05
DataValue, -1.86, -3.9618E-05
DataValue, -1.87, -3.9866E-05
DataValue, -1.8800000000000001, -4.012E-05
DataValue, -1.8900000000000001, -4.0366E-05
DataValue, -1.9000000000000001, -4.0612000000000004E-05
DataValue, -1.9100000000000001, -4.0848E-05
DataValue, -1.92, -4.1096E-05
DataValue, -1.93, -4.1326000000000004E-05
DataValue, -1.94, -4.156E-05
DataValue, -1.95, -4.1802000000000004E-05
DataValue, -1.96, -4.2046000000000004E-05
DataValue, -1.97, -4.2268E-05
DataValue, -1.98, -4.2502E-05
DataValue, -1.99, -4.2738E-05
DataValue, -2, -4.2972E-05
DataValue, -2.0100000000000002, -4.3198E-05
DataValue, -2.02, -4.343E-05
DataValue, -2.0300000000000002, -4.3658E-05
DataValue, -2.04, -4.388E-05
DataValue, -2.05, -4.4106E-05
DataValue, -2.06, -4.4316E-05
DataValue, -2.07, -4.4546000000000003E-05
DataValue, -2.08, -4.477E-05
DataValue, -2.09, -4.4986E-05
DataValue, -2.1, -4.5192000000000004E-05
DataValue, -2.11, -4.5418000000000005E-05
DataValue, -2.12, -4.5632E-05
DataValue, -2.13, -4.5842E-05
DataValue, -2.14, -4.6052E-05
DataValue, -2.15, -4.6268000000000005E-05
DataValue, -2.16, -4.6468E-05
DataValue, -2.17, -4.6684E-05
DataValue, -2.18, -4.6888E-05
DataValue, -2.19, -4.7090000000000005E-05
DataValue, -2.2, -4.7286E-05
DataValue, -2.21, -4.7506E-05
DataValue, -2.22, -4.7702000000000005E-05
DataValue, -2.23, -4.7892E-05
DataValue, -2.24, -4.811E-05
DataValue, -2.25, -4.8306E-05
DataValue, -2.2600000000000002, -4.8504E-05
DataValue, -2.27, -4.8692E-05
DataValue, -2.2800000000000002, -4.8902E-05
DataValue, -2.29, -4.9092000000000004E-05
DataValue, -2.3000000000000003, -4.9274E-05
DataValue, -2.31, -4.9468E-05
DataValue, -2.32, -4.9666E-05
DataValue, -2.33, -4.986E-05
DataValue, -2.34, -5.0042E-05
DataValue, -2.35, -5.0232E-05
DataValue, -2.36, -5.043E-05
DataValue, -2.37, -5.0594000000000004E-05
DataValue, -2.38, -5.0794E-05
DataValue, -2.39, -5.097E-05
DataValue, -2.4, -5.115E-05
DataValue, -2.41, -5.1332E-05
DataValue, -2.42, -5.151E-05
DataValue, -2.43, -5.169E-05
DataValue, -2.44, -5.1878E-05
DataValue, -2.45, -5.204E-05
DataValue, -2.46, -5.2234E-05
DataValue, -2.47, -5.2386E-05
DataValue, -2.48, -5.2576E-05
DataValue, -2.49, -5.274E-05
DataValue, -2.5, -5.2918000000000004E-05
DataValue, -2.5100000000000002, -5.3092E-05
DataValue, -2.52, -5.326E-05
DataValue, -2.5300000000000002, -5.343E-05
DataValue, -2.54, -5.3608E-05
DataValue, -2.5500000000000003, -5.376E-05
DataValue, -2.56, -5.393E-05
DataValue, -2.57, -5.41E-05
DataValue, -2.58, -5.4264E-05
DataValue, -2.59, -5.443E-05
DataValue, -2.6, -5.4604E-05
DataValue, -2.61, -5.4758E-05
DataValue, -2.62, -5.4918000000000005E-05
DataValue, -2.63, -5.5078000000000004E-05
DataValue, -2.64, -5.524E-05
DataValue, -2.65, -5.5396E-05
DataValue, -2.66, -5.5556E-05
DataValue, -2.67, -5.5724000000000004E-05
DataValue, -2.68, -5.5878E-05
DataValue, -2.69, -5.6018000000000005E-05
DataValue, -2.7, -5.6188000000000005E-05
DataValue, -2.71, -5.6342000000000004E-05
DataValue, -2.72, -5.6492E-05
DataValue, -2.73, -5.6646E-05
DataValue, -2.74, -5.6794000000000005E-05
DataValue, -2.75, -5.6962E-05
DataValue, -2.7600000000000002, -5.7104E-05
DataValue, -2.77, -5.7248000000000005E-05
DataValue, -2.7800000000000002, -5.7396000000000004E-05
DataValue, -2.79, -5.7546E-05
DataValue, -2.8000000000000003, -5.7696000000000005E-05
DataValue, -2.81, -5.7844000000000004E-05
DataValue, -2.82, -5.7992E-05
DataValue, -2.83, -5.813E-05
DataValue, -2.84, -5.8280000000000004E-05
DataValue, -2.85, -5.8426E-05
DataValue, -2.86, -5.8566E-05
DataValue, -2.87, -5.8694000000000004E-05
DataValue, -2.88, -5.8856E-05
DataValue, -2.89, -5.8988000000000005E-05
DataValue, -2.9, -5.9118E-05
DataValue, -2.91, -5.9272000000000004E-05
DataValue, -2.92, -5.941E-05
DataValue, -2.93, -5.9538000000000005E-05
DataValue, -2.94, -5.9684E-05
DataValue, -2.95, -5.9826E-05
DataValue, -2.96, -5.996E-05
DataValue, -2.97, -6.009E-05
DataValue, -2.98, -6.0226E-05
DataValue, -2.99, -6.037E-05
DataValue, -3, -6.0480000000000004E-05
DataValue, -3.0100000000000002, -6.063E-05
DataValue, -3.02, -6.0756E-05
DataValue, -3.0300000000000002, -6.088E-05
DataValue, -3.04, -6.1012000000000005E-05
DataValue, -3.0500000000000003, -6.1148E-05
DataValue, -3.06, -6.1272E-05
DataValue, -3.0700000000000003, -6.14E-05
DataValue, -3.08, -6.1534E-05
DataValue, -3.09, -6.167E-05
DataValue, -3.1, -6.179E-05
DataValue, -3.11, -6.1914E-05
DataValue, -3.12, -6.2044E-05
DataValue, -3.13, -6.2174E-05
DataValue, -3.14, -6.2274000000000007E-05
DataValue, -3.15, -6.2406E-05
DataValue, -3.16, -6.2548E-05
DataValue, -3.17, -6.2636E-05
DataValue, -3.18, -6.2766E-05
DataValue, -3.19, -6.2894E-05
DataValue, -3.2, -6.3004000000000009E-05
DataValue, -3.21, -6.3128E-05
DataValue, -3.22, -6.3248E-05
DataValue, -3.23, -6.3384E-05
DataValue, -3.24, -6.3486000000000008E-05
DataValue, -3.25, -6.3604E-05
DataValue, -3.2600000000000002, -6.373E-05
DataValue, -3.27, -6.3832000000000008E-05
DataValue, -3.2800000000000002, -6.3944E-05
DataValue, -3.29, -6.4074E-05
DataValue, -3.3000000000000003, -6.4190000000000007E-05
DataValue, 0.5, -8.9100000000000014E-12
DataValue, 0.49, -1.3360000000000001E-11
DataValue, 0.48, 1.04E-12
