
SetupTitle, idvg3.3
PrimitiveTest, I/V Sweep
TestParameter, Context.MainFrame, B1500A
TestParameter, Channel.UnitType, SMU, SMU, SMU, SMU
TestParameter, Channel.Unit, SMU2:HR, SMU1:HR, SMU3:HR, SMU4:HR
TestParameter, Channel.IName, Id, Ig, Is, Ibg
TestParameter, Channel.VName, Vd, Vg, Vs, Vbg
TestParameter, Channel.Mode, V, V, V, V
TestParameter, Channel.Func, CONST, VAR1, CONST, VAR2
TestParameter, Channel.Index, 
TestParameter, Channel.Time, 
TestParameter, Measurement.Port.Unit, SMU2:HR, SMU1:HR, SMU3:HR, SMU4:HR
TestParameter, Measurement.Port.SeriesResistor, NONE, NONE, NONE, NONE
TestParameter, Measurement.Port.Filter, ON, ON, ON, ON
TestParameter, Measurement.Port.OutputVoltageComparison, 0, 0, 0, 0
TestParameter, Measurement.Primary.Locus, Single
TestParameter, Measurement.Primary.Scale, LINEAR
TestParameter, Measurement.Primary.Start, -2.1
TestParameter, Measurement.Primary.Stop, 3.63
TestParameter, Measurement.Primary.Step, 0.03
TestParameter, Measurement.Primary.Compliance, 0.1
TestParameter, Measurement.Primary.PowerCompliance, 0
TestParameter, Measurement.Aborting.Condition, CONTINUE AT ANY
TestParameter, Measurement.PostOutput.Value, START
TestParameter, Measurement.PostOutput.Retention, OFF
TestParameter, Measurement.Secondary.Start, -2
TestParameter, Measurement.Secondary.Count, 5
TestParameter, Measurement.Secondary.Step, 2
TestParameter, Measurement.Secondary.Compliance, 0.1
TestParameter, Measurement.Secondary.PowerCompliance, 0
TestParameter, Measurement.Bias.Source, 3.3000000000000003, -2.1, 0, -2
TestParameter, Measurement.Bias.Compliance, 0.1, 0.1, 0.1, 0.1
TestParameter, Measurement.Monitor.Unit, SMU2:HR, SMU1:HR, SMU3:HR, SMU4:HR
TestParameter, Measurement.Monitor.Adc, HR ADC, HR ADC, HR ADC, HR ADC
TestParameter, Measurement.Monitor.Measurement, Compliance Side, Compliance Side, Compliance Side, Compliance Side
TestParameter, Measurement.Monitor.RangingMode, LIMITED, LIMITED, LIMITED, LIMITED
TestParameter, Measurement.Monitor.RangeBoundary, 1nA, 1nA, 1nA, 1nA
TestParameter, Measurement.Monitor.RangeRating, BY FULL RANGE, BY FULL RANGE, BY FULL RANGE, BY FULL RANGE
TestParameter, Measurement.Monitor.RangeRatingCoeff, 50, 50, 50, 50
TestParameter, Measurement.Timing.Hold, 0
TestParameter, Measurement.Timing.Delay, 0
TestParameter, Measurement.Adc.HighSpeed.Mode, AUTO
TestParameter, Measurement.Adc.HighSpeed.Coeff, 1
TestParameter, Measurement.Adc.HighResolution.AutoZero, OFF
TestParameter, Measurement.Adc.HighResolution.Mode, PLC
TestParameter, Measurement.Adc.HighResolution.Coeff, 1
TestParameter, Measurement.WaitTime.Source.Coeff, 1
TestParameter, Measurement.WaitTime.Source.Offset, 0
TestParameter, Measurement.WaitTime.Monitor.Coeff, 1
TestParameter, Measurement.WaitTime.Monitor.Offset, 0
TestParameter, Function.User.Name, gm, absId
TestParameter, Function.User.Unit, S, A
TestParameter, Function.User.Definition, diff(Id,Vg), abs(Id)
TestParameter, Output.Graph.Enabled, true
TestParameter, Output.Graph.AutoScaling, false
TestParameter, Output.Graph.XAxis.Data, Vg
TestParameter, Output.Graph.XAxis.Scale, Linear
TestParameter, Output.Graph.XAxis.Left, -3
TestParameter, Output.Graph.XAxis.Right, 3.63
TestParameter, Output.Graph.XAxis.RunTimeAutoScale, true
TestParameter, Output.Graph.YAxis.Data, Id, Ig, Ib
TestParameter, Output.Graph.YAxis.Scale, Log, Linear, Linear
TestParameter, Output.Graph.YAxis.Bottom, 0.001, -0.1, -0.1
TestParameter, Output.Graph.YAxis.Top, 0.01, 0.1, 0.1
TestParameter, Output.Graph.YAxis.Group, , , 
TestParameter, Output.Graph.YAxis.RunTimeAutoScale, true, true, true
TestParameter, Output.List.Data, Vg, Vd, Ig, Id, Ibg, Is, gm, Vbg, absId
TestParameter, AutoAnalysis.Interpolation, false
TestParameter, AutoAnalysis.Var2StepCount, 1
TestParameter, AutoAnalysis.Var2StepScript, 
TestParameter, AutoAnalysis.Line1.Enabled, false
TestParameter, AutoAnalysis.Line1.Type, 2
TestParameter, AutoAnalysis.Line1.Fix, True
TestParameter, AutoAnalysis.Line1.YAxis, 0
TestParameter, AutoAnalysis.Line1.Point1.Type, 1
TestParameter, AutoAnalysis.Line1.Point1.XY.X, 
TestParameter, AutoAnalysis.Line1.Point1.XY.Y, 
TestParameter, AutoAnalysis.Line1.Point1.Data.Var, Id
TestParameter, AutoAnalysis.Line1.Point1.Data.Condition, 
TestParameter, AutoAnalysis.Line1.Point1.Data.Start, false
TestParameter, AutoAnalysis.Line1.Point1.Data.StartVar, 
TestParameter, AutoAnalysis.Line1.Point1.Data.StartCondition, 
TestParameter, AutoAnalysis.Line1.Point2.Type, 0
TestParameter, AutoAnalysis.Line1.Point2.XY.X, 
TestParameter, AutoAnalysis.Line1.Point2.XY.Y, 
TestParameter, AutoAnalysis.Line1.Point2.Data.Var, 
TestParameter, AutoAnalysis.Line1.Point2.Data.Condition, 
TestParameter, AutoAnalysis.Line1.Point2.Data.Start, false
TestParameter, AutoAnalysis.Line1.Point2.Data.StartVar, 
TestParameter, AutoAnalysis.Line1.Point2.Data.StartCondition, 
TestParameter, AutoAnalysis.Line1.GradientExpr, 0
TestParameter, AutoAnalysis.Line2.Enabled, false
TestParameter, AutoAnalysis.Line2.Type, 1
TestParameter, AutoAnalysis.Line2.Fix, True
TestParameter, AutoAnalysis.Line2.YAxis, 0
TestParameter, AutoAnalysis.Line2.Point1.Type, 0
TestParameter, AutoAnalysis.Line2.Point1.XY.X, 
TestParameter, AutoAnalysis.Line2.Point1.XY.Y, 
TestParameter, AutoAnalysis.Line2.Point1.Data.Var, 
TestParameter, AutoAnalysis.Line2.Point1.Data.Condition, 
TestParameter, AutoAnalysis.Line2.Point1.Data.Start, false
TestParameter, AutoAnalysis.Line2.Point1.Data.StartVar, 
TestParameter, AutoAnalysis.Line2.Point1.Data.StartCondition, 
TestParameter, AutoAnalysis.Line2.Point2.Type, 0
TestParameter, AutoAnalysis.Line2.Point2.XY.X, 
TestParameter, AutoAnalysis.Line2.Point2.XY.Y, 
TestParameter, AutoAnalysis.Line2.Point2.Data.Var, 
TestParameter, AutoAnalysis.Line2.Point2.Data.Condition, 
TestParameter, AutoAnalysis.Line2.Point2.Data.Start, false
TestParameter, AutoAnalysis.Line2.Point2.Data.StartVar, 
TestParameter, AutoAnalysis.Line2.Point2.Data.StartCondition, 
TestParameter, AutoAnalysis.Line2.GradientExpr, 0
TestParameter, AutoAnalysis.Marker.Enabled, false
TestParameter, AutoAnalysis.Marker.Data.Var, 
TestParameter, AutoAnalysis.Marker.Data.Condition, 
TestParameter, AutoAnalysis.Marker.Data.Start, false
TestParameter, AutoAnalysis.Marker.Data.StartVar, 
TestParameter, AutoAnalysis.Marker.Data.StartCondition, 
MetaData, TestRecord.EntryPoint, true
MetaData, TestRecord.RecordTime, 01/16/2024 16:41:30
MetaData, TestRecord.TestTarget, P-0.22-0.35-298K
MetaData, TestRecord.IterationIndex, 3
MetaData, TestRecord.Preservation, true
MetaData, TestRecord.Flag, 
MetaData, TestRecord.Remarks, 
MetaData, TestRecord.LinkKey, d93f762e-f00c-4d97-9d05-80058dcfc130
MetaData, TestRecord.Parameters, 
Dimension1, 192, 192, 192, 192, 192, 192, 192, 192, 192, 192
Dimension2, 5, 5, 5, 5, 5, 5, 5, 5, 5, 5
DataName, Vg, Vbg, Vd, Id, Ig, Is, Ibg, gm, absId, Ib
DataValue, -2.1, -2, 3.3000000000000003, 8.604E-12, -2.507E-12, -1.519E-12, -3.0180000000000003E-12, -3.2033333333333059E-11, 8.604E-12, 
DataValue, -2.07, -2, 3.3000000000000003, 7.643E-12, -2.4170000000000003E-12, -1.489E-12, -2.9770000000000003E-12, -2.3266666666666633E-11, 7.643E-12, 
DataValue, -2.04, -2, 3.3000000000000003, 7.2080000000000008E-12, -2.327E-12, -1.4510000000000002E-12, -2.937E-12, -9.4666666666667286E-12, 7.2080000000000008E-12, 
DataValue, -2.0100000000000002, -2, 3.3000000000000003, 7.0750000000000004E-12, -2.265E-12, -1.4260000000000002E-12, -2.9090000000000002E-12, -1.6666666666674994E-14, 7.0750000000000004E-12, 
DataValue, -1.98, -2, 3.3000000000000003, 7.207E-12, -2.277E-12, -1.4E-12, -2.8860000000000004E-12, 1.0666666666666572E-12, 7.207E-12, 
DataValue, -1.95, -2, 3.3000000000000003, 7.139E-12, -2.3050000000000004E-12, -1.416E-12, -2.916E-12, -2.5833333333333317E-12, 7.139E-12, 
DataValue, -1.92, -2, 3.3000000000000003, 7.052E-12, -2.2210000000000003E-12, -1.4440000000000001E-12, -2.988E-12, -1.8833333333333391E-12, 7.052E-12, 
DataValue, -1.8900000000000001, -2, 3.3000000000000003, 7.026E-12, -2.1670000000000004E-12, -1.4420000000000001E-12, -2.949E-12, 2.8833333333333441E-12, 7.026E-12, 
DataValue, -1.86, -2, 3.3000000000000003, 7.2250000000000004E-12, -2.147E-12, -1.4650000000000001E-12, -2.9060000000000003E-12, -2.8333333333333219E-12, 7.2250000000000004E-12, 
DataValue, -1.83, -2, 3.3000000000000003, 6.8560000000000007E-12, -2.2210000000000003E-12, -1.3990000000000002E-12, -2.9E-12, -8.1333333333333191E-12, 6.8560000000000007E-12, 
DataValue, -1.8, -2, 3.3000000000000003, 6.7370000000000009E-12, -2.1200000000000003E-12, -1.4320000000000002E-12, -2.9230000000000004E-12, 1.7999999999999974E-12, 6.7370000000000009E-12, 
DataValue, -1.77, -2, 3.3000000000000003, 6.9640000000000006E-12, -2.1790000000000003E-12, -1.4550000000000002E-12, -2.9600000000000003E-12, 2.4666666666666607E-12, 6.9640000000000006E-12, 
DataValue, -1.74, -2, 3.3000000000000003, 6.8850000000000007E-12, -2.113E-12, -1.391E-12, -2.8380000000000002E-12, -2.8333333333334027E-13, 6.8850000000000007E-12, 
DataValue, -1.71, -2, 3.3000000000000003, 6.947E-12, -2.151E-12, -1.423E-12, -2.8770000000000004E-12, 1.1666666666667113E-13, 6.947E-12, 
DataValue, -1.68, -2, 3.3000000000000003, 6.8920000000000009E-12, -2.148E-12, -1.4200000000000002E-12, -2.8770000000000004E-12, 5.8333333333334424E-13, 6.8920000000000009E-12, 
DataValue, -1.6500000000000001, -2, 3.3000000000000003, 6.9820000000000007E-12, -2.086E-12, -1.4190000000000001E-12, -2.9060000000000003E-12, 2.0666666666666705E-12, 6.9820000000000007E-12, 
DataValue, -1.62, -2, 3.3000000000000003, 7.0160000000000008E-12, -2.165E-12, -1.4050000000000002E-12, -2.853E-12, -3.5333333333333355E-12, 7.0160000000000008E-12, 
DataValue, -1.59, -2, 3.3000000000000003, 6.7700000000000004E-12, -2.08E-12, -1.404E-12, -2.8630000000000002E-12, -4.5833333333333353E-12, 6.7700000000000004E-12, 
DataValue, -1.56, -2, 3.3000000000000003, 6.7410000000000005E-12, -2.015E-12, -1.4400000000000001E-12, -2.8550000000000003E-12, 2.3500000000000031E-12, 6.7410000000000005E-12, 
DataValue, -1.53, -2, 3.3000000000000003, 6.9110000000000007E-12, -2.115E-12, -1.3980000000000001E-12, -2.912E-12, -2.1666666666666724E-13, 6.9110000000000007E-12, 
DataValue, -1.5, -2, 3.3000000000000003, 6.7280000000000004E-12, -2.042E-12, -1.4E-12, -2.8880000000000002E-12, -2.7666666666666627E-12, 6.7280000000000004E-12, 
DataValue, -1.47, -2, 3.3000000000000003, 6.7450000000000008E-12, -2.06E-12, -1.385E-12, -2.8930000000000003E-12, -6.3333333333332666E-13, 6.7450000000000008E-12, 
DataValue, -1.44, -2, 3.3000000000000003, 6.6900000000000008E-12, -2.071E-12, -1.4630000000000001E-12, -2.8770000000000004E-12, -6.000000000000036E-13, 6.6900000000000008E-12, 
DataValue, -1.41, -2, 3.3000000000000003, 6.7090000000000006E-12, -1.9660000000000003E-12, -1.3840000000000002E-12, -2.9350000000000003E-12, 3.5000000000000118E-13, 6.7090000000000006E-12, 
DataValue, -1.3800000000000001, -2, 3.3000000000000003, 6.7110000000000008E-12, -1.96E-12, -1.4260000000000002E-12, -2.8430000000000003E-12, 1.7333333333333309E-12, 6.7110000000000008E-12, 
DataValue, -1.35, -2, 3.3000000000000003, 6.813E-12, -1.9490000000000003E-12, -1.4E-12, -2.8730000000000004E-12, 1.8666666666666572E-12, 6.813E-12, 
DataValue, -1.32, -2, 3.3000000000000003, 6.823E-12, -1.9860000000000002E-12, -1.393E-12, -2.8690000000000004E-12, 1.6333333333333418E-12, 6.823E-12, 
DataValue, -1.29, -2, 3.3000000000000003, 6.9110000000000007E-12, -2.026E-12, -1.379E-12, -2.916E-12, -1.6333333333333283E-12, 6.9110000000000007E-12, 
DataValue, -1.26, -2, 3.3000000000000003, 6.7250000000000005E-12, -2.014E-12, -1.32E-12, -2.9050000000000002E-12, -4.9666666666666715E-12, 6.7250000000000005E-12, 
DataValue, -1.23, -2, 3.3000000000000003, 6.613E-12, -1.9450000000000003E-12, -1.4630000000000001E-12, -2.8690000000000004E-12, -3.4999999999999987E-13, 6.613E-12, 
DataValue, -1.2, -2, 3.3000000000000003, 6.7040000000000005E-12, -1.914E-12, -1.4050000000000002E-12, -2.9650000000000004E-12, -9.99999999999988E-13, 6.7040000000000005E-12, 
DataValue, -1.17, -2, 3.3000000000000003, 6.5530000000000009E-12, -1.98E-12, -1.454E-12, -2.8800000000000002E-12, -3.95000000000001E-12, 6.5530000000000009E-12, 
DataValue, -1.1400000000000001, -2, 3.3000000000000003, 6.4670000000000006E-12, -1.943E-12, -1.3980000000000001E-12, -2.9560000000000003E-12, 9.1666666666665684E-13, 6.4670000000000006E-12, 
DataValue, -1.11, -2, 3.3000000000000003, 6.608E-12, -1.8910000000000003E-12, -1.4170000000000001E-12, -2.9350000000000003E-12, 1.9333333333333302E-12, 6.608E-12, 
DataValue, -1.08, -2, 3.3000000000000003, 6.5830000000000005E-12, -1.877E-12, -1.3590000000000002E-12, -2.9440000000000004E-12, 3.0666666666666642E-12, 6.5830000000000005E-12, 
DataValue, -1.05, -2, 3.3000000000000003, 6.792E-12, -1.8940000000000002E-12, -1.3740000000000002E-12, -2.879E-12, 2.1166666666666608E-12, 6.792E-12, 
DataValue, -1.02, -2, 3.3000000000000003, 6.71E-12, -1.8940000000000002E-12, -1.435E-12, -2.949E-12, 3.3333333333333834E-13, 6.71E-12, 
DataValue, -0.99, -2, 3.3000000000000003, 6.8120000000000005E-12, -1.91E-12, -1.32E-12, -2.953E-12, -1.6666666666666917E-13, 6.8120000000000005E-12, 
DataValue, -0.96, -2, 3.3000000000000003, 6.7E-12, -1.872E-12, -1.4380000000000001E-12, -2.9100000000000003E-12, -2.5833333333333365E-12, 6.7E-12, 
DataValue, -0.93, -2, 3.3000000000000003, 6.6570000000000004E-12, -1.906E-12, -1.3420000000000001E-12, -2.991E-12, -5.4999999999999311E-13, 6.6570000000000004E-12, 
DataValue, -0.9, -2, 3.3000000000000003, 6.6670000000000006E-12, -1.8740000000000003E-12, -1.4400000000000001E-12, -3.034E-12, -1.7166666666666629E-12, 6.6670000000000006E-12, 
DataValue, -0.87, -2, 3.3000000000000003, 6.5540000000000005E-12, -1.8200000000000003E-12, -1.345E-12, -2.928E-12, -4.2833333333333329E-12, 6.5540000000000005E-12, 
DataValue, -0.84, -2, 3.3000000000000003, 6.41E-12, -1.8410000000000003E-12, -1.3760000000000002E-12, -2.925E-12, -2.3333333333332918E-13, 6.41E-12, 
DataValue, -0.81, -2, 3.3000000000000003, 6.5400000000000008E-12, -1.8610000000000002E-12, -1.4170000000000001E-12, -2.866E-12, 4.1666666666667371E-13, 6.5400000000000008E-12, 
DataValue, -0.78, -2, 3.3000000000000003, 6.4350000000000008E-12, -1.8100000000000002E-12, -1.37E-12, -2.954E-12, 4.8333333333333255E-13, 6.4350000000000008E-12, 
DataValue, -0.75, -2, 3.3000000000000003, 6.5690000000000008E-12, -1.881E-12, -1.4530000000000002E-12, -2.979E-12, 3.916666666666658E-12, 6.5690000000000008E-12, 
DataValue, -0.72, -2, 3.3000000000000003, 6.6700000000000005E-12, -1.809E-12, -1.4190000000000001E-12, -2.9230000000000004E-12, 2.6666666666666577E-13, 6.6700000000000005E-12, 
DataValue, -0.69000000000000006, -2, 3.3000000000000003, 6.5850000000000007E-12, -1.8020000000000002E-12, -1.4190000000000001E-12, -2.921E-12, 1.4833333333333368E-12, 6.5850000000000007E-12, 
DataValue, -0.66, -2, 3.3000000000000003, 6.7590000000000006E-12, -1.8230000000000002E-12, -1.358E-12, -2.9220000000000003E-12, 7.333333333333228E-13, 6.7590000000000006E-12, 
DataValue, -0.63, -2, 3.3000000000000003, 6.629E-12, -1.738E-12, -1.4090000000000002E-12, -2.9860000000000004E-12, -4.38333333333333E-12, 6.629E-12, 
DataValue, -0.6, -2, 3.3000000000000003, 6.4960000000000006E-12, -1.815E-12, -1.452E-12, -2.9810000000000003E-12, -1.9999999999999935E-12, 6.4960000000000006E-12, 
DataValue, -0.57000000000000006, -2, 3.3000000000000003, 6.5090000000000006E-12, -1.782E-12, -1.3360000000000002E-12, -2.874E-12, 1.8333333333333105E-13, 6.5090000000000006E-12, 
DataValue, -0.54, -2, 3.3000000000000003, 6.5070000000000004E-12, -1.7180000000000002E-12, -1.404E-12, -2.971E-12, -1.3333333333333266E-13, 6.5070000000000004E-12, 
DataValue, -0.51, -2, 3.3000000000000003, 6.5010000000000007E-12, -1.846E-12, -1.391E-12, -2.907E-12, -2.1166666666666608E-12, 6.5010000000000007E-12, 
DataValue, -0.48, -2, 3.3000000000000003, 6.3800000000000007E-12, -1.801E-12, -1.4360000000000001E-12, -2.9230000000000004E-12, -9.83333333333341E-13, 6.3800000000000007E-12, 
DataValue, -0.45, -2, 3.3000000000000003, 6.442E-12, -1.7700000000000001E-12, -1.4200000000000002E-12, -2.8300000000000003E-12, 4.6666666666665795E-13, 6.442E-12, 
DataValue, -0.42, -2, 3.3000000000000003, 6.408E-12, -1.7760000000000001E-12, -1.4450000000000002E-12, -2.8940000000000004E-12, -7.3333333333332351E-13, 6.408E-12, 
DataValue, -0.39, -2, 3.3000000000000003, 6.3980000000000008E-12, -1.7510000000000001E-12, -1.4110000000000002E-12, -2.9230000000000004E-12, 2.7500000000000034E-12, 6.3980000000000008E-12, 
DataValue, -0.36, -2, 3.3000000000000003, 6.573E-12, -1.6810000000000002E-12, -1.387E-12, -2.9760000000000002E-12, -7.50000000000012E-13, 6.573E-12, 
DataValue, -0.33, -2, 3.3000000000000003, 6.353E-12, -1.7750000000000002E-12, -1.4E-12, -2.9050000000000002E-12, -2.4333333333333265E-12, 6.353E-12, 
DataValue, -0.3, -2, 3.3000000000000003, 6.4270000000000008E-12, -1.7040000000000002E-12, -1.4070000000000002E-12, -2.946E-12, 3.816666666666679E-12, 6.4270000000000008E-12, 
DataValue, -0.27, -2, 3.3000000000000003, 6.5820000000000008E-12, -1.734E-12, -1.3860000000000002E-12, -2.85E-12, -2.7500000000000034E-12, 6.5820000000000008E-12, 
DataValue, -0.24, -2, 3.3000000000000003, 6.2620000000000006E-12, -1.6930000000000002E-12, -1.381E-12, -2.9760000000000002E-12, -9.3333333333334235E-13, 6.2620000000000006E-12, 
DataValue, -0.21, -2, 3.3000000000000003, 6.526E-12, -1.7290000000000002E-12, -1.3360000000000002E-12, -2.883E-12, 4.0166666666666717E-12, 6.526E-12, 
DataValue, -0.18, -2, 3.3000000000000003, 6.5030000000000009E-12, -1.7040000000000002E-12, -1.3440000000000001E-12, -2.9050000000000002E-12, -7.333333333333329E-12, 6.5030000000000009E-12, 
DataValue, -0.15, -2, 3.3000000000000003, 6.0860000000000005E-12, -1.6770000000000002E-12, -1.408E-12, -2.9310000000000003E-12, -2.1833333333333358E-12, 6.0860000000000005E-12, 
DataValue, -0.12, -2, 3.3000000000000003, 6.3720000000000007E-12, -1.698E-12, -1.4720000000000002E-12, -2.853E-12, 1.9333333333333318E-12, 6.3720000000000007E-12, 
DataValue, -0.09, -2, 3.3000000000000003, 6.2020000000000004E-12, -1.6800000000000001E-12, -1.45E-12, -2.996E-12, -2.0000000000000052E-12, 6.2020000000000004E-12, 
DataValue, -0.06, -2, 3.3000000000000003, 6.2520000000000004E-12, -1.627E-12, -1.3820000000000002E-12, -2.9180000000000003E-12, -3.999999999999983E-13, 6.2520000000000004E-12, 
DataValue, -0.03, -2, 3.3000000000000003, 6.1780000000000005E-12, -1.6890000000000002E-12, -1.4220000000000002E-12, -2.9440000000000004E-12, 1.4166666666666624E-12, 6.1780000000000005E-12, 
DataValue, 0, -2, 3.3000000000000003, 6.337E-12, -1.732E-12, -1.3630000000000002E-12, -2.9230000000000004E-12, 8.73333333333333E-12, 6.337E-12, 
DataValue, 0.03, -2, 3.3000000000000003, 6.702E-12, -1.6320000000000001E-12, -1.3920000000000001E-12, -2.95E-12, -1.3833333333333259E-12, 6.702E-12, 
DataValue, 0.06, -2, 3.3000000000000003, 6.2540000000000006E-12, -1.673E-12, -1.3550000000000002E-12, -2.8930000000000003E-12, -6.2166666666666688E-12, 6.2540000000000006E-12, 
DataValue, 0.09, -2, 3.3000000000000003, 6.329E-12, -1.598E-12, -1.3780000000000002E-12, -2.896E-12, 6.75E-12, 6.329E-12, 
DataValue, 0.12, -2, 3.3000000000000003, 6.6590000000000006E-12, -1.6180000000000002E-12, -1.4400000000000001E-12, -2.8840000000000002E-12, -4.31666666666666E-12, 6.6590000000000006E-12, 
DataValue, 0.15, -2, 3.3000000000000003, 6.0700000000000006E-12, -1.6E-12, -1.368E-12, -2.945E-12, -5.6166666666666649E-12, 6.0700000000000006E-12, 
DataValue, 0.18, -2, 3.3000000000000003, 6.3220000000000007E-12, -1.5870000000000002E-12, -1.4210000000000001E-12, -2.9E-12, 6.5166666666666711E-12, 6.3220000000000007E-12, 
DataValue, 0.21, -2, 3.3000000000000003, 6.4610000000000008E-12, -1.6070000000000001E-12, -1.372E-12, -2.8890000000000003E-12, -3.4500000000000041E-12, 6.4610000000000008E-12, 
DataValue, 0.24, -2, 3.3000000000000003, 6.1150000000000005E-12, -1.6450000000000002E-12, -1.3690000000000001E-12, -2.9180000000000003E-12, -7.5000000000001165E-13, 6.1150000000000005E-12, 
