
SetupTitle, PMOS-id-vd-vgs@vbs=0
PrimitiveTest, I/V Sweep
TestParameter, Context.MainFrame, B1500A
TestParameter, Channel.UnitType, SMU, SMU, SMU, SMU
TestParameter, Channel.Unit, SMU2:HR, SMU1:HR, SMU3:HR, SMU4:HR
TestParameter, Channel.IName, ib, is, ig, id
TestParameter, Channel.VName, vb, vs, vg, vd
TestParameter, Channel.Mode, V, COMMON, V, V
TestParameter, Channel.Func, CONST, CONST, VAR2, VAR1
TestParameter, Channel.Index, 
TestParameter, Channel.Time, 
TestParameter, Measurement.Port.Unit, SMU2:HR, SMU1:HR, SMU3:HR, SMU4:HR
TestParameter, Measurement.Port.SeriesResistor, NONE, NONE, NONE, NONE
TestParameter, Measurement.Port.Filter, ON, ON, ON, ON
TestParameter, Measurement.Port.OutputVoltageComparison, 0, 0, 0, 0
TestParameter, Measurement.Primary.Locus, Single
TestParameter, Measurement.Primary.Scale, LINEAR
TestParameter, Measurement.Primary.Start, 0
TestParameter, Measurement.Primary.Stop, -3.3000000000000003
TestParameter, Measurement.Primary.Step, -0.01
TestParameter, Measurement.Primary.Compliance, 0.1
TestParameter, Measurement.Primary.PowerCompliance, 0
TestParameter, Measurement.Aborting.Condition, SKIP AT ANY ABNORMAL
TestParameter, Measurement.PostOutput.Value, START
TestParameter, Measurement.PostOutput.Retention, OFF
TestParameter, Measurement.Secondary.Start, -0.3
TestParameter, Measurement.Secondary.Count, 6
TestParameter, Measurement.Secondary.Step, -0.6
TestParameter, Measurement.Secondary.Compliance, 0.1
TestParameter, Measurement.Secondary.PowerCompliance, 0
TestParameter, Measurement.Bias.Source, 0, 0, -0.3, 0
TestParameter, Measurement.Bias.Compliance, 0.1, 0.1, 0.1, 0.1
TestParameter, Measurement.Monitor.Unit, SMU2:HR, SMU1:HR, SMU3:HR, SMU4:HR
TestParameter, Measurement.Monitor.Adc, HR ADC, HR ADC, HR ADC, HR ADC
TestParameter, Measurement.Monitor.Measurement, Compliance Side, Compliance Side, Compliance Side, Compliance Side
TestParameter, Measurement.Monitor.RangingMode, LIMITED, LIMITED, LIMITED, LIMITED
TestParameter, Measurement.Monitor.RangeBoundary, 1nA, 1nA, 1nA, 1nA
TestParameter, Measurement.Monitor.RangeRating, BY FULL RANGE, BY FULL RANGE, BY FULL RANGE, BY FULL RANGE
TestParameter, Measurement.Monitor.RangeRatingCoeff, 50, 50, 50, 50
TestParameter, Measurement.Timing.Hold, 0
TestParameter, Measurement.Timing.Delay, 0
TestParameter, Measurement.Adc.HighSpeed.Mode, AUTO
TestParameter, Measurement.Adc.HighSpeed.Coeff, 1
TestParameter, Measurement.Adc.HighResolution.AutoZero, OFF
TestParameter, Measurement.Adc.HighResolution.Mode, AUTO
TestParameter, Measurement.Adc.HighResolution.Coeff, 6
TestParameter, Measurement.WaitTime.Source.Coeff, 1
TestParameter, Measurement.WaitTime.Source.Offset, 0
TestParameter, Measurement.WaitTime.Monitor.Coeff, 1
TestParameter, Measurement.WaitTime.Monitor.Offset, 0
TestParameter, Output.Graph.Enabled, true
TestParameter, Output.Graph.AutoScaling, false
TestParameter, Output.Graph.XAxis.Data, vd
TestParameter, Output.Graph.XAxis.Scale, Linear
TestParameter, Output.Graph.XAxis.Left, 0
TestParameter, Output.Graph.XAxis.Right, 1
TestParameter, Output.Graph.XAxis.RunTimeAutoScale, true
TestParameter, Output.Graph.YAxis.Data, id
TestParameter, Output.Graph.YAxis.Scale, Linear
TestParameter, Output.Graph.YAxis.Bottom, -0.1
TestParameter, Output.Graph.YAxis.Top, 0.1
TestParameter, Output.Graph.YAxis.Group, 
TestParameter, Output.Graph.YAxis.RunTimeAutoScale, true
TestParameter, AutoAnalysis.Interpolation, false
TestParameter, AutoAnalysis.Var2StepCount, 1
TestParameter, AutoAnalysis.Var2StepScript, 
TestParameter, AutoAnalysis.Line1.Enabled, false
TestParameter, AutoAnalysis.Line1.Type, 1
TestParameter, AutoAnalysis.Line1.Fix, True
TestParameter, AutoAnalysis.Line1.YAxis, 0
TestParameter, AutoAnalysis.Line1.Point1.Type, 0
TestParameter, AutoAnalysis.Line1.Point1.XY.X, 
TestParameter, AutoAnalysis.Line1.Point1.XY.Y, 
TestParameter, AutoAnalysis.Line1.Point1.Data.Var, 
TestParameter, AutoAnalysis.Line1.Point1.Data.Condition, 
TestParameter, AutoAnalysis.Line1.Point1.Data.Start, false
TestParameter, AutoAnalysis.Line1.Point1.Data.StartVar, 
TestParameter, AutoAnalysis.Line1.Point1.Data.StartCondition, 
TestParameter, AutoAnalysis.Line1.Point2.Type, 0
TestParameter, AutoAnalysis.Line1.Point2.XY.X, 
TestParameter, AutoAnalysis.Line1.Point2.XY.Y, 
TestParameter, AutoAnalysis.Line1.Point2.Data.Var, 
TestParameter, AutoAnalysis.Line1.Point2.Data.Condition, 
TestParameter, AutoAnalysis.Line1.Point2.Data.Start, false
TestParameter, AutoAnalysis.Line1.Point2.Data.StartVar, 
TestParameter, AutoAnalysis.Line1.Point2.Data.StartCondition, 
TestParameter, AutoAnalysis.Line1.GradientExpr, 0
TestParameter, AutoAnalysis.Line2.Enabled, false
TestParameter, AutoAnalysis.Line2.Type, 1
TestParameter, AutoAnalysis.Line2.Fix, True
TestParameter, AutoAnalysis.Line2.YAxis, 0
TestParameter, AutoAnalysis.Line2.Point1.Type, 0
TestParameter, AutoAnalysis.Line2.Point1.XY.X, 
TestParameter, AutoAnalysis.Line2.Point1.XY.Y, 
TestParameter, AutoAnalysis.Line2.Point1.Data.Var, 
TestParameter, AutoAnalysis.Line2.Point1.Data.Condition, 
TestParameter, AutoAnalysis.Line2.Point1.Data.Start, false
TestParameter, AutoAnalysis.Line2.Point1.Data.StartVar, 
TestParameter, AutoAnalysis.Line2.Point1.Data.StartCondition, 
TestParameter, AutoAnalysis.Line2.Point2.Type, 0
TestParameter, AutoAnalysis.Line2.Point2.XY.X, 
TestParameter, AutoAnalysis.Line2.Point2.XY.Y, 
TestParameter, AutoAnalysis.Line2.Point2.Data.Var, 
TestParameter, AutoAnalysis.Line2.Point2.Data.Condition, 
TestParameter, AutoAnalysis.Line2.Point2.Data.Start, false
TestParameter, AutoAnalysis.Line2.Point2.Data.StartVar, 
TestParameter, AutoAnalysis.Line2.Point2.Data.StartCondition, 
TestParameter, AutoAnalysis.Line2.GradientExpr, 0
TestParameter, AutoAnalysis.Marker.Enabled, false
TestParameter, AutoAnalysis.Marker.Data.Var, 
TestParameter, AutoAnalysis.Marker.Data.Condition, 
TestParameter, AutoAnalysis.Marker.Data.Start, false
TestParameter, AutoAnalysis.Marker.Data.StartVar, 
TestParameter, AutoAnalysis.Marker.Data.StartCondition, 
MetaData, TestRecord.EntryPoint, true
MetaData, TestRecord.RecordTime, 01/16/2024 16:38:43
MetaData, TestRecord.TestTarget, P-0.22-0.35-298K
MetaData, TestRecord.IterationIndex, 3
MetaData, TestRecord.Preservation, true
MetaData, TestRecord.Flag, 
MetaData, TestRecord.Remarks, 
MetaData, TestRecord.LinkKey, 2384c287-0962-4be0-9f32-f1294f7bcba4
MetaData, TestRecord.Parameters, 
Dimension1, 331, 331
Dimension2, 6, 6
DataName, vd, id
DataValue, 0, 5.08E-12
DataValue, -0.01, -9.6200000000000014E-12
DataValue, -0.02, 6.3900000000000008E-12
DataValue, -0.03, -1.0410000000000001E-11
DataValue, -0.04, 6.7800000000000006E-12
DataValue, -0.05, -1.0520000000000001E-11
DataValue, -0.06, 6.5300000000000007E-12
DataValue, -0.07, -9.7100000000000012E-12
DataValue, -0.08, 5.3600000000000006E-12
DataValue, -0.09, -1.077E-11
DataValue, -0.1, 5.1100000000000006E-12
DataValue, -0.11, -8.42E-12
DataValue, -0.12, 3.4900000000000003E-12
DataValue, -0.13, -6E-12
DataValue, -0.14, 3.3E-13
DataValue, -0.15, -3.4200000000000004E-12
DataValue, -0.16, -1.12E-12
DataValue, -0.17, -2.3000000000000003E-12
DataValue, -0.18, -1.4800000000000002E-12
DataValue, -0.19, -3.75E-12
DataValue, -0.2, -3.7000000000000004E-13
DataValue, -0.21, -3.0400000000000004E-12
DataValue, -0.22, -1.7000000000000002E-12
DataValue, -0.23, -2.79E-12
DataValue, -0.24, -1.31E-12
DataValue, -0.25, -2.06E-12
DataValue, -0.26, -1.8700000000000003E-12
DataValue, -0.27, -2.19E-12
DataValue, -0.28, -2.3500000000000003E-12
DataValue, -0.29, -1.7600000000000002E-12
DataValue, -0.3, -2.7800000000000003E-12
DataValue, -0.31, -1.7200000000000001E-12
DataValue, -0.32, -1.8900000000000002E-12
DataValue, -0.33, -1.17E-12
DataValue, -0.34, -4E-12
DataValue, -0.35000000000000003, 1.1500000000000002E-12
DataValue, -0.36, -5.33E-12
DataValue, -0.37, 2.29E-12
DataValue, -0.38, -7.5800000000000012E-12
DataValue, -0.39, 4.37E-12
DataValue, -0.4, -8.75E-12
DataValue, -0.41000000000000003, 5.69E-12
DataValue, -0.42, -8.9800000000000009E-12
DataValue, -0.43, 5.8100000000000005E-12
DataValue, -0.44, -1.0310000000000001E-11
DataValue, -0.45, 6.35E-12
DataValue, -0.46, -1.0600000000000001E-11
DataValue, -0.47000000000000003, 6.6800000000000006E-12
DataValue, -0.48, -9.88E-12
DataValue, -0.49, 6.4200000000000005E-12
DataValue, -0.5, -1.0300000000000001E-11
DataValue, -0.51, 6.45E-12
DataValue, -0.52, -1.0500000000000001E-11
DataValue, -0.53, 6.5800000000000006E-12
DataValue, -0.54, -9.66E-12
DataValue, -0.55, 5.4600000000000006E-12
DataValue, -0.56, -8.62E-12
DataValue, -0.57000000000000006, 3.6000000000000004E-12
DataValue, -0.58, -6.3700000000000005E-12
DataValue, -0.59, 1.13E-12
DataValue, -0.6, -4.2000000000000007E-12
DataValue, -0.61, -3.4E-13
DataValue, -0.62, -3.18E-12
DataValue, -0.63, -1.9900000000000002E-12
DataValue, -0.64, -2.3200000000000002E-12
DataValue, -0.65, -1.6700000000000002E-12
DataValue, -0.66, -2.39E-12
DataValue, -0.67, -2.0700000000000003E-12
DataValue, -0.68, -2.3300000000000004E-12
DataValue, -0.69000000000000006, -2.16E-12
DataValue, -0.70000000000000007, -1.9E-12
DataValue, -0.71, -1.8200000000000003E-12
DataValue, -0.72, -2.0700000000000003E-12
DataValue, -0.73, -2.36E-12
DataValue, -0.74, -1.5700000000000002E-12
DataValue, -0.75, -3.3600000000000002E-12
DataValue, -0.76, -5.4E-13
DataValue, -0.77, -4.3400000000000005E-12
DataValue, -0.78, 8.7E-13
DataValue, -0.79, -5.3500000000000004E-12
DataValue, -0.8, 2.7300000000000003E-12
DataValue, -0.81, -7.32E-12
DataValue, -0.82000000000000006, 4.17E-12
DataValue, -0.83000000000000007, -8.7900000000000011E-12
DataValue, -0.84, 5.13E-12
DataValue, -0.85, -9.9300000000000015E-12
DataValue, -0.86, 6.3E-12
DataValue, -0.87, -1.0200000000000001E-11
DataValue, -0.88, 6.66E-12
DataValue, -0.89, -1.0310000000000001E-11
DataValue, -0.9, 6.26E-12
DataValue, -0.91, -9.8300000000000015E-12
DataValue, -0.92, 5.14E-12
DataValue, -0.93, -7.92E-12
DataValue, -0.94000000000000006, 2.54E-12
DataValue, -0.95000000000000007, -1.0310000000000001E-11
DataValue, -0.96, 5.2000000000000005E-12
DataValue, -0.97, -8.5900000000000012E-12
DataValue, -0.98, 3.0100000000000003E-12
DataValue, -0.99, -6.1200000000000006E-12
DataValue, -1, 7.100000000000001E-13
DataValue, -1.01, -3.9900000000000006E-12
DataValue, -1.02, -7.7000000000000005E-13
DataValue, -1.03, -2.8400000000000004E-12
DataValue, -1.04, -1.37E-12
DataValue, -1.05, -2.7800000000000003E-12
DataValue, -1.06, -2.0500000000000004E-12
DataValue, -1.07, -2.7000000000000002E-12
DataValue, -1.08, -2.16E-12
DataValue, -1.09, -2.09E-12
DataValue, -1.1, -2.49E-12
DataValue, -1.11, -1.91E-12
DataValue, -1.12, -3E-12
DataValue, -1.1300000000000001, -4.3000000000000004E-13
DataValue, -1.1400000000000001, -3.76E-12
DataValue, -1.1500000000000001, 4E-13
DataValue, -1.16, -5.19E-12
DataValue, -1.17, 1.6700000000000002E-12
DataValue, -1.18, -6.0600000000000004E-12
DataValue, -1.19, 2.8400000000000004E-12
DataValue, -1.2, -8.0800000000000011E-12
DataValue, -1.21, 4.9000000000000005E-12
DataValue, -1.22, -9.58E-12
DataValue, -1.23, 5.75E-12
DataValue, -1.24, -1.047E-11
DataValue, -1.25, 6.5700000000000005E-12
DataValue, -1.26, -1.0730000000000001E-11
DataValue, -1.27, 6.2900000000000009E-12
DataValue, -1.28, -1.005E-11
DataValue, -1.29, 5.4100000000000006E-12
DataValue, -1.3, -8.5900000000000012E-12
DataValue, -1.31, 4E-12
DataValue, -1.32, -1.0010000000000001E-11
DataValue, -1.33, 4.72E-12
DataValue, -1.34, -8.64E-12
DataValue, -1.35, 3.3400000000000003E-12
DataValue, -1.36, -6.1200000000000006E-12
DataValue, -1.37, 9.000000000000001E-13
DataValue, -1.3800000000000001, -4.3000000000000007E-12
DataValue, -1.3900000000000001, -8E-13
DataValue, -1.4000000000000001, -2.8100000000000003E-12
DataValue, -1.41, -1.8100000000000002E-12
DataValue, -1.42, -2.64E-12
DataValue, -1.43, -1.7100000000000002E-12
DataValue, -1.44, -2.6800000000000003E-12
DataValue, -1.45, -1.8900000000000002E-12
DataValue, -1.46, -2.3200000000000002E-12
DataValue, -1.47, -2.13E-12
DataValue, -1.48, -2.08E-12
DataValue, -1.49, -2.8E-12
DataValue, -1.5, -1.3000000000000001E-12
DataValue, -1.51, -3.3400000000000003E-12
DataValue, -1.52, 3.7000000000000004E-13
DataValue, -1.53, -4.03E-12
DataValue, -1.54, 1.6000000000000003E-13
DataValue, -1.55, -4.9100000000000007E-12
DataValue, -1.56, 1.2800000000000002E-12
DataValue, -1.57, -6.2800000000000007E-12
DataValue, -1.58, 2.9800000000000002E-12
DataValue, -1.59, -7.8E-12
DataValue, -1.6, 4.3400000000000005E-12
DataValue, -1.61, -9.3200000000000015E-12
DataValue, -1.62, 5.64E-12
DataValue, -1.6300000000000001, -1.0320000000000001E-11
DataValue, -1.6400000000000001, 6.21E-12
DataValue, -1.6500000000000001, -1.077E-11
DataValue, -1.6600000000000001, 6.55E-12
DataValue, -1.67, -1.056E-11
DataValue, -1.68, 6.04E-12
DataValue, -1.69, -9.8000000000000011E-12
DataValue, -1.7, 4.5400000000000004E-12
DataValue, -1.71, -7.84E-12
DataValue, -1.72, 2.3800000000000004E-12
DataValue, -1.73, -5.2100000000000006E-12
DataValue, -1.74, 1.6000000000000003E-13
DataValue, -1.75, -3.58E-12
DataValue, -1.76, -1.65E-12
DataValue, -1.77, -3.05E-12
DataValue, -1.78, -1.5600000000000002E-12
DataValue, -1.79, -2.34E-12
DataValue, -1.8, -2.3000000000000003E-12
DataValue, -1.81, -2.54E-12
DataValue, -1.82, -2.04E-12
DataValue, -1.83, -2.4000000000000003E-12
DataValue, -1.84, -2.3300000000000004E-12
DataValue, -1.85, -1.8100000000000002E-12
DataValue, -1.86, -3.1600000000000003E-12
DataValue, -1.87, -1.0600000000000001E-12
DataValue, -1.8800000000000001, -3.86E-12
DataValue, -1.8900000000000001, 3.4E-13
DataValue, -1.9000000000000001, -5.4100000000000006E-12
DataValue, -1.9100000000000001, 2.11E-12
DataValue, -1.92, -6.8800000000000006E-12
DataValue, -1.93, 3.81E-12
DataValue, -1.94, -8.86E-12
DataValue, -1.95, 5.07E-12
DataValue, -1.96, -1.004E-11
DataValue, -1.97, 6.09E-12
DataValue, -1.98, -1.056E-11
DataValue, -1.99, 6.4300000000000007E-12
DataValue, -2, -1.0700000000000001E-11
DataValue, -2.0100000000000002, 6.4E-12
DataValue, -2.02, -1.005E-11
DataValue, -2.0300000000000002, 5.19E-12
DataValue, -2.04, -9.07E-12
DataValue, -2.05, 3.3100000000000002E-12
DataValue, -2.06, -6.36E-12
DataValue, -2.07, 1.1600000000000001E-12
DataValue, -2.08, -4.27E-12
DataValue, -2.09, -6.5000000000000006E-13
DataValue, -2.1, -3.2100000000000003E-12
DataValue, -2.11, -1.9700000000000003E-12
DataValue, -2.12, -2.7300000000000003E-12
DataValue, -2.13, -1.9E-12
DataValue, -2.14, -2.9100000000000003E-12
DataValue, -2.15, -2.2700000000000002E-12
DataValue, -2.16, -2.11E-12
DataValue, -2.17, -2.1700000000000002E-12
DataValue, -2.18, -1.5600000000000002E-12
DataValue, -2.19, -2.54E-12
DataValue, -2.2, -1.1000000000000002E-12
DataValue, -2.21, -3.5900000000000003E-12
DataValue, -2.22, 4.0000000000000006E-14
DataValue, -2.23, -4.38E-12
DataValue, -2.24, 1.17E-12
DataValue, -2.25, -6.26E-12
DataValue, -2.2600000000000002, 2.31E-12
DataValue, -2.27, -7.5600000000000009E-12
DataValue, -2.2800000000000002, 4.06E-12
DataValue, -2.29, -9.4200000000000015E-12
DataValue, -2.3000000000000003, 5.9700000000000006E-12
DataValue, -2.31, -1.0240000000000002E-11
DataValue, -2.32, 6.3700000000000005E-12
DataValue, -2.33, -1.1030000000000001E-11
DataValue, -2.34, 6.4300000000000007E-12
DataValue, -2.35, -1.048E-11
DataValue, -2.36, 6.2200000000000006E-12
DataValue, -2.37, -9.85E-12
DataValue, -2.38, 4.4000000000000006E-12
DataValue, -2.39, -7.65E-12
DataValue, -2.4, 2.24E-12
DataValue, -2.41, -5.5200000000000007E-12
DataValue, -2.42, 7E-14
DataValue, -2.43, -3.65E-12
DataValue, -2.44, -1.4E-12
DataValue, -2.45, -2.8100000000000003E-12
DataValue, -2.46, -1.7700000000000001E-12
DataValue, -2.47, -2.57E-12
DataValue, -2.48, -2.13E-12
DataValue, -2.49, -2.28E-12
DataValue, -2.5, -2.3500000000000003E-12
DataValue, -2.5100000000000002, -2.23E-12
DataValue, -2.52, -2.67E-12
DataValue, -2.5300000000000002, -1.6E-12
DataValue, -2.54, -3.4900000000000003E-12
DataValue, -2.5500000000000003, -7.9000000000000007E-13
DataValue, -2.56, -4.67E-12
DataValue, -2.57, -1.6700000000000002E-12
DataValue, -2.58, -3.4100000000000002E-12
DataValue, -2.59, -4.7E-13
DataValue, -2.6, -4.67E-12
DataValue, -2.61, 1E-12
DataValue, -2.62, -6.71E-12
DataValue, -2.63, 3.2E-12
DataValue, -2.64, -1.066E-11
DataValue, -2.65, 6.0300000000000008E-12
DataValue, -2.66, -1.0310000000000001E-11
DataValue, -2.67, 4.94E-12
DataValue, -2.68, -8.82E-12
DataValue, -2.69, 3.2200000000000004E-12
DataValue, -2.7, -6.5900000000000008E-12
DataValue, -2.71, 1.0100000000000001E-12
DataValue, -2.72, -4.58E-12
DataValue, -2.73, -9.7000000000000011E-13
DataValue, -2.74, -3.23E-12
DataValue, -2.75, -1.7200000000000001E-12
DataValue, -2.7600000000000002, -2.5500000000000002E-12
DataValue, -2.77, -1.9E-12
DataValue, -2.7800000000000002, -2.6600000000000004E-12
DataValue, -2.79, -2.36E-12
DataValue, -2.8000000000000003, -2.64E-12
DataValue, -2.81, -2.6100000000000004E-12
DataValue, -2.82, -2.1500000000000003E-12
DataValue, -2.83, -2.6800000000000003E-12
DataValue, -2.84, -1.6700000000000002E-12
DataValue, -2.85, -3.7E-12
DataValue, -2.86, -8E-13
DataValue, -2.87, -4.5500000000000006E-12
DataValue, -2.88, 1.3E-13
DataValue, -2.89, -5.8800000000000008E-12
DataValue, -2.9, 1.91E-12
DataValue, -2.91, -7.43E-12
DataValue, -2.92, 3.8300000000000004E-12
DataValue, -2.93, -8.95E-12
DataValue, -2.94, 1.5600000000000002E-12
DataValue, -2.95, -7.2000000000000008E-12
DataValue, -2.96, 3.28E-12
DataValue, -2.97, -8.92E-12
DataValue, -2.98, 4.7100000000000007E-12
DataValue, -2.99, -9.9200000000000014E-12
DataValue, -3, 5.7800000000000008E-12
DataValue, -3.0100000000000002, -1.0710000000000001E-11
DataValue, -3.02, 6.2400000000000009E-12
DataValue, -3.0300000000000002, -1.1350000000000002E-11
DataValue, -3.04, 6.4700000000000005E-12
DataValue, -3.0500000000000003, -1.0610000000000001E-11
DataValue, -3.06, 5.59E-12
DataValue, -3.0700000000000003, -9.2100000000000013E-12
DataValue, -3.08, 3.05E-12
DataValue, -3.09, -5.8E-12
DataValue, -3.1, 5.1100000000000006E-12
DataValue, -3.11, -9.35E-12
DataValue, -3.12, 4.32E-12
DataValue, -3.13, -7.54E-12
DataValue, -3.14, 1.37E-12
DataValue, -3.15, -4.6400000000000004E-12
DataValue, -3.16, -5E-13
DataValue, -3.17, -3.5400000000000003E-12
DataValue, -3.18, -1.91E-12
DataValue, -3.19, -3.18E-12
DataValue, -3.2, -1.93E-12
DataValue, -3.21, -2.7600000000000004E-12
DataValue, -3.22, -2.29E-12
DataValue, -3.23, -2.5000000000000003E-12
DataValue, -3.24, -2.4300000000000003E-12
DataValue, -3.25, -2.51E-12
DataValue, -3.2600000000000002, -2.8300000000000003E-12
DataValue, -3.27, -1.59E-12
DataValue, -3.2800000000000002, -2.34E-12
DataValue, -3.29, -2.67E-12
DataValue, -3.3000000000000003, -2.6100000000000004E-12
DataValue, 0, 5.4E-13
DataValue, -0.01, -5.6710000000000004E-11
DataValue, -0.02, -9.1790000000000013E-11
DataValue, -0.03, -1.1885E-10
DataValue, -0.04, -1.363E-10
DataValue, -0.05, -1.4956000000000002E-10
DataValue, -0.06, -1.5705000000000002E-10
DataValue, -0.07, -1.6682000000000003E-10
DataValue, -0.08, -1.7092000000000002E-10
DataValue, -0.09, -1.7539E-10
DataValue, -0.1, -1.7529000000000002E-10
DataValue, -0.11, -1.7407000000000003E-10
DataValue, -0.12, -1.8183E-10
DataValue, -0.13, -1.7564000000000003E-10
DataValue, -0.14, -1.8305E-10
DataValue, -0.15, -1.7579000000000002E-10
DataValue, -0.16, -1.8344000000000002E-10
DataValue, -0.17, -1.7845000000000001E-10
DataValue, -0.18, -1.8907000000000003E-10
DataValue, -0.19, -1.7689000000000002E-10
DataValue, -0.2, -1.9252000000000002E-10
DataValue, -0.21, -1.7637E-10
DataValue, -0.22, -1.914E-10
DataValue, -0.23, -1.7635000000000002E-10
DataValue, -0.24, -1.9238E-10
DataValue, -0.25, -1.7653E-10
DataValue, -0.26, -1.9524000000000002E-10
DataValue, -0.27, -1.7689000000000002E-10
DataValue, -0.28, -1.9046E-10
DataValue, -0.29, -1.7870000000000001E-10
DataValue, -0.3, -1.8825000000000002E-10
DataValue, -0.31, -1.7835E-10
DataValue, -0.32, -1.8547E-10
DataValue, -0.33, -1.8088000000000003E-10
DataValue, -0.34, -1.8584000000000003E-10
