
SetupTitle, PMOS-id-vg-vbs@vds=-3.3
PrimitiveTest, I/V Sweep
TestParameter, Context.MainFrame, B1500A
TestParameter, Channel.UnitType, SMU, SMU, SMU, SMU
TestParameter, Channel.Unit, SMU2:HR, SMU1:HR, SMU3:HR, SMU4:HR
TestParameter, Channel.IName, ib, is, ig, id
TestParameter, Channel.VName, vb, vs, vg, vd
TestParameter, Channel.Mode, V, COMMON, V, V
TestParameter, Channel.Func, VAR2, CONST, VAR1, CONST
TestParameter, Channel.Index, 
TestParameter, Channel.Time, 
TestParameter, Measurement.Port.Unit, SMU2:HR, SMU1:HR, SMU3:HR, SMU4:HR
TestParameter, Measurement.Port.SeriesResistor, NONE, NONE, NONE, NONE
TestParameter, Measurement.Port.Filter, ON, ON, ON, ON
TestParameter, Measurement.Port.OutputVoltageComparison, 0, 0, 0, 0
TestParameter, Measurement.Primary.Locus, Single
TestParameter, Measurement.Primary.Scale, LINEAR
TestParameter, Measurement.Primary.Start, 0.5
TestParameter, Measurement.Primary.Stop, -3.3000000000000003
TestParameter, Measurement.Primary.Step, -0.01
TestParameter, Measurement.Primary.Compliance, 0.001
TestParameter, Measurement.Primary.PowerCompliance, 0
TestParameter, Measurement.Aborting.Condition, SKIP AT ANY ABNORMAL
TestParameter, Measurement.PostOutput.Value, START
TestParameter, Measurement.PostOutput.Retention, OFF
TestParameter, Measurement.Secondary.Start, 0
TestParameter, Measurement.Secondary.Count, 7
TestParameter, Measurement.Secondary.Step, 0.6
TestParameter, Measurement.Secondary.Compliance, 0.1
TestParameter, Measurement.Secondary.PowerCompliance, 0
TestParameter, Measurement.Bias.Source, 0, 0, 0.5, -3.3000000000000003
TestParameter, Measurement.Bias.Compliance, 0.1, 0.1, 0.001, 0.1
TestParameter, Measurement.Monitor.Unit, SMU2:HR, SMU1:HR, SMU3:HR, SMU4:HR
TestParameter, Measurement.Monitor.Adc, HR ADC, HR ADC, HR ADC, HR ADC
TestParameter, Measurement.Monitor.Measurement, Compliance Side, Compliance Side, Compliance Side, Compliance Side
TestParameter, Measurement.Monitor.RangingMode, LIMITED, LIMITED, LIMITED, LIMITED
TestParameter, Measurement.Monitor.RangeBoundary, 1nA, 1nA, 1nA, 1nA
TestParameter, Measurement.Monitor.RangeRating, BY FULL RANGE, BY FULL RANGE, BY FULL RANGE, BY FULL RANGE
TestParameter, Measurement.Monitor.RangeRatingCoeff, 50, 50, 50, 50
TestParameter, Measurement.Timing.Hold, 0
TestParameter, Measurement.Timing.Delay, 0
TestParameter, Measurement.Adc.HighSpeed.Mode, AUTO
TestParameter, Measurement.Adc.HighSpeed.Coeff, 1
TestParameter, Measurement.Adc.HighResolution.AutoZero, OFF
TestParameter, Measurement.Adc.HighResolution.Mode, AUTO
TestParameter, Measurement.Adc.HighResolution.Coeff, 6
TestParameter, Measurement.WaitTime.Source.Coeff, 1
TestParameter, Measurement.WaitTime.Source.Offset, 0
TestParameter, Measurement.WaitTime.Monitor.Coeff, 1
TestParameter, Measurement.WaitTime.Monitor.Offset, 0
TestParameter, Output.Graph.Enabled, true
TestParameter, Output.Graph.AutoScaling, false
TestParameter, Output.Graph.XAxis.Data, vg
TestParameter, Output.Graph.XAxis.Scale, Linear
TestParameter, Output.Graph.XAxis.Left, 0
TestParameter, Output.Graph.XAxis.Right, 0.9
TestParameter, Output.Graph.XAxis.RunTimeAutoScale, true
TestParameter, Output.Graph.YAxis.Data, id
TestParameter, Output.Graph.YAxis.Scale, Linear
TestParameter, Output.Graph.YAxis.Bottom, -0.1
TestParameter, Output.Graph.YAxis.Top, 0.1
TestParameter, Output.Graph.YAxis.Group, 
TestParameter, Output.Graph.YAxis.RunTimeAutoScale, true
TestParameter, AutoAnalysis.Interpolation, false
TestParameter, AutoAnalysis.Var2StepCount, 1
TestParameter, AutoAnalysis.Var2StepScript, 
TestParameter, AutoAnalysis.Line1.Enabled, false
TestParameter, AutoAnalysis.Line1.Type, 1
TestParameter, AutoAnalysis.Line1.Fix, True
TestParameter, AutoAnalysis.Line1.YAxis, 0
TestParameter, AutoAnalysis.Line1.Point1.Type, 0
TestParameter, AutoAnalysis.Line1.Point1.XY.X, 
TestParameter, AutoAnalysis.Line1.Point1.XY.Y, 
TestParameter, AutoAnalysis.Line1.Point1.Data.Var, 
TestParameter, AutoAnalysis.Line1.Point1.Data.Condition, 
TestParameter, AutoAnalysis.Line1.Point1.Data.Start, false
TestParameter, AutoAnalysis.Line1.Point1.Data.StartVar, 
TestParameter, AutoAnalysis.Line1.Point1.Data.StartCondition, 
TestParameter, AutoAnalysis.Line1.Point2.Type, 0
TestParameter, AutoAnalysis.Line1.Point2.XY.X, 
TestParameter, AutoAnalysis.Line1.Point2.XY.Y, 
TestParameter, AutoAnalysis.Line1.Point2.Data.Var, 
TestParameter, AutoAnalysis.Line1.Point2.Data.Condition, 
TestParameter, AutoAnalysis.Line1.Point2.Data.Start, false
TestParameter, AutoAnalysis.Line1.Point2.Data.StartVar, 
TestParameter, AutoAnalysis.Line1.Point2.Data.StartCondition, 
TestParameter, AutoAnalysis.Line1.GradientExpr, 0
TestParameter, AutoAnalysis.Line2.Enabled, false
TestParameter, AutoAnalysis.Line2.Type, 1
TestParameter, AutoAnalysis.Line2.Fix, True
TestParameter, AutoAnalysis.Line2.YAxis, 0
TestParameter, AutoAnalysis.Line2.Point1.Type, 0
TestParameter, AutoAnalysis.Line2.Point1.XY.X, 
TestParameter, AutoAnalysis.Line2.Point1.XY.Y, 
TestParameter, AutoAnalysis.Line2.Point1.Data.Var, 
TestParameter, AutoAnalysis.Line2.Point1.Data.Condition, 
TestParameter, AutoAnalysis.Line2.Point1.Data.Start, false
TestParameter, AutoAnalysis.Line2.Point1.Data.StartVar, 
TestParameter, AutoAnalysis.Line2.Point1.Data.StartCondition, 
TestParameter, AutoAnalysis.Line2.Point2.Type, 0
TestParameter, AutoAnalysis.Line2.Point2.XY.X, 
TestParameter, AutoAnalysis.Line2.Point2.XY.Y, 
TestParameter, AutoAnalysis.Line2.Point2.Data.Var, 
TestParameter, AutoAnalysis.Line2.Point2.Data.Condition, 
TestParameter, AutoAnalysis.Line2.Point2.Data.Start, false
TestParameter, AutoAnalysis.Line2.Point2.Data.StartVar, 
TestParameter, AutoAnalysis.Line2.Point2.Data.StartCondition, 
TestParameter, AutoAnalysis.Line2.GradientExpr, 0
TestParameter, AutoAnalysis.Marker.Enabled, false
TestParameter, AutoAnalysis.Marker.Data.Var, 
TestParameter, AutoAnalysis.Marker.Data.Condition, 
TestParameter, AutoAnalysis.Marker.Data.Start, false
TestParameter, AutoAnalysis.Marker.Data.StartVar, 
TestParameter, AutoAnalysis.Marker.Data.StartCondition, 
MetaData, TestRecord.EntryPoint, true
MetaData, TestRecord.RecordTime, 01/15/2024 15:36:54
MetaData, TestRecord.TestTarget, P-20-1-298K
MetaData, TestRecord.IterationIndex, 1
MetaData, TestRecord.Preservation, true
MetaData, TestRecord.Flag, 
MetaData, TestRecord.Remarks, 
MetaData, TestRecord.LinkKey, 18586262-a123-4be7-92db-97c1bc7dfcdd
MetaData, TestRecord.Parameters, 
Dimension1, 381, 381
Dimension2, 7, 7
DataName, vg, id
DataValue, 0.5, -8.7630000000000012E-11
DataValue, 0.49, -8.142E-11
DataValue, 0.48, -7.313000000000001E-11
DataValue, 0.47000000000000003, -8.505E-11
DataValue, 0.46, -7.836E-11
DataValue, 0.45, -7.2390000000000008E-11
DataValue, 0.44, -8.4850000000000009E-11
DataValue, 0.43, -7.5250000000000012E-11
DataValue, 0.42, -7.0950000000000011E-11
DataValue, 0.41000000000000003, -8.278000000000001E-11
DataValue, 0.4, -7.188E-11
DataValue, 0.39, -7.1970000000000011E-11
DataValue, 0.38, -7.7290000000000012E-11
DataValue, 0.37, -6.8340000000000006E-11
DataValue, 0.36, -6.747E-11
DataValue, 0.35000000000000003, -7.6740000000000011E-11
DataValue, 0.34, -6.702E-11
DataValue, 0.33, -5.7480000000000005E-11
DataValue, 0.32, -6.6680000000000009E-11
DataValue, 0.31, -6.5490000000000011E-11
DataValue, 0.3, -5.4170000000000005E-11
DataValue, 0.29, -6.422E-11
DataValue, 0.28, -6.622E-11
DataValue, 0.27, -5.575E-11
DataValue, 0.26, -5.9900000000000008E-11
DataValue, 0.25, -6.804E-11
DataValue, 0.24, -5.893000000000001E-11
DataValue, 0.23, -5.89E-11
DataValue, 0.22, -6.705E-11
DataValue, 0.21, -5.754E-11
DataValue, 0.2, -5.0530000000000005E-11
DataValue, 0.19, -6.071E-11
DataValue, 0.18, -5.3920000000000006E-11
DataValue, 0.17, -5.6020000000000004E-11
DataValue, 0.16, -6.185E-11
DataValue, 0.15, -4.9220000000000006E-11
DataValue, 0.14, -5.4540000000000006E-11
DataValue, 0.13, -6.036E-11
DataValue, 0.12, -4.702E-11
DataValue, 0.11, -5.4290000000000007E-11
DataValue, 0.1, -5.7600000000000007E-11
DataValue, 0.09, -4.396E-11
DataValue, 0.08, -5.3850000000000007E-11
DataValue, 0.07, -5.601E-11
DataValue, 0.06, -4.225E-11
DataValue, 0.05, -5.3980000000000004E-11
DataValue, 0.04, -5.1740000000000007E-11
DataValue, 0.03, -4.2300000000000005E-11
DataValue, 0.02, -5.554E-11
DataValue, 0.01, -5.059E-11
DataValue, 0, -4.508E-11
DataValue, -0.01, -5.7050000000000006E-11
DataValue, -0.02, -4.902E-11
DataValue, -0.03, -4.388E-11
DataValue, -0.04, -5.8170000000000004E-11
DataValue, -0.05, -4.9190000000000007E-11
DataValue, -0.06, -4.6040000000000003E-11
DataValue, -0.07, -5.7810000000000005E-11
DataValue, -0.08, -4.8490000000000005E-11
DataValue, -0.09, -4.014E-11
DataValue, -0.1, -5.062E-11
DataValue, -0.11, -4.9800000000000005E-11
DataValue, -0.12, -3.9E-11
DataValue, -0.13, -4.8450000000000005E-11
DataValue, -0.14, -5.3800000000000004E-11
DataValue, -0.15, -4.5280000000000004E-11
DataValue, -0.16, -4.8390000000000007E-11
DataValue, -0.17, -5.601E-11
DataValue, -0.18, -4.818E-11
DataValue, -0.19, -4.607E-11
DataValue, -0.2, -5.826E-11
DataValue, -0.21, -5.1630000000000007E-11
DataValue, -0.22, -4.6710000000000006E-11
DataValue, -0.23, -5.985E-11
DataValue, -0.24, -5.893000000000001E-11
DataValue, -0.25, -5.1650000000000004E-11
DataValue, -0.26, -6.619E-11
DataValue, -0.27, -7.612E-11
DataValue, -0.28, -6.8770000000000012E-11
DataValue, -0.29, -8.845E-11
DataValue, -0.3, -1.0327000000000001E-10
DataValue, -0.31, -1.0967000000000001E-10
DataValue, -0.32, -1.3332E-10
DataValue, -0.33, -1.6761E-10
DataValue, -0.34, -1.9104000000000002E-10
DataValue, -0.35000000000000003, -2.3252000000000002E-10
DataValue, -0.36, -2.9225E-10
DataValue, -0.37, -3.5240000000000004E-10
DataValue, -0.38, -4.3429000000000006E-10
DataValue, -0.39, -5.5209E-10
DataValue, -0.4, -7.0122000000000009E-10
DataValue, -0.41000000000000003, -8.6299E-10
DataValue, -0.42, -1.10464E-09
DataValue, -0.43, -1.4995E-09
DataValue, -0.44, -1.795E-09
DataValue, -0.45, -2.3056E-09
DataValue, -0.46, -2.928E-09
DataValue, -0.47000000000000003, -3.7414E-09
DataValue, -0.48, -4.8169E-09
DataValue, -0.49, -6.1492E-09
DataValue, -0.5, -7.8678E-09
DataValue, -0.51, -1.00956E-08
DataValue, -0.52, -1.3709999999999998E-08
DataValue, -0.53, -1.7504999999999997E-08
DataValue, -0.54, -2.27456E-08
DataValue, -0.55, -2.8845599999999997E-08
DataValue, -0.56, -3.69138E-08
DataValue, -0.57000000000000006, -4.7176199999999996E-08
DataValue, -0.58, -6.02062E-08
DataValue, -0.59, -7.70114E-08
DataValue, -0.6, -9.8020199999999985E-08
DataValue, -0.61, -1.2442E-07
DataValue, -0.62, -1.574E-07
DataValue, -0.63, -1.986E-07
DataValue, -0.64, -2.4886E-07
DataValue, -0.65, -3.1186E-07
DataValue, -0.66, -3.916E-07
DataValue, -0.67, -4.827E-07
DataValue, -0.68, -5.9312E-07
DataValue, -0.69000000000000006, -7.2692E-07
DataValue, -0.70000000000000007, -8.8366E-07
DataValue, -0.71, -1.06698E-06
DataValue, -0.72, -1.2815000000000001E-06
DataValue, -0.73, -1.5342E-06
DataValue, -0.74, -1.8252000000000001E-06
DataValue, -0.75, -2.1384E-06
DataValue, -0.76, -2.4986E-06
DataValue, -0.77, -2.9041000000000003E-06
DataValue, -0.78, -3.3531E-06
DataValue, -0.79, -3.8513000000000007E-06
DataValue, -0.8, -4.4128E-06
DataValue, -0.81, -5.0127E-06
DataValue, -0.82000000000000006, -5.6659E-06
DataValue, -0.83000000000000007, -6.3758000000000009E-06
DataValue, -0.84, -7.1401000000000005E-06
DataValue, -0.85, -7.958900000000001E-06
DataValue, -0.86, -8.8411E-06
DataValue, -0.87, -9.7802000000000017E-06
DataValue, -0.88, -1.0772300000000002E-05
DataValue, -0.89, -1.1846E-05
DataValue, -0.9, -1.2972E-05
DataValue, -0.91, -1.415E-05
DataValue, -0.92, -1.5394000000000002E-05
DataValue, -0.93, -1.67E-05
DataValue, -0.94000000000000006, -1.8068E-05
DataValue, -0.95000000000000007, -1.9492E-05
DataValue, -0.96, -2.0988E-05
DataValue, -0.97, -2.255E-05
DataValue, -0.98, -2.4174E-05
DataValue, -0.99, -2.5872000000000002E-05
DataValue, -1, -2.761E-05
DataValue, -1.01, -2.9424E-05
DataValue, -1.02, -3.1284E-05
DataValue, -1.03, -3.3226000000000003E-05
DataValue, -1.04, -3.5214E-05
DataValue, -1.05, -3.727E-05
DataValue, -1.06, -3.9374E-05
DataValue, -1.07, -4.1614E-05
DataValue, -1.08, -4.3842000000000005E-05
DataValue, -1.09, -4.6150000000000004E-05
DataValue, -1.1, -4.8514000000000003E-05
DataValue, -1.11, -5.0944E-05
DataValue, -1.12, -5.3424E-05
DataValue, -1.1300000000000001, -5.5964E-05
DataValue, -1.1400000000000001, -5.8584E-05
DataValue, -1.1500000000000001, -6.1234E-05
DataValue, -1.16, -6.394E-05
DataValue, -1.17, -6.6766E-05
DataValue, -1.18, -6.9612E-05
DataValue, -1.19, -7.25E-05
DataValue, -1.2, -7.5462E-05
DataValue, -1.21, -7.8466E-05
DataValue, -1.22, -8.1532E-05
DataValue, -1.23, -8.4668E-05
DataValue, -1.24, -8.7852E-05
DataValue, -1.25, -9.108E-05
DataValue, -1.26, -9.4468E-05
DataValue, -1.27, -9.7798E-05
DataValue, -1.28, -0.000101206
DataValue, -1.29, -0.00010467400000000001
DataValue, -1.3, -0.000108214
DataValue, -1.31, -0.00011178800000000001
DataValue, -1.32, -0.00011554000000000001
DataValue, -1.33, -0.00011924
DataValue, -1.34, -0.00012298000000000002
DataValue, -1.35, -0.00012686000000000002
DataValue, -1.36, -0.0001307
DataValue, -1.37, -0.00013458
DataValue, -1.3800000000000001, -0.00013852
DataValue, -1.3900000000000001, -0.00014252
DataValue, -1.4000000000000001, -0.00014656
DataValue, -1.41, -0.00015064
DataValue, -1.42, -0.00015480000000000002
DataValue, -1.43, -0.00015898
DataValue, -1.44, -0.0001633
DataValue, -1.45, -0.00016756
DataValue, -1.46, -0.00017196
DataValue, -1.47, -0.00017634
DataValue, -1.48, -0.00018076000000000002
DataValue, -1.49, -0.00018528000000000002
DataValue, -1.5, -0.00018986
DataValue, -1.51, -0.00019442
DataValue, -1.52, -0.00019904000000000002
DataValue, -1.53, -0.00020382
DataValue, -1.54, -0.00020852000000000002
DataValue, -1.55, -0.00021332000000000002
DataValue, -1.56, -0.00021812
DataValue, -1.57, -0.00022302000000000002
DataValue, -1.58, -0.00022796
DataValue, -1.59, -0.00023288
DataValue, -1.6, -0.00023784
DataValue, -1.61, -0.00024300000000000003
DataValue, -1.62, -0.00024812
DataValue, -1.6300000000000001, -0.00025318000000000004
DataValue, -1.6400000000000001, -0.00025834
DataValue, -1.6500000000000001, -0.00026362
DataValue, -1.6600000000000001, -0.00026886
DataValue, -1.67, -0.0002743
DataValue, -1.68, -0.00027962
DataValue, -1.69, -0.00028498
DataValue, -1.7, -0.00029044000000000004
DataValue, -1.71, -0.00029588
DataValue, -1.72, -0.00030138
DataValue, -1.73, -0.00030708
DataValue, -1.74, -0.00031266000000000003
DataValue, -1.75, -0.00031824
DataValue, -1.76, -0.00032392
DataValue, -1.77, -0.00032960000000000004
DataValue, -1.78, -0.0003354
DataValue, -1.79, -0.00034132000000000005
DataValue, -1.8, -0.00034712
DataValue, -1.81, -0.00035298
DataValue, -1.82, -0.00035888
DataValue, -1.83, -0.00036480000000000003
DataValue, -1.84, -0.00037076000000000003
DataValue, -1.85, -0.00037684000000000003
DataValue, -1.86, -0.00038300000000000004
DataValue, -1.87, -0.0003891
DataValue, -1.8800000000000001, -0.00039526000000000003
DataValue, -1.8900000000000001, -0.0004014
DataValue, -1.9000000000000001, -0.00040762000000000003
DataValue, -1.9100000000000001, -0.00041388000000000004
DataValue, -1.92, -0.00042032
DataValue, -1.93, -0.00042662
DataValue, -1.94, -0.0004329
DataValue, -1.95, -0.00043928
DataValue, -1.96, -0.00044574
DataValue, -1.97, -0.00045216
DataValue, -1.98, -0.00045874
DataValue, -1.99, -0.00046528000000000004
DataValue, -2, -0.00047186000000000005
DataValue, -2.0100000000000002, -0.00047840000000000003
DataValue, -2.02, -0.000485
DataValue, -2.0300000000000002, -0.00049168
DataValue, -2.04, -0.00049848
DataValue, -2.05, -0.00050524
DataValue, -2.06, -0.00051198
DataValue, -2.07, -0.00051878
DataValue, -2.08, -0.00052564000000000007
DataValue, -2.09, -0.00053246
DataValue, -2.1, -0.00053936
DataValue, -2.11, -0.00054636000000000007
DataValue, -2.12, -0.00055334
DataValue, -2.13, -0.0005603
DataValue, -2.14, -0.00056728000000000008
DataValue, -2.15, -0.0005743
DataValue, -2.16, -0.0005814
DataValue, -2.17, -0.00058866000000000007
DataValue, -2.18, -0.00059584
DataValue, -2.19, -0.00060294
DataValue, -2.2, -0.00061014
DataValue, -2.21, -0.00061738000000000006
DataValue, -2.22, -0.00062464000000000009
DataValue, -2.23, -0.00063202000000000006
DataValue, -2.24, -0.00063934000000000007
DataValue, -2.25, -0.00064666000000000007
DataValue, -2.2600000000000002, -0.00065406
DataValue, -2.27, -0.00066146
DataValue, -2.2800000000000002, -0.00066886000000000007
DataValue, -2.29, -0.00067648
DataValue, -2.3000000000000003, -0.00068394000000000007
DataValue, -2.31, -0.0006914
DataValue, -2.32, -0.00069892
DataValue, -2.33, -0.00070644
DataValue, -2.34, -0.00071408000000000007
DataValue, -2.35, -0.00072178
DataValue, -2.36, -0.00072944
DataValue, -2.37, -0.00073710000000000008
DataValue, -2.38, -0.0007448200000000001
DataValue, -2.39, -0.0007525
DataValue, -2.4, -0.00076018000000000006
DataValue, -2.41, -0.00076798
DataValue, -2.42, -0.0007758000000000001
DataValue, -2.43, -0.00078362000000000006
DataValue, -2.44, -0.00079166
DataValue, -2.45, -0.00079956
DataValue, -2.46, -0.00080748000000000007
DataValue, -2.47, -0.00081532
DataValue, -2.48, -0.00082336000000000009
DataValue, -2.49, -0.00083138
DataValue, -2.5, -0.00083934
DataValue, -2.5100000000000002, -0.0008473
DataValue, -2.52, -0.00085552
DataValue, -2.5300000000000002, -0.00086364
DataValue, -2.54, -0.0008717000000000001
DataValue, -2.5500000000000003, -0.00087976
DataValue, -2.56, -0.00088792
DataValue, -2.57, -0.00089604000000000007
DataValue, -2.58, -0.00090422000000000007
DataValue, -2.59, -0.0009123
DataValue, -2.6, -0.00092062
DataValue, -2.61, -0.00092902
DataValue, -2.62, -0.00093738
DataValue, -2.63, -0.00094566000000000008
DataValue, -2.64, -0.00095402000000000008
DataValue, -2.65, -0.0009623600000000001
DataValue, -2.66, -0.00097064
DataValue, -2.67, -0.00097902000000000015
DataValue, -2.68, -0.00098744
DataValue, -2.69, -0.00099594
DataValue, -2.7, -0.0010043
DataValue, -2.71, -0.0010128000000000001
DataValue, -2.72, -0.00102126
DataValue, -2.73, -0.0010297400000000001
DataValue, -2.74, -0.00103816
DataValue, -2.75, -0.0010467200000000001
DataValue, -2.7600000000000002, -0.00105534
DataValue, -2.77, -0.00106396
DataValue, -2.7800000000000002, -0.0010726000000000002
DataValue, -2.79, -0.00108142
DataValue, -2.8000000000000003, -0.00109004
DataValue, -2.81, -0.00109862
DataValue, -2.82, -0.00110734
DataValue, -2.83, -0.001116
DataValue, -2.84, -0.0011247
DataValue, -2.85, -0.00113346
DataValue, -2.86, -0.00114244
DataValue, -2.87, -0.0011512
DataValue, -2.88, -0.0011598000000000001
DataValue, -2.89, -0.0011686
DataValue, -2.9, -0.0011776
DataValue, -2.91, -0.0011864
DataValue, -2.92, -0.0011952
DataValue, -2.93, -0.0012042
DataValue, -2.94, -0.001213
DataValue, -2.95, -0.001222
DataValue, -2.96, -0.001231
DataValue, -2.97, -0.0012402000000000001
DataValue, -2.98, -0.0012488
DataValue, -2.99, -0.001258
DataValue, -3, -0.0012668
DataValue, -3.0100000000000002, -0.0012758000000000001
DataValue, -3.02, -0.0012850000000000001
DataValue, -3.0300000000000002, -0.0012936
DataValue, -3.04, -0.0013032
DataValue, -3.0500000000000003, -0.0013124
DataValue, -3.06, -0.0013214000000000001
DataValue, -3.0700000000000003, -0.0013304
DataValue, -3.08, -0.0013394
DataValue, -3.09, -0.0013486
DataValue, -3.1, -0.0013578
DataValue, -3.11, -0.001367
DataValue, -3.12, -0.0013764
DataValue, -3.13, -0.0013856
DataValue, -3.14, -0.001395
DataValue, -3.15, -0.001404
DataValue, -3.16, -0.001413
DataValue, -3.17, -0.0014224
DataValue, -3.18, -0.0014318
DataValue, -3.19, -0.0014412000000000001
DataValue, -3.2, -0.0014506
DataValue, -3.21, -0.0014596000000000001
DataValue, -3.22, -0.0014692
DataValue, -3.23, -0.0014784
DataValue, -3.24, -0.0014876
DataValue, -3.25, -0.0014974
DataValue, -3.2600000000000002, -0.0015068
DataValue, -3.27, -0.0015162
DataValue, -3.2800000000000002, -0.0015256
DataValue, -3.29, -0.0015348
DataValue, -3.3000000000000003, -0.0015442000000000001
