
SetupTitle, PMOS-isub-vg-vds@vbs=0
PrimitiveTest, I/V Sweep
TestParameter, Context.MainFrame, B1500A
TestParameter, Channel.UnitType, SMU, SMU, SMU, SMU
TestParameter, Channel.Unit, SMU2:HR, SMU1:HR, SMU3:HR, SMU4:HR
TestParameter, Channel.IName, ib, is, ig, id
TestParameter, Channel.VName, vb, vs, vg, vd
TestParameter, Channel.Mode, V, COMMON, V, V
TestParameter, Channel.Func, CONST, CONST, VAR1, VAR2
TestParameter, Channel.Index, 
TestParameter, Channel.Time, 
TestParameter, Measurement.Port.Unit, SMU2:HR, SMU1:HR, SMU3:HR, SMU4:HR
TestParameter, Measurement.Port.SeriesResistor, NONE, NONE, NONE, NONE
TestParameter, Measurement.Port.Filter, ON, ON, ON, ON
TestParameter, Measurement.Port.OutputVoltageComparison, 0, 0, 0, 0
TestParameter, Measurement.Primary.Locus, Single
TestParameter, Measurement.Primary.Scale, LINEAR
TestParameter, Measurement.Primary.Start, 0
TestParameter, Measurement.Primary.Stop, -3.3000000000000003
TestParameter, Measurement.Primary.Step, -0.01
TestParameter, Measurement.Primary.Compliance, 0.001
TestParameter, Measurement.Primary.PowerCompliance, 0
TestParameter, Measurement.Aborting.Condition, SKIP AT ANY ABNORMAL
TestParameter, Measurement.PostOutput.Value, START
TestParameter, Measurement.PostOutput.Retention, OFF
TestParameter, Measurement.Secondary.Start, -0.3
TestParameter, Measurement.Secondary.Count, 6
TestParameter, Measurement.Secondary.Step, -0.6
TestParameter, Measurement.Secondary.Compliance, 0.1
TestParameter, Measurement.Secondary.PowerCompliance, 0
TestParameter, Measurement.Bias.Source, 0, 0, 0, -0.3
TestParameter, Measurement.Bias.Compliance, 0.1, 0.1, 0.001, 0.1
TestParameter, Measurement.Monitor.Unit, SMU2:HR, SMU1:HR, SMU3:HR, SMU4:HR
TestParameter, Measurement.Monitor.Adc, HR ADC, HR ADC, HR ADC, HR ADC
TestParameter, Measurement.Monitor.Measurement, Compliance Side, Compliance Side, Compliance Side, Compliance Side
TestParameter, Measurement.Monitor.RangingMode, LIMITED, LIMITED, LIMITED, LIMITED
TestParameter, Measurement.Monitor.RangeBoundary, 1nA, 1nA, 1nA, 1nA
TestParameter, Measurement.Monitor.RangeRating, BY FULL RANGE, BY FULL RANGE, BY FULL RANGE, BY FULL RANGE
TestParameter, Measurement.Monitor.RangeRatingCoeff, 50, 50, 50, 50
TestParameter, Measurement.Timing.Hold, 0
TestParameter, Measurement.Timing.Delay, 0
TestParameter, Measurement.Adc.HighSpeed.Mode, AUTO
TestParameter, Measurement.Adc.HighSpeed.Coeff, 1
TestParameter, Measurement.Adc.HighResolution.AutoZero, OFF
TestParameter, Measurement.Adc.HighResolution.Mode, AUTO
TestParameter, Measurement.Adc.HighResolution.Coeff, 6
TestParameter, Measurement.WaitTime.Source.Coeff, 1
TestParameter, Measurement.WaitTime.Source.Offset, 0
TestParameter, Measurement.WaitTime.Monitor.Coeff, 1
TestParameter, Measurement.WaitTime.Monitor.Offset, 0
TestParameter, Output.Graph.Enabled, true
TestParameter, Output.Graph.AutoScaling, false
TestParameter, Output.Graph.XAxis.Data, vg
TestParameter, Output.Graph.XAxis.Scale, Linear
TestParameter, Output.Graph.XAxis.Left, 0
TestParameter, Output.Graph.XAxis.Right, 0.9
TestParameter, Output.Graph.XAxis.RunTimeAutoScale, true
TestParameter, Output.Graph.YAxis.Data, ib
TestParameter, Output.Graph.YAxis.Scale, Linear
TestParameter, Output.Graph.YAxis.Bottom, -0.1
TestParameter, Output.Graph.YAxis.Top, 0.1
TestParameter, Output.Graph.YAxis.Group, 
TestParameter, Output.Graph.YAxis.RunTimeAutoScale, true
TestParameter, AutoAnalysis.Interpolation, false
TestParameter, AutoAnalysis.Var2StepCount, 1
TestParameter, AutoAnalysis.Var2StepScript, 
TestParameter, AutoAnalysis.Line1.Enabled, false
TestParameter, AutoAnalysis.Line1.Type, 1
TestParameter, AutoAnalysis.Line1.Fix, True
TestParameter, AutoAnalysis.Line1.YAxis, 0
TestParameter, AutoAnalysis.Line1.Point1.Type, 0
TestParameter, AutoAnalysis.Line1.Point1.XY.X, 
TestParameter, AutoAnalysis.Line1.Point1.XY.Y, 
TestParameter, AutoAnalysis.Line1.Point1.Data.Var, 
TestParameter, AutoAnalysis.Line1.Point1.Data.Condition, 
TestParameter, AutoAnalysis.Line1.Point1.Data.Start, false
TestParameter, AutoAnalysis.Line1.Point1.Data.StartVar, 
TestParameter, AutoAnalysis.Line1.Point1.Data.StartCondition, 
TestParameter, AutoAnalysis.Line1.Point2.Type, 0
TestParameter, AutoAnalysis.Line1.Point2.XY.X, 
TestParameter, AutoAnalysis.Line1.Point2.XY.Y, 
TestParameter, AutoAnalysis.Line1.Point2.Data.Var, 
TestParameter, AutoAnalysis.Line1.Point2.Data.Condition, 
TestParameter, AutoAnalysis.Line1.Point2.Data.Start, false
TestParameter, AutoAnalysis.Line1.Point2.Data.StartVar, 
TestParameter, AutoAnalysis.Line1.Point2.Data.StartCondition, 
TestParameter, AutoAnalysis.Line1.GradientExpr, 0
TestParameter, AutoAnalysis.Line2.Enabled, false
TestParameter, AutoAnalysis.Line2.Type, 1
TestParameter, AutoAnalysis.Line2.Fix, True
TestParameter, AutoAnalysis.Line2.YAxis, 0
TestParameter, AutoAnalysis.Line2.Point1.Type, 0
TestParameter, AutoAnalysis.Line2.Point1.XY.X, 
TestParameter, AutoAnalysis.Line2.Point1.XY.Y, 
TestParameter, AutoAnalysis.Line2.Point1.Data.Var, 
TestParameter, AutoAnalysis.Line2.Point1.Data.Condition, 
TestParameter, AutoAnalysis.Line2.Point1.Data.Start, false
TestParameter, AutoAnalysis.Line2.Point1.Data.StartVar, 
TestParameter, AutoAnalysis.Line2.Point1.Data.StartCondition, 
TestParameter, AutoAnalysis.Line2.Point2.Type, 0
TestParameter, AutoAnalysis.Line2.Point2.XY.X, 
TestParameter, AutoAnalysis.Line2.Point2.XY.Y, 
TestParameter, AutoAnalysis.Line2.Point2.Data.Var, 
TestParameter, AutoAnalysis.Line2.Point2.Data.Condition, 
TestParameter, AutoAnalysis.Line2.Point2.Data.Start, false
TestParameter, AutoAnalysis.Line2.Point2.Data.StartVar, 
TestParameter, AutoAnalysis.Line2.Point2.Data.StartCondition, 
TestParameter, AutoAnalysis.Line2.GradientExpr, 0
TestParameter, AutoAnalysis.Marker.Enabled, false
TestParameter, AutoAnalysis.Marker.Data.Var, 
TestParameter, AutoAnalysis.Marker.Data.Condition, 
TestParameter, AutoAnalysis.Marker.Data.Start, false
TestParameter, AutoAnalysis.Marker.Data.StartVar, 
TestParameter, AutoAnalysis.Marker.Data.StartCondition, 
MetaData, TestRecord.EntryPoint, true
MetaData, TestRecord.RecordTime, 01/15/2024 15:38:21
MetaData, TestRecord.TestTarget, P-20-1-298K
MetaData, TestRecord.IterationIndex, 1
MetaData, TestRecord.Preservation, true
MetaData, TestRecord.Flag, 
MetaData, TestRecord.Remarks, 
MetaData, TestRecord.LinkKey, b9219531-08cc-42a7-b51c-f6bb367f42e4
MetaData, TestRecord.Parameters, 
Dimension1, 331, 331
Dimension2, 6, 6
DataName, vg, ib
DataValue, 0, 1.51268E-08
DataValue, -0.01, 1.5134E-08
DataValue, -0.02, 1.5142799999999998E-08
DataValue, -0.03, 1.5157599999999997E-08
DataValue, -0.04, 1.50762E-08
DataValue, -0.05, 1.51088E-08
DataValue, -0.06, 1.5188199999999998E-08
DataValue, -0.07, 1.5193399999999998E-08
DataValue, -0.08, 1.52696E-08
DataValue, -0.09, 1.52162E-08
DataValue, -0.1, 1.53806E-08
DataValue, -0.11, 1.5242399999999997E-08
DataValue, -0.12, 1.5202999999999997E-08
DataValue, -0.13, 1.52204E-08
DataValue, -0.14, 1.5298999999999997E-08
DataValue, -0.15, 1.52868E-08
DataValue, -0.16, 1.53874E-08
DataValue, -0.17, 1.52384E-08
DataValue, -0.18, 1.52452E-08
DataValue, -0.19, 1.52222E-08
DataValue, -0.2, 1.53398E-08
DataValue, -0.21, 1.528E-08
DataValue, -0.22, 1.5284199999999997E-08
DataValue, -0.23, 1.52356E-08
DataValue, -0.24, 1.5228399999999998E-08
DataValue, -0.25, 1.5219399999999997E-08
DataValue, -0.26, 1.5248E-08
DataValue, -0.27, 1.52102E-08
DataValue, -0.28, 1.51342E-08
DataValue, -0.29, 1.50696E-08
DataValue, -0.3, 1.5173399999999998E-08
DataValue, -0.31, 1.50562E-08
DataValue, -0.32, 1.5133799999999998E-08
DataValue, -0.33, 1.5099599999999998E-08
DataValue, -0.34, 1.5076599999999998E-08
DataValue, -0.35000000000000003, 1.5068399999999998E-08
DataValue, -0.36, 1.50234E-08
DataValue, -0.37, 1.49682E-08
DataValue, -0.38, 1.50576E-08
DataValue, -0.39, 1.5030199999999997E-08
DataValue, -0.4, 1.5095999999999998E-08
DataValue, -0.41000000000000003, 1.5034799999999998E-08
DataValue, -0.42, 1.5176E-08
DataValue, -0.43, 1.5038399999999997E-08
DataValue, -0.44, 1.50506E-08
DataValue, -0.45, 1.5040599999999997E-08
DataValue, -0.46, 1.5008799999999998E-08
DataValue, -0.47000000000000003, 1.49822E-08
DataValue, -0.48, 1.4987999999999998E-08
DataValue, -0.49, 1.5057999999999998E-08
DataValue, -0.5, 1.50098E-08
DataValue, -0.51, 1.51042E-08
DataValue, -0.52, 1.5132E-08
DataValue, -0.53, 1.5052599999999997E-08
DataValue, -0.54, 1.5067599999999998E-08
DataValue, -0.55, 1.5072799999999998E-08
DataValue, -0.56, 1.5033399999999998E-08
DataValue, -0.57000000000000006, 1.5240399999999998E-08
DataValue, -0.58, 1.51082E-08
DataValue, -0.59, 1.517E-08
DataValue, -0.6, 1.51758E-08
DataValue, -0.61, 1.5041399999999997E-08
DataValue, -0.62, 1.5050399999999998E-08
DataValue, -0.63, 1.5167199999999997E-08
DataValue, -0.64, 1.53396E-08
DataValue, -0.65, 1.5044599999999998E-08
DataValue, -0.66, 1.5100999999999997E-08
DataValue, -0.67, 1.49988E-08
DataValue, -0.68, 1.50338E-08
DataValue, -0.69000000000000006, 1.50686E-08
DataValue, -0.70000000000000007, 1.5018999999999997E-08
DataValue, -0.71, 1.50464E-08
DataValue, -0.72, 1.50442E-08
DataValue, -0.73, 1.51194E-08
DataValue, -0.74, 1.5086799999999997E-08
DataValue, -0.75, 1.5043599999999997E-08
DataValue, -0.76, 1.5031799999999998E-08
DataValue, -0.77, 1.5040799999999998E-08
DataValue, -0.78, 1.49844E-08
DataValue, -0.79, 1.5124199999999998E-08
DataValue, -0.8, 1.4957E-08
DataValue, -0.81, 1.49748E-08
DataValue, -0.82000000000000006, 1.5022199999999998E-08
DataValue, -0.83000000000000007, 1.5003399999999997E-08
DataValue, -0.84, 1.5015E-08
DataValue, -0.85, 1.5053999999999997E-08
DataValue, -0.86, 1.5087799999999998E-08
DataValue, -0.87, 1.5055599999999998E-08
DataValue, -0.88, 1.5076E-08
DataValue, -0.89, 1.5086199999999998E-08
DataValue, -0.9, 1.5008799999999998E-08
DataValue, -0.91, 1.4997599999999998E-08
DataValue, -0.92, 1.5015E-08
DataValue, -0.93, 1.5070399999999997E-08
DataValue, -0.94000000000000006, 1.4935799999999998E-08
DataValue, -0.95000000000000007, 1.49854E-08
DataValue, -0.96, 1.498E-08
DataValue, -0.97, 1.50186E-08
DataValue, -0.98, 1.5054799999999997E-08
DataValue, -0.99, 1.5114E-08
DataValue, -1, 1.50134E-08
DataValue, -1.01, 1.5038599999999998E-08
DataValue, -1.02, 1.5074199999999997E-08
DataValue, -1.03, 1.5059999999999997E-08
DataValue, -1.04, 1.5064E-08
DataValue, -1.05, 1.51268E-08
DataValue, -1.06, 1.5067399999999997E-08
DataValue, -1.07, 1.50716E-08
DataValue, -1.08, 1.5033E-08
DataValue, -1.09, 1.5041599999999998E-08
DataValue, -1.1, 1.50946E-08
DataValue, -1.11, 1.50918E-08
DataValue, -1.12, 1.50044E-08
DataValue, -1.1300000000000001, 1.4998199999999997E-08
DataValue, -1.1400000000000001, 1.50126E-08
DataValue, -1.1500000000000001, 1.5024199999999997E-08
DataValue, -1.16, 1.4975799999999997E-08
DataValue, -1.17, 1.4916199999999997E-08
DataValue, -1.18, 1.49658E-08
DataValue, -1.19, 1.5002799999999998E-08
DataValue, -1.2, 1.49846E-08
DataValue, -1.21, 1.50492E-08
DataValue, -1.22, 1.4922E-08
DataValue, -1.23, 1.50946E-08
DataValue, -1.24, 1.5074E-08
DataValue, -1.25, 1.5059399999999998E-08
DataValue, -1.26, 1.5045999999999998E-08
DataValue, -1.27, 1.50216E-08
DataValue, -1.28, 1.49184E-08
DataValue, -1.29, 1.49114E-08
DataValue, -1.3, 1.4943999999999998E-08
DataValue, -1.31, 1.4995999999999997E-08
DataValue, -1.32, 1.49554E-08
DataValue, -1.33, 1.4957399999999998E-08
DataValue, -1.34, 1.4945E-08
DataValue, -1.35, 1.5003E-08
DataValue, -1.36, 1.49434E-08
DataValue, -1.37, 1.4992E-08
DataValue, -1.3800000000000001, 1.5014599999999997E-08
DataValue, -1.3900000000000001, 1.5042E-08
DataValue, -1.4000000000000001, 1.50024E-08
DataValue, -1.41, 1.52146E-08
DataValue, -1.42, 1.5159999999999998E-08
DataValue, -1.43, 1.50144E-08
DataValue, -1.44, 1.50074E-08
DataValue, -1.45, 1.4962E-08
DataValue, -1.46, 1.50396E-08
DataValue, -1.47, 1.5033E-08
DataValue, -1.48, 1.50514E-08
DataValue, -1.49, 1.4994E-08
DataValue, -1.5, 1.50338E-08
DataValue, -1.51, 1.50188E-08
DataValue, -1.52, 1.5013E-08
DataValue, -1.53, 1.5081599999999997E-08
DataValue, -1.54, 1.50486E-08
DataValue, -1.55, 1.50978E-08
DataValue, -1.56, 1.4972799999999997E-08
DataValue, -1.57, 1.5028799999999998E-08
DataValue, -1.58, 1.5022799999999997E-08
DataValue, -1.59, 1.4969199999999997E-08
DataValue, -1.6, 1.49426E-08
DataValue, -1.61, 1.5029399999999997E-08
DataValue, -1.62, 1.50338E-08
DataValue, -1.6300000000000001, 1.4989399999999998E-08
DataValue, -1.6400000000000001, 1.5094999999999997E-08
DataValue, -1.6500000000000001, 1.4987999999999998E-08
DataValue, -1.6600000000000001, 1.5028799999999998E-08
DataValue, -1.67, 1.49734E-08
DataValue, -1.68, 1.50544E-08
DataValue, -1.69, 1.50402E-08
DataValue, -1.7, 1.50844E-08
DataValue, -1.71, 1.5086999999999998E-08
DataValue, -1.72, 1.49986E-08
DataValue, -1.73, 1.5045E-08
DataValue, -1.74, 1.50082E-08
DataValue, -1.75, 1.5061E-08
DataValue, -1.76, 1.50234E-08
DataValue, -1.77, 1.49598E-08
DataValue, -1.78, 1.5003E-08
DataValue, -1.79, 1.4979599999999997E-08
DataValue, -1.8, 1.5281199999999997E-08
DataValue, -1.81, 1.49914E-08
DataValue, -1.82, 1.5034799999999998E-08
DataValue, -1.83, 1.5029399999999997E-08
DataValue, -1.84, 1.4976599999999997E-08
DataValue, -1.85, 1.4978E-08
DataValue, -1.86, 1.49146E-08
DataValue, -1.87, 1.4960999999999997E-08
DataValue, -1.8800000000000001, 1.4914799999999997E-08
DataValue, -1.8900000000000001, 1.5144999999999998E-08
DataValue, -1.9000000000000001, 1.4838999999999998E-08
DataValue, -1.9100000000000001, 1.49018E-08
DataValue, -1.92, 1.4717799999999999E-08
DataValue, -1.93, 1.4930399999999997E-08
DataValue, -1.94, 1.4874599999999999E-08
DataValue, -1.95, 1.4898399999999999E-08
DataValue, -1.96, 1.4919999999999997E-08
DataValue, -1.97, 1.4790199999999998E-08
DataValue, -1.98, 1.4894999999999999E-08
DataValue, -1.99, 1.4871999999999999E-08
DataValue, -2, 1.5074E-08
DataValue, -2.0100000000000002, 1.48832E-08
DataValue, -2.02, 1.4893399999999998E-08
DataValue, -2.0300000000000002, 1.4879399999999999E-08
DataValue, -2.04, 1.4898199999999998E-08
DataValue, -2.05, 1.4887999999999999E-08
DataValue, -2.06, 1.4919199999999997E-08
DataValue, -2.07, 1.4887399999999998E-08
DataValue, -2.08, 1.4888199999999998E-08
DataValue, -2.09, 1.4875999999999999E-08
DataValue, -2.1, 1.4862599999999999E-08
DataValue, -2.11, 1.4894599999999999E-08
DataValue, -2.12, 1.4849599999999999E-08
DataValue, -2.13, 1.4871999999999999E-08
DataValue, -2.14, 1.4814999999999999E-08
DataValue, -2.15, 1.4784199999999998E-08
DataValue, -2.16, 1.4713199999999998E-08
DataValue, -2.17, 1.4714999999999998E-08
DataValue, -2.18, 1.4726599999999998E-08
DataValue, -2.19, 1.4772199999999999E-08
DataValue, -2.2, 1.4764999999999999E-08
DataValue, -2.21, 1.5042999999999998E-08
DataValue, -2.22, 1.4763399999999998E-08
DataValue, -2.23, 1.4795999999999999E-08
DataValue, -2.24, 1.4768999999999998E-08
DataValue, -2.25, 1.4813999999999998E-08
DataValue, -2.2600000000000002, 1.4813999999999998E-08
DataValue, -2.27, 1.4835799999999999E-08
DataValue, -2.2800000000000002, 1.4867999999999998E-08
DataValue, -2.29, 1.5064E-08
DataValue, -2.3000000000000003, 1.4884199999999999E-08
DataValue, -2.31, 1.5121999999999998E-08
DataValue, -2.32, 1.49048E-08
DataValue, -2.33, 1.48054E-08
DataValue, -2.34, 1.4796999999999998E-08
DataValue, -2.35, 1.47752E-08
DataValue, -2.36, 1.4884399999999998E-08
DataValue, -2.37, 1.4857999999999998E-08
DataValue, -2.38, 1.4880399999999998E-08
DataValue, -2.39, 1.4857999999999998E-08
DataValue, -2.4, 1.4825799999999999E-08
DataValue, -2.41, 1.4872999999999999E-08
DataValue, -2.42, 1.4827799999999998E-08
DataValue, -2.43, 1.4772399999999998E-08
DataValue, -2.44, 1.4800799999999999E-08
DataValue, -2.45, 1.48322E-08
DataValue, -2.46, 1.4839799999999998E-08
DataValue, -2.47, 1.4851799999999999E-08
DataValue, -2.48, 1.4838799999999999E-08
DataValue, -2.49, 1.4877399999999998E-08
DataValue, -2.5, 1.4817599999999999E-08
DataValue, -2.5100000000000002, 1.4856599999999999E-08
DataValue, -2.52, 1.4827399999999998E-08
DataValue, -2.5300000000000002, 1.5062999999999997E-08
DataValue, -2.54, 1.4836799999999998E-08
DataValue, -2.5500000000000003, 1.49236E-08
DataValue, -2.56, 1.4886599999999998E-08
DataValue, -2.57, 1.4854999999999998E-08
DataValue, -2.58, 1.4865799999999998E-08
DataValue, -2.59, 1.4846599999999999E-08
DataValue, -2.6, 1.4921599999999998E-08
DataValue, -2.61, 1.4913E-08
DataValue, -2.62, 1.4888999999999999E-08
DataValue, -2.63, 1.49724E-08
DataValue, -2.64, 1.4953599999999998E-08
DataValue, -2.65, 1.4896799999999998E-08
DataValue, -2.66, 1.52332E-08
DataValue, -2.67, 1.4887799999999998E-08
DataValue, -2.68, 1.4878999999999999E-08
DataValue, -2.69, 1.49278E-08
DataValue, -2.7, 1.4898399999999999E-08
DataValue, -2.71, 1.49466E-08
DataValue, -2.72, 1.49158E-08
DataValue, -2.73, 1.4907399999999998E-08
DataValue, -2.74, 1.4882399999999999E-08
DataValue, -2.75, 1.4866199999999998E-08
DataValue, -2.7600000000000002, 1.4783599999999999E-08
DataValue, -2.77, 1.4806199999999998E-08
DataValue, -2.7800000000000002, 1.4841599999999998E-08
DataValue, -2.79, 1.50856E-08
DataValue, -2.8000000000000003, 1.4776599999999999E-08
DataValue, -2.81, 1.4809999999999998E-08
DataValue, -2.82, 1.4767599999999999E-08
DataValue, -2.83, 1.4828599999999998E-08
DataValue, -2.84, 1.4825199999999998E-08
DataValue, -2.85, 1.4872999999999999E-08
DataValue, -2.86, 1.4723199999999998E-08
DataValue, -2.87, 1.4963399999999998E-08
DataValue, -2.88, 1.4819199999999998E-08
DataValue, -2.89, 1.48054E-08
DataValue, -2.9, 1.4855999999999999E-08
DataValue, -2.91, 1.4832599999999998E-08
DataValue, -2.92, 1.4806999999999998E-08
DataValue, -2.93, 1.4749799999999999E-08
DataValue, -2.94, 1.51066E-08
DataValue, -2.95, 1.49108E-08
DataValue, -2.96, 1.4846399999999998E-08
DataValue, -2.97, 1.4850999999999998E-08
DataValue, -2.98, 1.49198E-08
DataValue, -2.99, 1.4855199999999999E-08
DataValue, -3, 1.49362E-08
DataValue, -3.0100000000000002, 1.49064E-08
DataValue, -3.02, 1.4805999999999999E-08
DataValue, -3.0300000000000002, 1.4834999999999999E-08
DataValue, -3.04, 1.4775399999999998E-08
DataValue, -3.0500000000000003, 1.4866999999999998E-08
DataValue, -3.06, 1.4804799999999998E-08
DataValue, -3.0700000000000003, 1.4860599999999998E-08
DataValue, -3.08, 1.4863599999999998E-08
DataValue, -3.09, 1.4745199999999998E-08
DataValue, -3.1, 1.4836999999999999E-08
DataValue, -3.11, 1.47894E-08
DataValue, -3.12, 1.4823599999999999E-08
DataValue, -3.13, 1.48456E-08
DataValue, -3.14, 1.4803999999999998E-08
DataValue, -3.15, 1.4545799999999999E-08
DataValue, -3.16, 1.4662E-08
DataValue, -3.17, 1.4743799999999999E-08
DataValue, -3.18, 1.4785799999999998E-08
DataValue, -3.19, 1.5012E-08
DataValue, -3.2, 1.4861799999999999E-08
DataValue, -3.21, 1.4858799999999998E-08
DataValue, -3.22, 1.4872599999999999E-08
DataValue, -3.23, 1.48832E-08
DataValue, -3.24, 1.4867399999999999E-08
DataValue, -3.25, 1.4811799999999998E-08
DataValue, -3.2600000000000002, 1.4783599999999999E-08
DataValue, -3.27, 1.4776799999999998E-08
DataValue, -3.2800000000000002, 1.4773799999999998E-08
DataValue, -3.29, 1.4824E-08
DataValue, -3.3000000000000003, 1.4800199999999998E-08
DataValue, 0, 1.4868599999999999E-08
DataValue, -0.01, 1.4880799999999999E-08
DataValue, -0.02, 1.49368E-08
DataValue, -0.03, 1.4840799999999998E-08
DataValue, -0.04, 1.4893399999999998E-08
DataValue, -0.05, 1.4830199999999999E-08
DataValue, -0.06, 1.49556E-08
DataValue, -0.07, 1.49764E-08
DataValue, -0.08, 1.48594E-08
DataValue, -0.09, 1.4900799999999998E-08
DataValue, -0.1, 1.4827E-08
DataValue, -0.11, 1.4844399999999999E-08
DataValue, -0.12, 1.4819399999999999E-08
DataValue, -0.13, 1.4806599999999998E-08
DataValue, -0.14, 1.4866999999999998E-08
DataValue, -0.15, 1.4794999999999998E-08
DataValue, -0.16, 1.4862E-08
DataValue, -0.17, 1.48136E-08
DataValue, -0.18, 1.48054E-08
DataValue, -0.19, 1.4799999999999999E-08
DataValue, -0.2, 1.4893199999999999E-08
DataValue, -0.21, 1.4810799999999999E-08
DataValue, -0.22, 1.4827E-08
DataValue, -0.23, 1.4827799999999998E-08
