
SetupTitle, PMOS-id-vg-vbs@vds=-0.05
PrimitiveTest, I/V Sweep
TestParameter, Context.MainFrame, B1500A
TestParameter, Channel.UnitType, SMU, SMU, SMU, SMU
TestParameter, Channel.Unit, SMU2:HR, SMU1:HR, SMU3:HR, SMU4:HR
TestParameter, Channel.IName, ib, is, ig, id
TestParameter, Channel.VName, vb, vs, vg, vd
TestParameter, Channel.Mode, V, COMMON, V, V
TestParameter, Channel.Func, VAR2, CONST, VAR1, CONST
TestParameter, Channel.Index, 
TestParameter, Channel.Time, 
TestParameter, Measurement.Port.Unit, SMU2:HR, SMU1:HR, SMU3:HR, SMU4:HR
TestParameter, Measurement.Port.SeriesResistor, NONE, NONE, NONE, NONE
TestParameter, Measurement.Port.Filter, ON, ON, ON, ON
TestParameter, Measurement.Port.OutputVoltageComparison, 0, 0, 0, 0
TestParameter, Measurement.Primary.Locus, Single
TestParameter, Measurement.Primary.Scale, LINEAR
TestParameter, Measurement.Primary.Start, 0.5
TestParameter, Measurement.Primary.Stop, -3.3000000000000003
TestParameter, Measurement.Primary.Step, -0.01
TestParameter, Measurement.Primary.Compliance, 0.001
TestParameter, Measurement.Primary.PowerCompliance, 0
TestParameter, Measurement.Aborting.Condition, SKIP AT ANY ABNORMAL
TestParameter, Measurement.PostOutput.Value, START
TestParameter, Measurement.PostOutput.Retention, OFF
TestParameter, Measurement.Secondary.Start, 0
TestParameter, Measurement.Secondary.Count, 7
TestParameter, Measurement.Secondary.Step, 0.6
TestParameter, Measurement.Secondary.Compliance, 0.1
TestParameter, Measurement.Secondary.PowerCompliance, 0
TestParameter, Measurement.Bias.Source, 0, 0, 0.5, -0.05
TestParameter, Measurement.Bias.Compliance, 0.1, 0.1, 0.001, 0.1
TestParameter, Measurement.Monitor.Unit, SMU2:HR, SMU1:HR, SMU3:HR, SMU4:HR
TestParameter, Measurement.Monitor.Adc, HR ADC, HR ADC, HR ADC, HR ADC
TestParameter, Measurement.Monitor.Measurement, Compliance Side, Compliance Side, Compliance Side, Compliance Side
TestParameter, Measurement.Monitor.RangingMode, LIMITED, LIMITED, LIMITED, LIMITED
TestParameter, Measurement.Monitor.RangeBoundary, 1nA, 1nA, 1nA, 1nA
TestParameter, Measurement.Monitor.RangeRating, BY FULL RANGE, BY FULL RANGE, BY FULL RANGE, BY FULL RANGE
TestParameter, Measurement.Monitor.RangeRatingCoeff, 50, 50, 50, 50
TestParameter, Measurement.Timing.Hold, 0
TestParameter, Measurement.Timing.Delay, 0
TestParameter, Measurement.Adc.HighSpeed.Mode, AUTO
TestParameter, Measurement.Adc.HighSpeed.Coeff, 1
TestParameter, Measurement.Adc.HighResolution.AutoZero, OFF
TestParameter, Measurement.Adc.HighResolution.Mode, AUTO
TestParameter, Measurement.Adc.HighResolution.Coeff, 6
TestParameter, Measurement.WaitTime.Source.Coeff, 1
TestParameter, Measurement.WaitTime.Source.Offset, 0
TestParameter, Measurement.WaitTime.Monitor.Coeff, 1
TestParameter, Measurement.WaitTime.Monitor.Offset, 0
TestParameter, Output.Graph.Enabled, true
TestParameter, Output.Graph.AutoScaling, false
TestParameter, Output.Graph.XAxis.Data, vg
TestParameter, Output.Graph.XAxis.Scale, Linear
TestParameter, Output.Graph.XAxis.Left, 0
TestParameter, Output.Graph.XAxis.Right, 0.9
TestParameter, Output.Graph.XAxis.RunTimeAutoScale, true
TestParameter, Output.Graph.YAxis.Data, id
TestParameter, Output.Graph.YAxis.Scale, Linear
TestParameter, Output.Graph.YAxis.Bottom, -0.1
TestParameter, Output.Graph.YAxis.Top, 0.1
TestParameter, Output.Graph.YAxis.Group, 
TestParameter, Output.Graph.YAxis.RunTimeAutoScale, true
TestParameter, AutoAnalysis.Interpolation, false
TestParameter, AutoAnalysis.Var2StepCount, 1
TestParameter, AutoAnalysis.Var2StepScript, 
TestParameter, AutoAnalysis.Line1.Enabled, false
TestParameter, AutoAnalysis.Line1.Type, 1
TestParameter, AutoAnalysis.Line1.Fix, True
TestParameter, AutoAnalysis.Line1.YAxis, 0
TestParameter, AutoAnalysis.Line1.Point1.Type, 0
TestParameter, AutoAnalysis.Line1.Point1.XY.X, 
TestParameter, AutoAnalysis.Line1.Point1.XY.Y, 
TestParameter, AutoAnalysis.Line1.Point1.Data.Var, 
TestParameter, AutoAnalysis.Line1.Point1.Data.Condition, 
TestParameter, AutoAnalysis.Line1.Point1.Data.Start, false
TestParameter, AutoAnalysis.Line1.Point1.Data.StartVar, 
TestParameter, AutoAnalysis.Line1.Point1.Data.StartCondition, 
TestParameter, AutoAnalysis.Line1.Point2.Type, 0
TestParameter, AutoAnalysis.Line1.Point2.XY.X, 
TestParameter, AutoAnalysis.Line1.Point2.XY.Y, 
TestParameter, AutoAnalysis.Line1.Point2.Data.Var, 
TestParameter, AutoAnalysis.Line1.Point2.Data.Condition, 
TestParameter, AutoAnalysis.Line1.Point2.Data.Start, false
TestParameter, AutoAnalysis.Line1.Point2.Data.StartVar, 
TestParameter, AutoAnalysis.Line1.Point2.Data.StartCondition, 
TestParameter, AutoAnalysis.Line1.GradientExpr, 0
TestParameter, AutoAnalysis.Line2.Enabled, false
TestParameter, AutoAnalysis.Line2.Type, 1
TestParameter, AutoAnalysis.Line2.Fix, True
TestParameter, AutoAnalysis.Line2.YAxis, 0
TestParameter, AutoAnalysis.Line2.Point1.Type, 0
TestParameter, AutoAnalysis.Line2.Point1.XY.X, 
TestParameter, AutoAnalysis.Line2.Point1.XY.Y, 
TestParameter, AutoAnalysis.Line2.Point1.Data.Var, 
TestParameter, AutoAnalysis.Line2.Point1.Data.Condition, 
TestParameter, AutoAnalysis.Line2.Point1.Data.Start, false
TestParameter, AutoAnalysis.Line2.Point1.Data.StartVar, 
TestParameter, AutoAnalysis.Line2.Point1.Data.StartCondition, 
TestParameter, AutoAnalysis.Line2.Point2.Type, 0
TestParameter, AutoAnalysis.Line2.Point2.XY.X, 
TestParameter, AutoAnalysis.Line2.Point2.XY.Y, 
TestParameter, AutoAnalysis.Line2.Point2.Data.Var, 
TestParameter, AutoAnalysis.Line2.Point2.Data.Condition, 
TestParameter, AutoAnalysis.Line2.Point2.Data.Start, false
TestParameter, AutoAnalysis.Line2.Point2.Data.StartVar, 
TestParameter, AutoAnalysis.Line2.Point2.Data.StartCondition, 
TestParameter, AutoAnalysis.Line2.GradientExpr, 0
TestParameter, AutoAnalysis.Marker.Enabled, false
TestParameter, AutoAnalysis.Marker.Data.Var, 
TestParameter, AutoAnalysis.Marker.Data.Condition, 
TestParameter, AutoAnalysis.Marker.Data.Start, false
TestParameter, AutoAnalysis.Marker.Data.StartVar, 
TestParameter, AutoAnalysis.Marker.Data.StartCondition, 
MetaData, TestRecord.EntryPoint, true
MetaData, TestRecord.RecordTime, 01/15/2024 15:36:32
MetaData, TestRecord.TestTarget, P-20-1-298K
MetaData, TestRecord.IterationIndex, 1
MetaData, TestRecord.Preservation, true
MetaData, TestRecord.Flag, 
MetaData, TestRecord.Remarks, 
MetaData, TestRecord.LinkKey, 0a52ce71-bcd8-4452-9f81-e3f9322b78ce
MetaData, TestRecord.Parameters, 
Dimension1, 381, 381
Dimension2, 7, 7
DataName, vg, id
DataValue, 0.5, -2.6920000000000002E-11
DataValue, 0.49, -3.977E-11
DataValue, 0.48, -3.3310000000000006E-11
DataValue, 0.47000000000000003, -2.815E-11
DataValue, 0.46, -4.1970000000000005E-11
DataValue, 0.45, -3.3560000000000005E-11
DataValue, 0.44, -2.96E-11
DataValue, 0.43, -4.2150000000000004E-11
DataValue, 0.42, -3.4280000000000003E-11
DataValue, 0.41000000000000003, -3.1450000000000005E-11
DataValue, 0.4, -4.246E-11
DataValue, 0.39, -3.3380000000000005E-11
DataValue, 0.38, -2.6540000000000003E-11
DataValue, 0.37, -3.667E-11
DataValue, 0.36, -3.386E-11
DataValue, 0.35000000000000003, -2.482E-11
DataValue, 0.34, -3.886E-11
DataValue, 0.33, -3.4840000000000006E-11
DataValue, 0.32, -2.427E-11
DataValue, 0.31, -3.5520000000000004E-11
DataValue, 0.3, -3.6100000000000003E-11
DataValue, 0.29, -2.4370000000000002E-11
DataValue, 0.28, -3.457E-11
DataValue, 0.27, -4.0990000000000005E-11
DataValue, 0.26, -2.7590000000000002E-11
DataValue, 0.25, -3.372E-11
DataValue, 0.24, -3.6470000000000004E-11
DataValue, 0.23, -2.433E-11
DataValue, 0.22, -3.548E-11
DataValue, 0.21, -3.504E-11
DataValue, 0.2, -2.4590000000000002E-11
DataValue, 0.19, -3.7280000000000006E-11
DataValue, 0.18, -3.464E-11
DataValue, 0.17, -2.6250000000000003E-11
DataValue, 0.16, -3.973E-11
DataValue, 0.15, -3.4110000000000006E-11
DataValue, 0.14, -2.4900000000000003E-11
DataValue, 0.13, -3.495E-11
DataValue, 0.12, -3.798E-11
DataValue, 0.11, -2.462E-11
DataValue, 0.1, -3.4800000000000005E-11
DataValue, 0.09, -3.85E-11
DataValue, 0.08, -2.9440000000000004E-11
DataValue, 0.07, -3.344E-11
DataValue, 0.06, -4.1680000000000005E-11
DataValue, 0.05, -3.2910000000000006E-11
DataValue, 0.04, -3.1660000000000004E-11
DataValue, 0.03, -4.2150000000000004E-11
DataValue, 0.02, -2.7250000000000003E-11
DataValue, 0.01, -3.477E-11
DataValue, 0, -3.8920000000000006E-11
DataValue, -0.01, -2.4610000000000003E-11
DataValue, -0.02, -3.5350000000000006E-11
DataValue, -0.03, -3.606E-11
DataValue, -0.04, -2.4750000000000002E-11
DataValue, -0.05, -3.5710000000000005E-11
DataValue, -0.06, -3.5780000000000005E-11
DataValue, -0.07, -2.482E-11
DataValue, -0.08, -3.7060000000000006E-11
DataValue, -0.09, -3.518E-11
DataValue, -0.1, -2.64E-11
DataValue, -0.11, -3.9600000000000004E-11
DataValue, -0.12, -3.5120000000000004E-11
DataValue, -0.13, -2.828E-11
DataValue, -0.14, -4.2730000000000004E-11
DataValue, -0.15, -3.5590000000000003E-11
DataValue, -0.16, -3.1010000000000005E-11
DataValue, -0.17, -4.439E-11
DataValue, -0.18, -3.598E-11
DataValue, -0.19, -3.6180000000000005E-11
DataValue, -0.2, -4.6200000000000006E-11
DataValue, -0.21, -3.8940000000000003E-11
DataValue, -0.22, -3.838E-11
DataValue, -0.23, -5.149E-11
DataValue, -0.24, -4.526E-11
DataValue, -0.25, -3.923E-11
DataValue, -0.26, -5.3030000000000003E-11
DataValue, -0.27, -5.962000000000001E-11
DataValue, -0.28, -5.444E-11
DataValue, -0.29, -7.058E-11
DataValue, -0.3, -8.7600000000000013E-11
DataValue, -0.31, -9.029E-11
DataValue, -0.32, -1.0704000000000001E-10
DataValue, -0.33, -1.3825000000000001E-10
DataValue, -0.34, -1.5608000000000002E-10
DataValue, -0.35000000000000003, -1.8524000000000002E-10
DataValue, -0.36, -2.4748E-10
DataValue, -0.37, -2.8875E-10
DataValue, -0.38, -3.6084E-10
DataValue, -0.39, -4.5603000000000003E-10
DataValue, -0.4, -5.6757E-10
DataValue, -0.41000000000000003, -7.2174E-10
DataValue, -0.42, -9.1021000000000011E-10
DataValue, -0.43, -1.2191E-09
DataValue, -0.44, -1.4826E-09
DataValue, -0.45, -1.8901E-09
DataValue, -0.46, -2.3977E-09
DataValue, -0.47000000000000003, -3.1196E-09
DataValue, -0.48, -4.0696E-09
DataValue, -0.49, -5.0365E-09
DataValue, -0.5, -6.4692E-09
DataValue, -0.51, -8.2855E-09
DataValue, -0.52, -1.05793E-08
DataValue, -0.53, -1.4377599999999998E-08
DataValue, -0.54, -1.8515199999999998E-08
DataValue, -0.55, -2.36416E-08
DataValue, -0.56, -3.0484199999999994E-08
DataValue, -0.57000000000000006, -3.8567E-08
DataValue, -0.58, -4.923E-08
DataValue, -0.59, -6.25218E-08
DataValue, -0.6, -7.98716E-08
DataValue, -0.61, -1.0098499999999999E-07
DataValue, -0.62, -1.2738E-07
DataValue, -0.63, -1.6016E-07
DataValue, -0.64, -2.0036E-07
DataValue, -0.65, -2.4922E-07
DataValue, -0.66, -3.0856E-07
DataValue, -0.67, -3.8076E-07
DataValue, -0.68, -4.6458E-07
DataValue, -0.69000000000000006, -5.6242E-07
DataValue, -0.70000000000000007, -6.7783999999999993E-07
DataValue, -0.71, -8.0912E-07
DataValue, -0.72, -9.5669999999999988E-07
DataValue, -0.73, -1.12714E-06
DataValue, -0.74, -1.3172E-06
DataValue, -0.75, -1.5405000000000001E-06
DataValue, -0.76, -1.7454000000000003E-06
DataValue, -0.77, -1.9875E-06
DataValue, -0.78, -2.2489E-06
DataValue, -0.79, -2.5252000000000004E-06
DataValue, -0.8, -2.8229E-06
DataValue, -0.81, -3.1324000000000003E-06
DataValue, -0.82000000000000006, -3.4536000000000003E-06
DataValue, -0.83000000000000007, -3.7878000000000004E-06
DataValue, -0.84, -4.1395000000000008E-06
DataValue, -0.85, -4.4931E-06
DataValue, -0.86, -4.8567000000000004E-06
DataValue, -0.87, -5.2343000000000009E-06
DataValue, -0.88, -5.6146E-06
DataValue, -0.89, -6.0043E-06
DataValue, -0.9, -6.4024000000000007E-06
DataValue, -0.91, -6.8057000000000008E-06
DataValue, -0.92, -7.2038E-06
DataValue, -0.93, -7.6115000000000007E-06
DataValue, -0.94000000000000006, -8.0203E-06
DataValue, -0.95000000000000007, -8.4259E-06
DataValue, -0.96, -8.8421000000000013E-06
DataValue, -0.97, -9.2611E-06
DataValue, -0.98, -9.6846E-06
DataValue, -0.99, -1.00986E-05
DataValue, -1, -1.0516200000000001E-05
DataValue, -1.01, -1.09363E-05
DataValue, -1.02, -1.1347900000000002E-05
DataValue, -1.03, -1.1766E-05
DataValue, -1.04, -1.2194E-05
DataValue, -1.05, -1.2598E-05
DataValue, -1.06, -1.3022E-05
DataValue, -1.07, -1.3438E-05
DataValue, -1.08, -1.3850000000000001E-05
DataValue, -1.09, -1.4254000000000001E-05
DataValue, -1.1, -1.4682000000000001E-05
DataValue, -1.11, -1.5076000000000001E-05
DataValue, -1.12, -1.5472E-05
DataValue, -1.1300000000000001, -1.5894E-05
DataValue, -1.1400000000000001, -1.6298000000000002E-05
DataValue, -1.1500000000000001, -1.6708E-05
DataValue, -1.16, -1.7092000000000002E-05
DataValue, -1.17, -1.7512E-05
DataValue, -1.18, -1.792E-05
DataValue, -1.19, -1.8298E-05
DataValue, -1.2, -1.8706E-05
DataValue, -1.21, -1.9082E-05
DataValue, -1.22, -1.948E-05
DataValue, -1.23, -1.9846E-05
DataValue, -1.24, -2.0236E-05
DataValue, -1.25, -2.0626000000000002E-05
DataValue, -1.26, -2.1012E-05
DataValue, -1.27, -2.1388E-05
DataValue, -1.28, -2.1766E-05
DataValue, -1.29, -2.2132E-05
DataValue, -1.3, -2.2512E-05
DataValue, -1.31, -2.2876E-05
DataValue, -1.32, -2.3242000000000002E-05
DataValue, -1.33, -2.3608E-05
DataValue, -1.34, -2.3974E-05
DataValue, -1.35, -2.4352E-05
DataValue, -1.36, -2.4704E-05
DataValue, -1.37, -2.5064E-05
DataValue, -1.3800000000000001, -2.5426E-05
DataValue, -1.3900000000000001, -2.5770000000000002E-05
DataValue, -1.4000000000000001, -2.6134E-05
DataValue, -1.41, -2.6466E-05
DataValue, -1.42, -2.6812E-05
DataValue, -1.43, -2.716E-05
DataValue, -1.44, -2.7506E-05
DataValue, -1.45, -2.7858E-05
DataValue, -1.46, -2.8210000000000003E-05
DataValue, -1.47, -2.851E-05
DataValue, -1.48, -2.8866E-05
DataValue, -1.49, -2.92E-05
DataValue, -1.5, -2.9534000000000002E-05
DataValue, -1.51, -2.9858E-05
DataValue, -1.52, -3.0178E-05
DataValue, -1.53, -3.053E-05
DataValue, -1.54, -3.0836E-05
DataValue, -1.55, -3.1126E-05
DataValue, -1.56, -3.1484E-05
DataValue, -1.57, -3.1804E-05
DataValue, -1.58, -3.2114E-05
DataValue, -1.59, -3.2418E-05
DataValue, -1.6, -3.2758E-05
DataValue, -1.61, -3.3056E-05
DataValue, -1.62, -3.338E-05
DataValue, -1.6300000000000001, -3.3666E-05
DataValue, -1.6400000000000001, -3.3968000000000004E-05
DataValue, -1.6500000000000001, -3.4288E-05
DataValue, -1.6600000000000001, -3.4564E-05
DataValue, -1.67, -3.487E-05
DataValue, -1.68, -3.52E-05
DataValue, -1.69, -3.549E-05
DataValue, -1.7, -3.578E-05
DataValue, -1.71, -3.6076E-05
DataValue, -1.72, -3.6356E-05
DataValue, -1.73, -3.665E-05
DataValue, -1.74, -3.6946E-05
DataValue, -1.75, -3.7210000000000005E-05
DataValue, -1.76, -3.752E-05
DataValue, -1.77, -3.7812E-05
DataValue, -1.78, -3.8066000000000005E-05
DataValue, -1.79, -3.837E-05
DataValue, -1.8, -3.8658E-05
DataValue, -1.81, -3.8922000000000004E-05
DataValue, -1.82, -3.9182E-05
DataValue, -1.83, -3.946E-05
DataValue, -1.84, -3.9724E-05
DataValue, -1.85, -3.9982000000000004E-05
DataValue, -1.86, -4.0268E-05
DataValue, -1.87, -4.0538000000000004E-05
DataValue, -1.8800000000000001, -4.0806E-05
DataValue, -1.8900000000000001, -4.1084E-05
DataValue, -1.9000000000000001, -4.1336E-05
DataValue, -1.9100000000000001, -4.1586000000000005E-05
DataValue, -1.92, -4.1854E-05
DataValue, -1.93, -4.2118E-05
DataValue, -1.94, -4.239E-05
DataValue, -1.95, -4.2608E-05
DataValue, -1.96, -4.2916E-05
DataValue, -1.97, -4.3112E-05
DataValue, -1.98, -4.3384000000000003E-05
DataValue, -1.99, -4.3646E-05
DataValue, -2, -4.3898E-05
DataValue, -2.0100000000000002, -4.4156E-05
DataValue, -2.02, -4.4376000000000003E-05
DataValue, -2.0300000000000002, -4.4632E-05
DataValue, -2.04, -4.486E-05
DataValue, -2.05, -4.5106000000000005E-05
DataValue, -2.06, -4.5348E-05
DataValue, -2.07, -4.5606000000000003E-05
DataValue, -2.08, -4.5842E-05
DataValue, -2.09, -4.6024E-05
DataValue, -2.1, -4.6298E-05
DataValue, -2.11, -4.6538E-05
DataValue, -2.12, -4.6772E-05
DataValue, -2.13, -4.6964E-05
DataValue, -2.14, -4.7222E-05
DataValue, -2.15, -4.7488000000000003E-05
DataValue, -2.16, -4.7674000000000005E-05
DataValue, -2.17, -4.791E-05
DataValue, -2.18, -4.8136E-05
DataValue, -2.19, -4.839E-05
DataValue, -2.2, -4.8530000000000005E-05
DataValue, -2.21, -4.8794E-05
DataValue, -2.22, -4.9022E-05
DataValue, -2.23, -4.9218E-05
DataValue, -2.24, -4.9474E-05
DataValue, -2.25, -4.968E-05
DataValue, -2.2600000000000002, -4.9928E-05
DataValue, -2.27, -5.0078000000000004E-05
DataValue, -2.2800000000000002, -5.0332E-05
DataValue, -2.29, -5.0556E-05
DataValue, -2.3000000000000003, -5.0716E-05
DataValue, -2.31, -5.0962000000000004E-05
DataValue, -2.32, -5.1172000000000004E-05
DataValue, -2.33, -5.1396E-05
DataValue, -2.34, -5.1580000000000004E-05
DataValue, -2.35, -5.1774E-05
DataValue, -2.36, -5.1994000000000004E-05
DataValue, -2.37, -5.2224E-05
DataValue, -2.38, -5.2382E-05
DataValue, -2.39, -5.2566000000000005E-05
DataValue, -2.4, -5.2826E-05
DataValue, -2.41, -5.2996E-05
DataValue, -2.42, -5.3152E-05
DataValue, -2.43, -5.339E-05
DataValue, -2.44, -5.3592000000000005E-05
DataValue, -2.45, -5.3786E-05
DataValue, -2.46, -5.3968E-05
DataValue, -2.47, -5.4172E-05
DataValue, -2.48, -5.4374000000000005E-05
DataValue, -2.49, -5.4532E-05
DataValue, -2.5, -5.4736E-05
DataValue, -2.5100000000000002, -5.4918000000000005E-05
DataValue, -2.52, -5.513E-05
DataValue, -2.5300000000000002, -5.5326000000000005E-05
DataValue, -2.54, -5.5482E-05
DataValue, -2.5500000000000003, -5.5704E-05
DataValue, -2.56, -5.5872E-05
DataValue, -2.57, -5.6018000000000005E-05
DataValue, -2.58, -5.6216000000000005E-05
DataValue, -2.59, -5.6402E-05
DataValue, -2.6, -5.6598E-05
DataValue, -2.61, -5.673E-05
DataValue, -2.62, -5.6938E-05
DataValue, -2.63, -5.7138E-05
DataValue, -2.64, -5.7312E-05
DataValue, -2.65, -5.7442E-05
DataValue, -2.66, -5.7672E-05
DataValue, -2.67, -5.7850000000000003E-05
DataValue, -2.68, -5.8004E-05
DataValue, -2.69, -5.8172000000000005E-05
DataValue, -2.7, -5.8356E-05
DataValue, -2.71, -5.8536E-05
DataValue, -2.72, -5.8708E-05
DataValue, -2.73, -5.8854E-05
DataValue, -2.74, -5.9018E-05
DataValue, -2.75, -5.9208E-05
DataValue, -2.7600000000000002, -5.9334000000000005E-05
DataValue, -2.77, -5.9508E-05
DataValue, -2.7800000000000002, -5.9686000000000004E-05
DataValue, -2.79, -5.988E-05
DataValue, -2.8000000000000003, -6.0022E-05
DataValue, -2.81, -6.0172E-05
DataValue, -2.82, -6.0356E-05
DataValue, -2.83, -6.05E-05
DataValue, -2.84, -6.0658E-05
DataValue, -2.85, -6.0842000000000005E-05
DataValue, -2.86, -6.0958E-05
DataValue, -2.87, -6.1094000000000008E-05
DataValue, -2.88, -6.1326E-05
DataValue, -2.89, -6.1440000000000008E-05
DataValue, -2.9, -6.1614E-05
DataValue, -2.91, -6.18E-05
DataValue, -2.92, -6.1942E-05
DataValue, -2.93, -6.2036E-05
DataValue, -2.94, -6.2238E-05
DataValue, -2.95, -6.24E-05
DataValue, -2.96, -6.2504E-05
DataValue, -2.97, -6.2664000000000009E-05
DataValue, -2.98, -6.2824000000000007E-05
DataValue, -2.99, -6.2992E-05
DataValue, -3, -6.3098E-05
DataValue, -3.0100000000000002, -6.3292E-05
DataValue, -3.02, -6.3426E-05
DataValue, -3.0300000000000002, -6.3592E-05
DataValue, -3.04, -6.3658E-05
DataValue, -3.0500000000000003, -6.3846E-05
DataValue, -3.06, -6.3996E-05
DataValue, -3.0700000000000003, -6.4178000000000008E-05
DataValue, -3.08, -6.4248E-05
DataValue, -3.09, -6.4424E-05
DataValue, -3.1, -6.4576E-05
DataValue, -3.11, -6.4740000000000007E-05
DataValue, -3.12, -6.4818E-05
DataValue, -3.13, -6.4974E-05
DataValue, -3.14, -6.5148000000000007E-05
DataValue, -3.15, -6.527E-05
DataValue, -3.16, -6.539E-05
DataValue, -3.17, -6.5524E-05
DataValue, -3.18, -6.5688E-05
DataValue, -3.19, -6.5768E-05
DataValue, -3.2, -6.5934E-05
DataValue, -3.21, -6.6108E-05
DataValue, -3.22, -6.62E-05
DataValue, -3.23, -6.6334E-05
DataValue, -3.24, -6.6494E-05
DataValue, -3.25, -6.6618E-05
DataValue, -3.2600000000000002, -6.674E-05
DataValue, -3.27, -6.6892E-05
DataValue, -3.2800000000000002, -6.6986E-05
DataValue, -3.29, -6.7108000000000009E-05
DataValue, -3.3000000000000003, -6.7236E-05
DataValue, 0.5, -2.5120000000000003E-11
DataValue, 0.49, -2.189E-11
DataValue, 0.48, -1.866E-11
DataValue, 0.47000000000000003, -2.956E-11
