
SetupTitle, idvg3.3
PrimitiveTest, I/V Sweep
TestParameter, Context.MainFrame, B1500A
TestParameter, Channel.UnitType, SMU, SMU, SMU, SMU
TestParameter, Channel.Unit, SMU4:HR, SMU3:HR, SMU1:HR, SMU2:HR
TestParameter, Channel.IName, Id, Ig, Is, Ibg
TestParameter, Channel.VName, Vd, Vg, Vs, Vbg
TestParameter, Channel.Mode, V, V, V, V
TestParameter, Channel.Func, CONST, VAR1, CONST, VAR2
TestParameter, Channel.Index, 
TestParameter, Channel.Time, 
TestParameter, Measurement.Port.Unit, SMU4:HR, SMU3:HR, SMU1:HR, SMU2:HR
TestParameter, Measurement.Port.SeriesResistor, NONE, NONE, NONE, NONE
TestParameter, Measurement.Port.Filter, ON, ON, ON, ON
TestParameter, Measurement.Port.OutputVoltageComparison, 0, 0, 0, 0
TestParameter, Measurement.Primary.Locus, Single
TestParameter, Measurement.Primary.Scale, LINEAR
TestParameter, Measurement.Primary.Start, -2.1
TestParameter, Measurement.Primary.Stop, 3.63
TestParameter, Measurement.Primary.Step, 0.03
TestParameter, Measurement.Primary.Compliance, 0.1
TestParameter, Measurement.Primary.PowerCompliance, 0
TestParameter, Measurement.Aborting.Condition, CONTINUE AT ANY
TestParameter, Measurement.PostOutput.Value, START
TestParameter, Measurement.PostOutput.Retention, OFF
TestParameter, Measurement.Secondary.Start, -2
TestParameter, Measurement.Secondary.Count, 5
TestParameter, Measurement.Secondary.Step, 2
TestParameter, Measurement.Secondary.Compliance, 0.1
TestParameter, Measurement.Secondary.PowerCompliance, 0
TestParameter, Measurement.Bias.Source, 3.3000000000000003, -2.1, 0, -2
TestParameter, Measurement.Bias.Compliance, 0.1, 0.1, 0.1, 0.1
TestParameter, Measurement.Monitor.Unit, SMU4:HR, SMU3:HR, SMU1:HR, SMU2:HR
TestParameter, Measurement.Monitor.Adc, HR ADC, HR ADC, HR ADC, HR ADC
TestParameter, Measurement.Monitor.Measurement, Compliance Side, Compliance Side, Compliance Side, Compliance Side
TestParameter, Measurement.Monitor.RangingMode, LIMITED, LIMITED, LIMITED, LIMITED
TestParameter, Measurement.Monitor.RangeBoundary, 1nA, 1nA, 1nA, 1nA
TestParameter, Measurement.Monitor.RangeRating, BY FULL RANGE, BY FULL RANGE, BY FULL RANGE, BY FULL RANGE
TestParameter, Measurement.Monitor.RangeRatingCoeff, 50, 50, 50, 50
TestParameter, Measurement.Timing.Hold, 0
TestParameter, Measurement.Timing.Delay, 0
TestParameter, Measurement.Adc.HighSpeed.Mode, AUTO
TestParameter, Measurement.Adc.HighSpeed.Coeff, 1
TestParameter, Measurement.Adc.HighResolution.AutoZero, OFF
TestParameter, Measurement.Adc.HighResolution.Mode, PLC
TestParameter, Measurement.Adc.HighResolution.Coeff, 1
TestParameter, Measurement.WaitTime.Source.Coeff, 1
TestParameter, Measurement.WaitTime.Source.Offset, 0
TestParameter, Measurement.WaitTime.Monitor.Coeff, 1
TestParameter, Measurement.WaitTime.Monitor.Offset, 0
TestParameter, Function.User.Name, gm, absId
TestParameter, Function.User.Unit, S, A
TestParameter, Function.User.Definition, diff(Id,Vg), abs(Id)
TestParameter, Output.Graph.Enabled, true
TestParameter, Output.Graph.AutoScaling, false
TestParameter, Output.Graph.XAxis.Data, Vg
TestParameter, Output.Graph.XAxis.Scale, Linear
TestParameter, Output.Graph.XAxis.Left, -3
TestParameter, Output.Graph.XAxis.Right, 3.63
TestParameter, Output.Graph.XAxis.RunTimeAutoScale, true
TestParameter, Output.Graph.YAxis.Data, Id, Ig, Ib
TestParameter, Output.Graph.YAxis.Scale, Log, Linear, Linear
TestParameter, Output.Graph.YAxis.Bottom, 0.001, -0.1, -0.1
TestParameter, Output.Graph.YAxis.Top, 0.01, 0.1, 0.1
TestParameter, Output.Graph.YAxis.Group, , , 
TestParameter, Output.Graph.YAxis.RunTimeAutoScale, true, true, true
TestParameter, Output.List.Data, Vg, Vd, Ig, Id, Ibg, Is, gm, Vbg, absId
TestParameter, AutoAnalysis.Interpolation, false
TestParameter, AutoAnalysis.Var2StepCount, 1
TestParameter, AutoAnalysis.Var2StepScript, 
TestParameter, AutoAnalysis.Line1.Enabled, false
TestParameter, AutoAnalysis.Line1.Type, 2
TestParameter, AutoAnalysis.Line1.Fix, True
TestParameter, AutoAnalysis.Line1.YAxis, 0
TestParameter, AutoAnalysis.Line1.Point1.Type, 1
TestParameter, AutoAnalysis.Line1.Point1.XY.X, 
TestParameter, AutoAnalysis.Line1.Point1.XY.Y, 
TestParameter, AutoAnalysis.Line1.Point1.Data.Var, Id
TestParameter, AutoAnalysis.Line1.Point1.Data.Condition, 
TestParameter, AutoAnalysis.Line1.Point1.Data.Start, false
TestParameter, AutoAnalysis.Line1.Point1.Data.StartVar, 
TestParameter, AutoAnalysis.Line1.Point1.Data.StartCondition, 
TestParameter, AutoAnalysis.Line1.Point2.Type, 0
TestParameter, AutoAnalysis.Line1.Point2.XY.X, 
TestParameter, AutoAnalysis.Line1.Point2.XY.Y, 
TestParameter, AutoAnalysis.Line1.Point2.Data.Var, 
TestParameter, AutoAnalysis.Line1.Point2.Data.Condition, 
TestParameter, AutoAnalysis.Line1.Point2.Data.Start, false
TestParameter, AutoAnalysis.Line1.Point2.Data.StartVar, 
TestParameter, AutoAnalysis.Line1.Point2.Data.StartCondition, 
TestParameter, AutoAnalysis.Line1.GradientExpr, 0
TestParameter, AutoAnalysis.Line2.Enabled, false
TestParameter, AutoAnalysis.Line2.Type, 1
TestParameter, AutoAnalysis.Line2.Fix, True
TestParameter, AutoAnalysis.Line2.YAxis, 0
TestParameter, AutoAnalysis.Line2.Point1.Type, 0
TestParameter, AutoAnalysis.Line2.Point1.XY.X, 
TestParameter, AutoAnalysis.Line2.Point1.XY.Y, 
TestParameter, AutoAnalysis.Line2.Point1.Data.Var, 
TestParameter, AutoAnalysis.Line2.Point1.Data.Condition, 
TestParameter, AutoAnalysis.Line2.Point1.Data.Start, false
TestParameter, AutoAnalysis.Line2.Point1.Data.StartVar, 
TestParameter, AutoAnalysis.Line2.Point1.Data.StartCondition, 
TestParameter, AutoAnalysis.Line2.Point2.Type, 0
TestParameter, AutoAnalysis.Line2.Point2.XY.X, 
TestParameter, AutoAnalysis.Line2.Point2.XY.Y, 
TestParameter, AutoAnalysis.Line2.Point2.Data.Var, 
TestParameter, AutoAnalysis.Line2.Point2.Data.Condition, 
TestParameter, AutoAnalysis.Line2.Point2.Data.Start, false
TestParameter, AutoAnalysis.Line2.Point2.Data.StartVar, 
TestParameter, AutoAnalysis.Line2.Point2.Data.StartCondition, 
TestParameter, AutoAnalysis.Line2.GradientExpr, 0
TestParameter, AutoAnalysis.Marker.Enabled, false
TestParameter, AutoAnalysis.Marker.Data.Var, 
TestParameter, AutoAnalysis.Marker.Data.Condition, 
TestParameter, AutoAnalysis.Marker.Data.Start, false
TestParameter, AutoAnalysis.Marker.Data.StartVar, 
TestParameter, AutoAnalysis.Marker.Data.StartCondition, 
MetaData, TestRecord.EntryPoint, true
MetaData, TestRecord.RecordTime, 01/16/2024 15:27:28
MetaData, TestRecord.TestTarget, N-1-0.35-298K
MetaData, TestRecord.IterationIndex, 3
MetaData, TestRecord.Preservation, true
MetaData, TestRecord.Flag, 
MetaData, TestRecord.Remarks, 
MetaData, TestRecord.LinkKey, 8b396bd7-7be8-43bf-8823-52f546585a7c
MetaData, TestRecord.Parameters, 
Dimension1, 192, 192, 192, 192, 192, 192, 192, 192, 192, 192
Dimension2, 5, 5, 5, 5, 5, 5, 5, 5, 5, 5
DataName, Vg, Vbg, Vd, Id, Ig, Is, Ibg, gm, absId, Ib
DataValue, -2.1, -2, 3.3000000000000003, 6.6971000000000011E-11, 1.0000000000000002E-14, 7.488E-12, -1.04671E-07, -2.0213333333333203E-10, 6.6971000000000011E-11, 
DataValue, -2.07, -2, 3.3000000000000003, 6.0907E-11, 1.25E-13, 7.411E-12, -1.04628E-07, -1.829499999999999E-10, 6.0907E-11, 
DataValue, -2.04, -2, 3.3000000000000003, 5.5994000000000007E-11, 7.4E-14, 7.407E-12, -1.04457E-07, -1.5688333333333431E-10, 5.5994000000000007E-11, 
DataValue, -2.0100000000000002, -2, 3.3000000000000003, 5.1494000000000003E-11, -2.6000000000000003E-14, 7.3800000000000013E-12, -1.02232E-07, -1.4174999999999987E-10, 5.1494000000000003E-11, 
DataValue, -1.98, -2, 3.3000000000000003, 4.7489000000000007E-11, 1.5000000000000002E-14, 7.41E-12, -1.02365E-07, -1.2664999999999945E-10, 4.7489000000000007E-11, 
DataValue, -1.95, -2, 3.3000000000000003, 4.3895E-11, 1.17E-13, 7.431000000000001E-12, -1.0202899999999999E-07, -1.1576666666666662E-10, 4.3895E-11, 
DataValue, -1.92, -2, 3.3000000000000003, 4.0543E-11, 8.6000000000000012E-14, 7.3380000000000012E-12, -1.00669E-07, -1.0656666666666695E-10, 4.0543E-11, 
DataValue, -1.8900000000000001, -2, 3.3000000000000003, 3.7501E-11, 1.41E-13, 7.3670000000000012E-12, -1.00657E-07, -9.6316666666666988E-11, 3.7501E-11, 
DataValue, -1.86, -2, 3.3000000000000003, 3.4764E-11, 1.28E-13, 7.4E-12, -1.0073E-07, -8.7966666666666624E-11, 3.4764E-11, 
DataValue, -1.83, -2, 3.3000000000000003, 3.2223E-11, 1.17E-13, 7.346E-12, -1.00946E-07, -7.8183333333333275E-11, 3.2223E-11, 
DataValue, -1.8, -2, 3.3000000000000003, 3.0073E-11, 1.3200000000000002E-13, 7.3700000000000011E-12, -1.0029209999999999E-07, -7.1183333333333222E-11, 3.0073E-11, 
DataValue, -1.77, -2, 3.3000000000000003, 2.7952000000000002E-11, 1.53E-13, 7.377E-12, -9.97692E-08, -6.4349999999999873E-11, 2.7952000000000002E-11, 
DataValue, -1.74, -2, 3.3000000000000003, 2.6212000000000003E-11, 8.2E-14, 7.386000000000001E-12, -9.92094E-08, -6.0099999999999927E-11, 2.6212000000000003E-11, 
DataValue, -1.71, -2, 3.3000000000000003, 2.4346000000000003E-11, 9.9000000000000007E-14, 7.345E-12, -1.0167769999999999E-07, -5.4316666666666642E-11, 2.4346000000000003E-11, 
DataValue, -1.68, -2, 3.3000000000000003, 2.2953000000000002E-11, 1.8400000000000002E-13, 7.39E-12, -1.0256539999999999E-07, -4.63333333333335E-11, 2.2953000000000002E-11, 
DataValue, -1.6500000000000001, -2, 3.3000000000000003, 2.1566E-11, 1.19E-13, 7.3E-12, -1.0281649999999999E-07, -4.4200000000000116E-11, 2.1566E-11, 
DataValue, -1.62, -2, 3.3000000000000003, 2.0301000000000002E-11, 1.9600000000000002E-13, 7.34E-12, -1.0236219999999999E-07, -3.9199999999999933E-11, 2.0301000000000002E-11, 
DataValue, -1.59, -2, 3.3000000000000003, 1.9214000000000003E-11, 1.58E-13, 7.369E-12, -1.0325639999999999E-07, -3.5149999999999983E-11, 1.9214000000000003E-11, 
DataValue, -1.56, -2, 3.3000000000000003, 1.8192000000000002E-11, 2.3100000000000003E-13, 7.3670000000000012E-12, -1.0399109999999999E-07, -2.9549999999999985E-11, 1.8192000000000002E-11, 
DataValue, -1.53, -2, 3.3000000000000003, 1.7441000000000002E-11, 2.1400000000000002E-13, 7.374E-12, -1.0378849999999999E-07, -2.7049999999999974E-11, 1.7441000000000002E-11, 
DataValue, -1.5, -2, 3.3000000000000003, 1.6569000000000002E-11, 2.2800000000000004E-13, 7.414E-12, -1.0426469999999999E-07, -2.6183333333333303E-11, 1.6569000000000002E-11, 
DataValue, -1.47, -2, 3.3000000000000003, 1.5870000000000002E-11, 2.2600000000000002E-13, 7.432E-12, -1.0440869999999999E-07, -2.1499999999999974E-11, 1.5870000000000002E-11, 
DataValue, -1.44, -2, 3.3000000000000003, 1.5279000000000002E-11, 2.5300000000000003E-13, 7.3760000000000009E-12, -1.0543649999999999E-07, -2.026666666666667E-11, 1.5279000000000002E-11, 
DataValue, -1.41, -2, 3.3000000000000003, 1.4654E-11, 2.2900000000000003E-13, 7.359E-12, -1.0481249999999999E-07, -1.8716666666666747E-11, 1.4654E-11, 
DataValue, -1.3800000000000001, -2, 3.3000000000000003, 1.4156E-11, 2.6200000000000004E-13, 7.3800000000000013E-12, -1.0498089999999999E-07, -1.573333333333339E-11, 1.4156E-11, 
DataValue, -1.35, -2, 3.3000000000000003, 1.371E-11, 3.66E-13, 7.4180000000000009E-12, -1.048024E-07, -1.3566666666666662E-11, 1.371E-11, 
DataValue, -1.32, -2, 3.3000000000000003, 1.3342E-11, 2.7700000000000003E-13, 7.3050000000000009E-12, -1.0468249999999999E-07, -1.134999999999999E-11, 1.3342E-11, 
DataValue, -1.29, -2, 3.3000000000000003, 1.3029E-11, 3.4500000000000004E-13, 7.33E-12, -1.0609009999999999E-07, -1.2333333333333304E-11, 1.3029E-11, 
DataValue, -1.26, -2, 3.3000000000000003, 1.2602000000000001E-11, 3.16E-13, 7.278E-12, -1.0685059999999999E-07, -1.2649999999999967E-11, 1.2602000000000001E-11, 
DataValue, -1.23, -2, 3.3000000000000003, 1.2270000000000002E-11, 4.0400000000000005E-13, 7.317E-12, -1.0738549999999999E-07, -5.7499999999999923E-12, 1.2270000000000002E-11, 
DataValue, -1.2, -2, 3.3000000000000003, 1.2257000000000002E-11, 4.11E-13, 7.3570000000000011E-12, -1.08731E-07, -6.4333333333333438E-12, 1.2257000000000002E-11, 
DataValue, -1.17, -2, 3.3000000000000003, 1.1884E-11, 4.3000000000000004E-13, 7.411E-12, -1.1185119999999998E-07, -9.7333333333333592E-12, 1.1884E-11, 
DataValue, -1.1400000000000001, -2, 3.3000000000000003, 1.1673000000000002E-11, 4.13E-13, 7.366E-12, -1.1104569999999998E-07, -6.2500000000000228E-12, 1.1673000000000002E-11, 
DataValue, -1.11, -2, 3.3000000000000003, 1.1509E-11, 4.1500000000000005E-13, 7.342E-12, -1.1144889999999999E-07, -6.9000000000000017E-12, 1.1509E-11, 
DataValue, -1.08, -2, 3.3000000000000003, 1.1259000000000001E-11, 4.35E-13, 7.289000000000001E-12, -1.1179199999999999E-07, -4.9166666666666465E-12, 1.1259000000000001E-11, 
DataValue, -1.05, -2, 3.3000000000000003, 1.1214000000000001E-11, 4.86E-13, 7.401E-12, -1.1196989999999998E-07, -1.3000000000000034E-12, 1.1214000000000001E-11, 
DataValue, -1.02, -2, 3.3000000000000003, 1.1181000000000001E-11, 5.22E-13, 7.2740000000000007E-12, -1.1068849999999999E-07, -1.9500000000000052E-12, 1.1181000000000001E-11, 
DataValue, -0.99, -2, 3.3000000000000003, 1.1097000000000001E-11, 4.87E-13, 7.326E-12, -1.1184289999999999E-07, -5.51666666666665E-12, 1.1097000000000001E-11, 
DataValue, -0.96, -2, 3.3000000000000003, 1.0850000000000002E-11, 5.39E-13, 7.3630000000000008E-12, -1.0997179999999999E-07, -4.399999999999999E-12, 1.0850000000000002E-11, 
DataValue, -0.93, -2, 3.3000000000000003, 1.0833000000000001E-11, 5.45E-13, 7.2630000000000009E-12, -1.098549E-07, -3.6166666666666766E-12, 1.0833000000000001E-11, 
DataValue, -0.9, -2, 3.3000000000000003, 1.0633000000000001E-11, 5.81E-13, 7.3960000000000012E-12, -1.0904509999999999E-07, -2.8999999999999953E-12, 1.0633000000000001E-11, 
DataValue, -0.87, -2, 3.3000000000000003, 1.0659000000000001E-11, 6.1900000000000009E-13, 7.2580000000000008E-12, -1.0987609999999999E-07, 8.3333333333321118E-14, 1.0659000000000001E-11, 
DataValue, -0.84, -2, 3.3000000000000003, 1.0638E-11, 6.6500000000000009E-13, 7.348E-12, -1.086147E-07, 6.3333333333332787E-13, 1.0638E-11, 
DataValue, -0.81, -2, 3.3000000000000003, 1.0697000000000001E-11, 6.86E-13, 7.3210000000000008E-12, -1.0900989999999999E-07, -1.7999999999999873E-12, 1.0697000000000001E-11, 
DataValue, -0.78, -2, 3.3000000000000003, 1.0530000000000001E-11, 6.11E-13, 7.3220000000000013E-12, -1.097056E-07, -3.4999999999999988E-12, 1.0530000000000001E-11, 
DataValue, -0.75, -2, 3.3000000000000003, 1.0487000000000001E-11, 7.47E-13, 7.311E-12, -1.0785509999999999E-07, 4.1666666666665947E-13, 1.0487000000000001E-11, 
DataValue, -0.72, -2, 3.3000000000000003, 1.0555000000000001E-11, 7.100000000000001E-13, 7.33E-12, -1.0714889999999998E-07, -8.1666666666667241E-13, 1.0555000000000001E-11, 
DataValue, -0.69000000000000006, -2, 3.3000000000000003, 1.0438E-11, 7.98E-13, 7.298E-12, -1.0785379999999998E-07, -1.0500000000000151E-12, 1.0438E-11, 
DataValue, -0.66, -2, 3.3000000000000003, 1.0492E-11, 7.74E-13, 7.327E-12, -1.0737099999999999E-07, -1.0666666666666613E-12, 1.0492E-11, 
DataValue, -0.63, -2, 3.3000000000000003, 1.0374000000000001E-11, 7.8600000000000008E-13, 7.308E-12, -1.0750899999999999E-07, -2.3166666666666664E-12, 1.0374000000000001E-11, 
DataValue, -0.6, -2, 3.3000000000000003, 1.0353E-11, 7.32E-13, 7.388E-12, -1.0680139999999999E-07, 1.6666666666675026E-14, 1.0353E-11, 
DataValue, -0.57000000000000006, -2, 3.3000000000000003, 1.0375000000000001E-11, 8.4100000000000005E-13, 7.4060000000000014E-12, -1.0960219999999999E-07, 6.666666666666779E-13, 1.0375000000000001E-11, 
DataValue, -0.54, -2, 3.3000000000000003, 1.0393E-11, 8.8000000000000009E-13, 7.278E-12, -1.085966E-07, -2.8333333333334027E-13, 1.0393E-11, 
DataValue, -0.51, -2, 3.3000000000000003, 1.0358000000000001E-11, 9.0200000000000009E-13, 7.3180000000000009E-12, -1.0967139999999999E-07, -3.3333333333333834E-13, 1.0358000000000001E-11, 
DataValue, -0.48, -2, 3.3000000000000003, 1.0373E-11, 8.47E-13, 7.3920000000000008E-12, -1.08193E-07, -1.0166666666666641E-12, 1.0373E-11, 
DataValue, -0.45, -2, 3.3000000000000003, 1.0297000000000001E-11, 8.8700000000000006E-13, 7.3640000000000013E-12, -1.0926079999999999E-07, -9.99999999999989E-13, 1.0297000000000001E-11, 
DataValue, -0.42, -2, 3.3000000000000003, 1.0313000000000001E-11, 9.7000000000000011E-13, 7.306E-12, -1.0829569999999999E-07, -6.3333333333332727E-13, 1.0313000000000001E-11, 
DataValue, -0.39, -2, 3.3000000000000003, 1.0259000000000001E-11, 9.0500000000000008E-13, 7.403E-12, -1.1034239999999999E-07, -8.4999999999999476E-13, 1.0259000000000001E-11, 
DataValue, -0.36, -2, 3.3000000000000003, 1.0262000000000001E-11, 9.5600000000000017E-13, 7.3050000000000009E-12, -1.1044339999999999E-07, 0, 1.0262000000000001E-11, 
DataValue, -0.33, -2, 3.3000000000000003, 1.0259000000000001E-11, 1.013E-12, 7.386000000000001E-12, -1.103126E-07, -1.8500000000000109E-12, 1.0259000000000001E-11, 
DataValue, -0.3, -2, 3.3000000000000003, 1.0151E-11, 1.0390000000000001E-12, 7.356E-12, -1.0995419999999999E-07, 2.8333333333331361E-13, 1.0151E-11, 
DataValue, -0.27, -2, 3.3000000000000003, 1.0276E-11, 1.032E-12, 7.314E-12, -1.1007969999999999E-07, 9.33333333333343E-13, 1.0276E-11, 
DataValue, -0.24, -2, 3.3000000000000003, 1.0207000000000001E-11, 1.109E-12, 7.4090000000000012E-12, -1.0916089999999999E-07, -6.83333333333325E-13, 1.0207000000000001E-11, 
DataValue, -0.21, -2, 3.3000000000000003, 1.0235E-11, 1.122E-12, 7.352E-12, -1.0884539999999999E-07, 8.6666666666666977E-13, 1.0235E-11, 
DataValue, -0.18, -2, 3.3000000000000003, 1.0259000000000001E-11, 1.1690000000000002E-12, 7.336E-12, -1.09769E-07, 1.3000000000000046E-12, 1.0259000000000001E-11, 
DataValue, -0.15, -2, 3.3000000000000003, 1.0313000000000001E-11, 1.191E-12, 7.254E-12, -1.0891019999999999E-07, -6.6666666666673118E-14, 1.0313000000000001E-11, 
DataValue, -0.12, -2, 3.3000000000000003, 1.0255000000000001E-11, 1.249E-12, 7.3380000000000012E-12, -1.1029279999999998E-07, -1.3000000000000046E-12, 1.0255000000000001E-11, 
DataValue, -0.09, -2, 3.3000000000000003, 1.0235E-11, 1.214E-12, 7.339E-12, -1.0988529999999998E-07, 1.8833333333333339E-12, 1.0235E-11, 
DataValue, -0.06, -2, 3.3000000000000003, 1.0368000000000001E-11, 1.2340000000000002E-12, 7.385E-12, -1.0966019999999999E-07, -2.2833333333333455E-12, 1.0368000000000001E-11, 
DataValue, -0.03, -2, 3.3000000000000003, 1.0098E-11, 1.274E-12, 7.403E-12, -1.0954319999999999E-07, -2.1833333333333495E-12, 1.0098E-11, 
DataValue, 0, -2, 3.3000000000000003, 1.0237E-11, 1.329E-12, 7.339E-12, -1.0897419999999999E-07, 2.6833333333333575E-12, 1.0237E-11, 
DataValue, 0.03, -2, 3.3000000000000003, 1.0259000000000001E-11, 1.356E-12, 7.349E-12, -1.0894749999999999E-07, 6.6666666666673118E-14, 1.0259000000000001E-11, 
DataValue, 0.06, -2, 3.3000000000000003, 1.0241E-11, 1.3420000000000001E-12, 7.279E-12, -1.0812429999999999E-07, -9.0000000000001979E-13, 1.0241E-11, 
DataValue, 0.09, -2, 3.3000000000000003, 1.0205E-11, 1.427E-12, 7.379E-12, -1.0662909999999999E-07, 1.6833333333333414E-12, 1.0205E-11, 
DataValue, 0.12, -2, 3.3000000000000003, 1.0342000000000001E-11, 1.4510000000000002E-12, 7.281E-12, -1.0689789999999999E-07, -2.1666666666666744E-13, 1.0342000000000001E-11, 
DataValue, 0.15, -2, 3.3000000000000003, 1.0192E-11, 1.519E-12, 7.385E-12, -1.0557569999999999E-07, -1.3166666666666796E-12, 1.0192E-11, 
DataValue, 0.18, -2, 3.3000000000000003, 1.0263E-11, 1.5240000000000002E-12, 7.348E-12, -1.0724419999999999E-07, 2.0000000000001934E-13, 1.0263E-11, 
DataValue, 0.21, -2, 3.3000000000000003, 1.0204000000000001E-11, 1.5340000000000001E-12, 7.289000000000001E-12, -1.0482289999999999E-07, -2.9999999999998862E-13, 1.0204000000000001E-11, 
DataValue, 0.24, -2, 3.3000000000000003, 1.0245000000000001E-11, 1.6080000000000002E-12, 7.385E-12, -1.0455969999999999E-07, 1.933333333333331E-12, 1.0245000000000001E-11, 
DataValue, 0.27, -2, 3.3000000000000003, 1.0320000000000001E-11, 1.6660000000000002E-12, 7.4250000000000012E-12, -1.048305E-07, 2.2999999999999938E-12, 1.0320000000000001E-11, 
DataValue, 0.3, -2, 3.3000000000000003, 1.0383E-11, 1.6890000000000002E-12, 7.379E-12, -1.0500809999999999E-07, -1.8333333333334433E-13, 1.0383E-11, 
