
SetupTitle, NMOS-id-vg-vbs@vds=3.3
PrimitiveTest, I/V Sweep
TestParameter, Context.MainFrame, B1500A
TestParameter, Channel.UnitType, SMU, SMU, SMU, SMU
TestParameter, Channel.Unit, SMU2:HR, SMU1:HR, SMU3:HR, SMU4:HR
TestParameter, Channel.IName, ib, is, ig, id
TestParameter, Channel.VName, vb, vs, vg, vd
TestParameter, Channel.Mode, V, COMMON, V, V
TestParameter, Channel.Func, VAR2, CONST, VAR1, CONST
TestParameter, Channel.Index, 
TestParameter, Channel.Time, 
TestParameter, Measurement.Port.Unit, SMU2:HR, SMU1:HR, SMU3:HR, SMU4:HR
TestParameter, Measurement.Port.SeriesResistor, NONE, NONE, NONE, NONE
TestParameter, Measurement.Port.Filter, ON, ON, ON, ON
TestParameter, Measurement.Port.OutputVoltageComparison, 0, 0, 0, 0
TestParameter, Measurement.Primary.Locus, Single
TestParameter, Measurement.Primary.Scale, LINEAR
TestParameter, Measurement.Primary.Start, -0.5
TestParameter, Measurement.Primary.Stop, 3.3000000000000003
TestParameter, Measurement.Primary.Step, 0.01
TestParameter, Measurement.Primary.Compliance, 0.001
TestParameter, Measurement.Primary.PowerCompliance, 0
TestParameter, Measurement.Aborting.Condition, SKIP AT ANY ABNORMAL
TestParameter, Measurement.PostOutput.Value, START
TestParameter, Measurement.PostOutput.Retention, OFF
TestParameter, Measurement.Secondary.Start, 0
TestParameter, Measurement.Secondary.Count, 7
TestParameter, Measurement.Secondary.Step, -0.6
TestParameter, Measurement.Secondary.Compliance, 0.1
TestParameter, Measurement.Secondary.PowerCompliance, 0
TestParameter, Measurement.Bias.Source, 0, 0, -0.5, 3.3000000000000003
TestParameter, Measurement.Bias.Compliance, 0.1, 0.1, 0.001, 0.1
TestParameter, Measurement.Monitor.Unit, SMU2:HR, SMU1:HR, SMU3:HR, SMU4:HR
TestParameter, Measurement.Monitor.Adc, HR ADC, HR ADC, HR ADC, HR ADC
TestParameter, Measurement.Monitor.Measurement, Compliance Side, Compliance Side, Compliance Side, Compliance Side
TestParameter, Measurement.Monitor.RangingMode, LIMITED, LIMITED, LIMITED, LIMITED
TestParameter, Measurement.Monitor.RangeBoundary, 1nA, 1nA, 1nA, 1nA
TestParameter, Measurement.Monitor.RangeRating, BY FULL RANGE, BY FULL RANGE, BY FULL RANGE, BY FULL RANGE
TestParameter, Measurement.Monitor.RangeRatingCoeff, 50, 50, 50, 50
TestParameter, Measurement.Timing.Hold, 0
TestParameter, Measurement.Timing.Delay, 0
TestParameter, Measurement.Adc.HighSpeed.Mode, AUTO
TestParameter, Measurement.Adc.HighSpeed.Coeff, 1
TestParameter, Measurement.Adc.HighResolution.AutoZero, OFF
TestParameter, Measurement.Adc.HighResolution.Mode, AUTO
TestParameter, Measurement.Adc.HighResolution.Coeff, 6
TestParameter, Measurement.WaitTime.Source.Coeff, 1
TestParameter, Measurement.WaitTime.Source.Offset, 0
TestParameter, Measurement.WaitTime.Monitor.Coeff, 1
TestParameter, Measurement.WaitTime.Monitor.Offset, 0
TestParameter, Output.Graph.Enabled, true
TestParameter, Output.Graph.AutoScaling, false
TestParameter, Output.Graph.XAxis.Data, vg
TestParameter, Output.Graph.XAxis.Scale, Linear
TestParameter, Output.Graph.XAxis.Left, 0
TestParameter, Output.Graph.XAxis.Right, 0.9
TestParameter, Output.Graph.XAxis.RunTimeAutoScale, true
TestParameter, Output.Graph.YAxis.Data, id
TestParameter, Output.Graph.YAxis.Scale, Linear
TestParameter, Output.Graph.YAxis.Bottom, -0.1
TestParameter, Output.Graph.YAxis.Top, 0.1
TestParameter, Output.Graph.YAxis.Group, 
TestParameter, Output.Graph.YAxis.RunTimeAutoScale, true
TestParameter, AutoAnalysis.Interpolation, false
TestParameter, AutoAnalysis.Var2StepCount, 1
TestParameter, AutoAnalysis.Var2StepScript, 
TestParameter, AutoAnalysis.Line1.Enabled, false
TestParameter, AutoAnalysis.Line1.Type, 1
TestParameter, AutoAnalysis.Line1.Fix, True
TestParameter, AutoAnalysis.Line1.YAxis, 0
TestParameter, AutoAnalysis.Line1.Point1.Type, 0
TestParameter, AutoAnalysis.Line1.Point1.XY.X, 
TestParameter, AutoAnalysis.Line1.Point1.XY.Y, 
TestParameter, AutoAnalysis.Line1.Point1.Data.Var, 
TestParameter, AutoAnalysis.Line1.Point1.Data.Condition, 
TestParameter, AutoAnalysis.Line1.Point1.Data.Start, false
TestParameter, AutoAnalysis.Line1.Point1.Data.StartVar, 
TestParameter, AutoAnalysis.Line1.Point1.Data.StartCondition, 
TestParameter, AutoAnalysis.Line1.Point2.Type, 0
TestParameter, AutoAnalysis.Line1.Point2.XY.X, 
TestParameter, AutoAnalysis.Line1.Point2.XY.Y, 
TestParameter, AutoAnalysis.Line1.Point2.Data.Var, 
TestParameter, AutoAnalysis.Line1.Point2.Data.Condition, 
TestParameter, AutoAnalysis.Line1.Point2.Data.Start, false
TestParameter, AutoAnalysis.Line1.Point2.Data.StartVar, 
TestParameter, AutoAnalysis.Line1.Point2.Data.StartCondition, 
TestParameter, AutoAnalysis.Line1.GradientExpr, 0
TestParameter, AutoAnalysis.Line2.Enabled, false
TestParameter, AutoAnalysis.Line2.Type, 1
TestParameter, AutoAnalysis.Line2.Fix, True
TestParameter, AutoAnalysis.Line2.YAxis, 0
TestParameter, AutoAnalysis.Line2.Point1.Type, 0
TestParameter, AutoAnalysis.Line2.Point1.XY.X, 
TestParameter, AutoAnalysis.Line2.Point1.XY.Y, 
TestParameter, AutoAnalysis.Line2.Point1.Data.Var, 
TestParameter, AutoAnalysis.Line2.Point1.Data.Condition, 
TestParameter, AutoAnalysis.Line2.Point1.Data.Start, false
TestParameter, AutoAnalysis.Line2.Point1.Data.StartVar, 
TestParameter, AutoAnalysis.Line2.Point1.Data.StartCondition, 
TestParameter, AutoAnalysis.Line2.Point2.Type, 0
TestParameter, AutoAnalysis.Line2.Point2.XY.X, 
TestParameter, AutoAnalysis.Line2.Point2.XY.Y, 
TestParameter, AutoAnalysis.Line2.Point2.Data.Var, 
TestParameter, AutoAnalysis.Line2.Point2.Data.Condition, 
TestParameter, AutoAnalysis.Line2.Point2.Data.Start, false
TestParameter, AutoAnalysis.Line2.Point2.Data.StartVar, 
TestParameter, AutoAnalysis.Line2.Point2.Data.StartCondition, 
TestParameter, AutoAnalysis.Line2.GradientExpr, 0
TestParameter, AutoAnalysis.Marker.Enabled, false
TestParameter, AutoAnalysis.Marker.Data.Var, 
TestParameter, AutoAnalysis.Marker.Data.Condition, 
TestParameter, AutoAnalysis.Marker.Data.Start, false
TestParameter, AutoAnalysis.Marker.Data.StartVar, 
TestParameter, AutoAnalysis.Marker.Data.StartCondition, 
MetaData, TestRecord.EntryPoint, true
MetaData, TestRecord.RecordTime, 01/16/2024 15:24:22
MetaData, TestRecord.TestTarget, N-1-0.35-298K
MetaData, TestRecord.IterationIndex, 3
MetaData, TestRecord.Preservation, true
MetaData, TestRecord.Flag, 
MetaData, TestRecord.Remarks, 
MetaData, TestRecord.LinkKey, fdef569c-0c08-4d9d-9179-5f38b50f0b35
MetaData, TestRecord.Parameters, 
Dimension1, 381, 381
Dimension2, 7, 7
DataName, vg, id
DataValue, -0.5, 3.9000000000000005E-13
DataValue, -0.49, 1.0600000000000001E-11
DataValue, -0.48, 8.15E-12
DataValue, -0.47000000000000003, 1.18E-12
DataValue, -0.46, 1.301E-11
DataValue, -0.45, 8E-12
DataValue, -0.44, 2.95E-12
DataValue, -0.43, 1.57E-11
DataValue, -0.42, 6.4800000000000007E-12
DataValue, -0.41000000000000003, 6.8200000000000004E-12
DataValue, -0.4, 1.486E-11
DataValue, -0.39, 4.07E-12
DataValue, -0.38, 7.65E-12
DataValue, -0.37, 1.18E-11
DataValue, -0.36, -3.4E-13
DataValue, -0.35000000000000003, 7.92E-12
DataValue, -0.34, 1.0430000000000001E-11
DataValue, -0.33, -8.4000000000000006E-13
DataValue, -0.32, 8.35E-12
DataValue, -0.31, 9.77E-12
DataValue, -0.3, -2.7E-13
DataValue, -0.29, 7.61E-12
DataValue, -0.28, 1.3680000000000002E-11
DataValue, -0.27, 4.97E-12
DataValue, -0.26, 7.7E-12
DataValue, -0.25, 1.535E-11
DataValue, -0.24, 7.26E-12
DataValue, -0.23, 4.08E-12
DataValue, -0.22, 1.343E-11
DataValue, -0.21, 7.65E-12
DataValue, -0.2, 3.4E-13
DataValue, -0.19, 8.56E-12
DataValue, -0.18, 8.64E-12
DataValue, -0.17, -5.6E-13
DataValue, -0.16, 8.5000000000000013E-12
DataValue, -0.15, 1.0610000000000001E-11
DataValue, -0.14, 1.09E-12
DataValue, -0.13, 7.35E-12
DataValue, -0.12, 1.5520000000000002E-11
DataValue, -0.11, 7.44E-12
DataValue, -0.1, 6.1800000000000007E-12
DataValue, -0.09, 1.5520000000000002E-11
DataValue, -0.08, 8E-12
DataValue, -0.07, 4.78E-12
DataValue, -0.06, 1.4210000000000002E-11
DataValue, -0.05, 8.070000000000001E-12
DataValue, -0.04, 2.04E-12
DataValue, -0.03, 1.0400000000000001E-11
DataValue, -0.02, 8.93E-12
DataValue, -0.01, -3.2000000000000005E-13
DataValue, 0, 8.41E-12
DataValue, 0.01, 9.46E-12
DataValue, 0.02, 7.55E-12
DataValue, 0.03, 1.433E-11
DataValue, 0.04, 3.56E-12
DataValue, 0.05, 7.5700000000000011E-12
DataValue, 0.06, 1.3500000000000002E-11
DataValue, 0.07, 1.1900000000000002E-12
DataValue, 0.08, 7.7800000000000012E-12
DataValue, 0.09, 1.1630000000000001E-11
DataValue, 0.1, -5.6E-13
DataValue, 0.11, 8.070000000000001E-12
DataValue, 0.12, 1.029E-11
DataValue, 0.13, -6.9000000000000009E-13
DataValue, 0.14, 8.16E-12
DataValue, 0.15, 1.2070000000000002E-11
DataValue, 0.16, 2.6600000000000004E-12
DataValue, 0.17, 8.680000000000001E-12
DataValue, 0.18, 1.5670000000000002E-11
DataValue, 0.19, 8.25E-12
DataValue, 0.2, 9.1100000000000014E-12
DataValue, 0.21, 1.839E-11
DataValue, 0.22, 9.06E-12
DataValue, 0.23, 1.036E-11
DataValue, 0.24, 2.112E-11
DataValue, 0.25, 1.526E-11
DataValue, 0.26, 9.46E-12
DataValue, 0.27, 2.0910000000000002E-11
DataValue, 0.28, 2.7650000000000003E-11
DataValue, 0.29, 2.245E-11
DataValue, 0.3, 3.475E-11
DataValue, 0.31, 5.1370000000000006E-11
DataValue, 0.32, 5.346E-11
DataValue, 0.33, 6.247E-11
DataValue, 0.34, 9.2730000000000012E-11
DataValue, 0.35000000000000003, 1.0845000000000001E-10
DataValue, 0.36, 1.3073E-10
DataValue, 0.37, 1.7727000000000003E-10
DataValue, 0.38, 2.3054E-10
DataValue, 0.39, 2.8555E-10
DataValue, 0.4, 3.7724000000000003E-10
DataValue, 0.41000000000000003, 4.9148E-10
DataValue, 0.42, 6.2309000000000007E-10
DataValue, 0.43, 8.121100000000001E-10
DataValue, 0.44, 1.06205E-09
DataValue, 0.45, 1.4577E-09
DataValue, 0.46, 1.78E-09
DataValue, 0.47000000000000003, 2.3103E-09
DataValue, 0.48, 2.9835E-09
DataValue, 0.49, 3.9105E-09
DataValue, 0.5, 4.9936E-09
DataValue, 0.51, 6.4104E-09
DataValue, 0.52, 8.2784E-09
DataValue, 0.53, 1.05992E-08
DataValue, 0.54, 1.4336599999999998E-08
DataValue, 0.55, 1.82472E-08
DataValue, 0.56, 2.3235199999999997E-08
DataValue, 0.57000000000000006, 2.9393199999999998E-08
DataValue, 0.58, 3.72824E-08
DataValue, 0.59, 4.6397599999999995E-08
DataValue, 0.6, 5.8087199999999994E-08
DataValue, 0.61, 7.26308E-08
DataValue, 0.62, 8.9927199999999993E-08
DataValue, 0.63, 1.1054079999999999E-07
DataValue, 0.64, 1.3536E-07
DataValue, 0.65, 1.5508E-07
DataValue, 0.66, 1.9944E-07
DataValue, 0.67, 2.4076E-07
DataValue, 0.68, 2.7696E-07
DataValue, 0.69000000000000006, 3.4116E-07
DataValue, 0.70000000000000007, 4.038E-07
DataValue, 0.71, 4.7951999999999994E-07
DataValue, 0.72, 5.5704E-07
DataValue, 0.73, 6.51E-07
DataValue, 0.74, 7.6358E-07
DataValue, 0.75, 8.8401999999999994E-07
DataValue, 0.76, 1.02766E-06
DataValue, 0.77, 1.1842E-06
DataValue, 0.78, 1.3529000000000002E-06
DataValue, 0.79, 1.5723000000000002E-06
DataValue, 0.8, 1.7851000000000003E-06
DataValue, 0.81, 2.0258E-06
DataValue, 0.82000000000000006, 2.3066E-06
DataValue, 0.83000000000000007, 2.6301000000000004E-06
DataValue, 0.84, 2.9661000000000003E-06
DataValue, 0.85, 3.3277000000000003E-06
DataValue, 0.86, 3.7522000000000003E-06
DataValue, 0.87, 4.1919000000000005E-06
DataValue, 0.88, 4.6675000000000006E-06
DataValue, 0.89, 5.1993E-06
DataValue, 0.9, 5.7530000000000007E-06
DataValue, 0.91, 6.3892000000000006E-06
DataValue, 0.92, 7.0307E-06
DataValue, 0.93, 7.6968E-06
DataValue, 0.94000000000000006, 8.4515E-06
DataValue, 0.95000000000000007, 9.2245000000000012E-06
DataValue, 0.96, 1.0057E-05
DataValue, 0.97, 1.0954500000000002E-05
DataValue, 0.98, 1.183E-05
DataValue, 0.99, 1.2810000000000001E-05
DataValue, 1, 1.3864E-05
DataValue, 1.01, 1.4828000000000001E-05
DataValue, 1.02, 1.5926E-05
DataValue, 1.03, 1.7016E-05
DataValue, 1.04, 1.8346E-05
DataValue, 1.05, 1.9454E-05
DataValue, 1.06, 2.0700000000000002E-05
DataValue, 1.07, 2.1996E-05
DataValue, 1.08, 2.341E-05
DataValue, 1.09, 2.47E-05
DataValue, 1.1, 2.6166E-05
DataValue, 1.11, 2.7576E-05
DataValue, 1.12, 2.9042E-05
DataValue, 1.1300000000000001, 3.0564E-05
DataValue, 1.1400000000000001, 3.21E-05
DataValue, 1.1500000000000001, 3.3692E-05
DataValue, 1.16, 3.5302E-05
DataValue, 1.17, 3.6984000000000004E-05
DataValue, 1.18, 3.8628000000000004E-05
DataValue, 1.19, 4.0324E-05
DataValue, 1.2, 4.1996E-05
DataValue, 1.21, 4.3814000000000004E-05
DataValue, 1.22, 4.5504000000000003E-05
DataValue, 1.23, 4.7402000000000005E-05
DataValue, 1.24, 4.937E-05
DataValue, 1.25, 5.1142E-05
DataValue, 1.26, 5.3108E-05
DataValue, 1.27, 5.4936000000000004E-05
DataValue, 1.28, 5.6778000000000004E-05
DataValue, 1.29, 5.878E-05
DataValue, 1.3, 6.0924E-05
DataValue, 1.31, 6.2818000000000007E-05
DataValue, 1.32, 6.4828E-05
DataValue, 1.33, 6.6910000000000008E-05
DataValue, 1.34, 6.8902E-05
DataValue, 1.35, 7.0974E-05
DataValue, 1.36, 7.3062E-05
DataValue, 1.37, 7.5208E-05
DataValue, 1.3800000000000001, 7.7308E-05
DataValue, 1.3900000000000001, 7.9474E-05
DataValue, 1.4000000000000001, 8.1624E-05
DataValue, 1.41, 8.3832E-05
DataValue, 1.42, 8.5866000000000008E-05
DataValue, 1.43, 8.8126E-05
DataValue, 1.44, 9.0234E-05
DataValue, 1.45, 9.2546E-05
DataValue, 1.46, 9.4784E-05
DataValue, 1.47, 9.7218E-05
DataValue, 1.48, 9.9438E-05
DataValue, 1.49, 0.00010159600000000001
DataValue, 1.5, 0.00010383
DataValue, 1.51, 0.000106228
DataValue, 1.52, 0.000108452
DataValue, 1.53, 0.000110808
DataValue, 1.54, 0.00011311800000000001
DataValue, 1.55, 0.00011532
DataValue, 1.56, 0.00011768000000000001
DataValue, 1.57, 0.00012024
DataValue, 1.58, 0.0001226
DataValue, 1.59, 0.00012504
DataValue, 1.6, 0.00012744
DataValue, 1.61, 0.00012976
DataValue, 1.62, 0.00013216
DataValue, 1.6300000000000001, 0.00013446
DataValue, 1.6400000000000001, 0.00013708
DataValue, 1.6500000000000001, 0.00013962000000000002
DataValue, 1.6600000000000001, 0.00014198000000000002
DataValue, 1.67, 0.00014446
DataValue, 1.68, 0.00014694
DataValue, 1.69, 0.00014918
DataValue, 1.7, 0.00015174
DataValue, 1.71, 0.0001542
DataValue, 1.72, 0.00015670000000000001
DataValue, 1.73, 0.00015920000000000002
DataValue, 1.74, 0.00016178
DataValue, 1.75, 0.00016434000000000002
DataValue, 1.76, 0.00016678
DataValue, 1.77, 0.00016928
DataValue, 1.78, 0.00017166000000000002
DataValue, 1.79, 0.00017426
DataValue, 1.8, 0.00017678
DataValue, 1.81, 0.00017924
DataValue, 1.82, 0.00018202000000000002
DataValue, 1.83, 0.00018446
DataValue, 1.84, 0.00018712
DataValue, 1.85, 0.00018968
DataValue, 1.86, 0.00019202000000000002
DataValue, 1.87, 0.00019466
DataValue, 1.8800000000000001, 0.00019722
DataValue, 1.8900000000000001, 0.0001997
DataValue, 1.9000000000000001, 0.0002023
DataValue, 1.9100000000000001, 0.00020478
DataValue, 1.92, 0.00020738
DataValue, 1.93, 0.00021002000000000003
DataValue, 1.94, 0.00021262
DataValue, 1.95, 0.00021516000000000002
DataValue, 1.96, 0.00021784000000000002
DataValue, 1.97, 0.00022034000000000002
DataValue, 1.98, 0.00022290000000000002
DataValue, 1.99, 0.00022568000000000002
DataValue, 2, 0.00022812
DataValue, 2.0100000000000002, 0.00023080000000000003
DataValue, 2.02, 0.00023336
DataValue, 2.0300000000000002, 0.00023592
DataValue, 2.04, 0.00023850000000000002
DataValue, 2.05, 0.00024114
DataValue, 2.06, 0.00024366
DataValue, 2.07, 0.0002464
DataValue, 2.08, 0.00024890000000000003
DataValue, 2.09, 0.00025156
DataValue, 2.1, 0.00025422000000000004
DataValue, 2.11, 0.00025686000000000003
DataValue, 2.12, 0.00025946000000000004
DataValue, 2.13, 0.00026206
DataValue, 2.14, 0.00026468
DataValue, 2.15, 0.00026728
DataValue, 2.16, 0.0002699
DataValue, 2.17, 0.00027246000000000003
DataValue, 2.18, 0.00027518000000000003
DataValue, 2.19, 0.00027772
DataValue, 2.2, 0.00028048
DataValue, 2.21, 0.00028302000000000004
DataValue, 2.22, 0.00028566
DataValue, 2.23, 0.0002883
DataValue, 2.24, 0.00029092
DataValue, 2.25, 0.00029352
DataValue, 2.2600000000000002, 0.00029618
DataValue, 2.27, 0.00029882000000000004
DataValue, 2.2800000000000002, 0.00030156000000000003
DataValue, 2.29, 0.00030402
DataValue, 2.3000000000000003, 0.00030672
DataValue, 2.31, 0.00030936
DataValue, 2.32, 0.00031196
DataValue, 2.33, 0.00031458
DataValue, 2.34, 0.00031732
DataValue, 2.35, 0.00031992
DataValue, 2.36, 0.00032248000000000004
DataValue, 2.37, 0.00032498
DataValue, 2.38, 0.00032764000000000003
DataValue, 2.39, 0.00033042
DataValue, 2.4, 0.000333
DataValue, 2.41, 0.00033558000000000004
DataValue, 2.42, 0.00033824
DataValue, 2.43, 0.00034082000000000003
DataValue, 2.44, 0.00034348
DataValue, 2.45, 0.00034606000000000003
DataValue, 2.46, 0.00034866000000000004
DataValue, 2.47, 0.00035144
DataValue, 2.48, 0.00035388000000000005
DataValue, 2.49, 0.00035656
DataValue, 2.5, 0.00035916
DataValue, 2.5100000000000002, 0.0003618
DataValue, 2.52, 0.0003644
DataValue, 2.5300000000000002, 0.00036690000000000003
DataValue, 2.54, 0.00036978
DataValue, 2.5500000000000003, 0.00037236
DataValue, 2.56, 0.000375
DataValue, 2.57, 0.0003775
DataValue, 2.58, 0.00038016000000000005
DataValue, 2.59, 0.00038288000000000005
DataValue, 2.6, 0.00038552000000000004
DataValue, 2.61, 0.00038806
DataValue, 2.62, 0.00039076000000000003
DataValue, 2.63, 0.0003933
DataValue, 2.64, 0.00039596000000000005
DataValue, 2.65, 0.00039862000000000003
DataValue, 2.66, 0.00040116
DataValue, 2.67, 0.0004038
DataValue, 2.68, 0.0004065
DataValue, 2.69, 0.00040902
DataValue, 2.7, 0.00041160000000000003
DataValue, 2.71, 0.00041430000000000004
DataValue, 2.72, 0.00041686
DataValue, 2.73, 0.00041944000000000004
DataValue, 2.74, 0.00042202
DataValue, 2.75, 0.00042466000000000004
DataValue, 2.7600000000000002, 0.00042730000000000003
DataValue, 2.77, 0.00042990000000000004
DataValue, 2.7800000000000002, 0.00043240000000000005
DataValue, 2.79, 0.00043498
DataValue, 2.8000000000000003, 0.00043762
DataValue, 2.81, 0.00044018000000000003
DataValue, 2.82, 0.00044288000000000004
DataValue, 2.83, 0.00044542000000000003
DataValue, 2.84, 0.00044790000000000005
DataValue, 2.85, 0.0004506
DataValue, 2.86, 0.0004532
DataValue, 2.87, 0.00045578000000000003
DataValue, 2.88, 0.00045828000000000004
DataValue, 2.89, 0.00046086
DataValue, 2.9, 0.00046354
DataValue, 2.91, 0.00046606
DataValue, 2.92, 0.00046856
DataValue, 2.93, 0.00047134000000000005
DataValue, 2.94, 0.00047388000000000004
DataValue, 2.95, 0.00047650000000000004
DataValue, 2.96, 0.00047900000000000004
DataValue, 2.97, 0.00048166
DataValue, 2.98, 0.00048414000000000004
DataValue, 2.99, 0.00048672000000000006
DataValue, 3, 0.00048938
DataValue, 3.0100000000000002, 0.000492
DataValue, 3.02, 0.0004946
DataValue, 3.0300000000000002, 0.00049704
DataValue, 3.04, 0.00049970000000000006
DataValue, 3.0500000000000003, 0.0005023
DataValue, 3.06, 0.00050494000000000005
DataValue, 3.0700000000000003, 0.00050744000000000006
DataValue, 3.08, 0.00050994000000000007
DataValue, 3.09, 0.00051246000000000006
DataValue, 3.1, 0.00051498000000000006
DataValue, 3.11, 0.00051758
DataValue, 3.12, 0.00052006
DataValue, 3.13, 0.00052270000000000007
DataValue, 3.14, 0.00052526
DataValue, 3.15, 0.00052766
DataValue, 3.16, 0.00053028
DataValue, 3.17, 0.0005328
DataValue, 3.18, 0.0005352
DataValue, 3.19, 0.00053794
DataValue, 3.2, 0.00054050000000000007
DataValue, 3.21, 0.00054294
DataValue, 3.22, 0.00054542
DataValue, 3.23, 0.00054796
DataValue, 3.24, 0.00055054000000000008
DataValue, 3.25, 0.00055310000000000005
DataValue, 3.2600000000000002, 0.00055568
DataValue, 3.27, 0.00055830000000000007
DataValue, 3.2800000000000002, 0.00056084000000000006
DataValue, 3.29, 0.0005634
DataValue, 3.3000000000000003, 0.00056584000000000007
DataValue, -0.5, 1.612E-11
DataValue, -0.49, 4.06E-12
DataValue, -0.48, 8.52E-12
DataValue, -0.47000000000000003, 9.390000000000001E-12
DataValue, -0.46, 1.6300000000000001E-12
DataValue, -0.45, 1.611E-11
DataValue, -0.44, 7.2400000000000007E-12
DataValue, -0.43, 8.01E-12
DataValue, -0.42, 1.107E-11
DataValue, -0.41000000000000003, 3.1000000000000004E-13
DataValue, -0.4, 1.3870000000000001E-11
DataValue, -0.39, 7.94E-12
DataValue, -0.38, 7.7E-12
DataValue, -0.37, 1.2980000000000002E-11
DataValue, -0.36, 2.7E-13
DataValue, -0.35000000000000003, 1.12E-11
