
SetupTitle, NMOS-isub-vg-vds@vbs=0
PrimitiveTest, I/V Sweep
TestParameter, Context.MainFrame, B1500A
TestParameter, Channel.UnitType, SMU, SMU, SMU, SMU
TestParameter, Channel.Unit, SMU2:HR, SMU1:HR, SMU3:HR, SMU4:HR
TestParameter, Channel.IName, ib, is, ig, id
TestParameter, Channel.VName, vb, vs, vg, vd
TestParameter, Channel.Mode, V, COMMON, V, V
TestParameter, Channel.Func, CONST, CONST, VAR1, VAR2
TestParameter, Channel.Index, 
TestParameter, Channel.Time, 
TestParameter, Measurement.Port.Unit, SMU2:HR, SMU1:HR, SMU3:HR, SMU4:HR
TestParameter, Measurement.Port.SeriesResistor, NONE, NONE, NONE, NONE
TestParameter, Measurement.Port.Filter, ON, ON, ON, ON
TestParameter, Measurement.Port.OutputVoltageComparison, 0, 0, 0, 0
TestParameter, Measurement.Primary.Locus, Single
TestParameter, Measurement.Primary.Scale, LINEAR
TestParameter, Measurement.Primary.Start, 0
TestParameter, Measurement.Primary.Stop, 3.3000000000000003
TestParameter, Measurement.Primary.Step, 0.01
TestParameter, Measurement.Primary.Compliance, 0.001
TestParameter, Measurement.Primary.PowerCompliance, 0
TestParameter, Measurement.Aborting.Condition, SKIP AT ANY ABNORMAL
TestParameter, Measurement.PostOutput.Value, START
TestParameter, Measurement.PostOutput.Retention, OFF
TestParameter, Measurement.Secondary.Start, 0.3
TestParameter, Measurement.Secondary.Count, 6
TestParameter, Measurement.Secondary.Step, 0.6
TestParameter, Measurement.Secondary.Compliance, 0.1
TestParameter, Measurement.Secondary.PowerCompliance, 0
TestParameter, Measurement.Bias.Source, 0, 0, 0, 0.3
TestParameter, Measurement.Bias.Compliance, 0.1, 0.1, 0.001, 0.1
TestParameter, Measurement.Monitor.Unit, SMU2:HR, SMU1:HR, SMU3:HR, SMU4:HR
TestParameter, Measurement.Monitor.Adc, HR ADC, HR ADC, HR ADC, HR ADC
TestParameter, Measurement.Monitor.Measurement, Compliance Side, Compliance Side, Compliance Side, Compliance Side
TestParameter, Measurement.Monitor.RangingMode, LIMITED, LIMITED, LIMITED, LIMITED
TestParameter, Measurement.Monitor.RangeBoundary, 1nA, 1nA, 1nA, 1nA
TestParameter, Measurement.Monitor.RangeRating, BY FULL RANGE, BY FULL RANGE, BY FULL RANGE, BY FULL RANGE
TestParameter, Measurement.Monitor.RangeRatingCoeff, 50, 50, 50, 50
TestParameter, Measurement.Timing.Hold, 0
TestParameter, Measurement.Timing.Delay, 0
TestParameter, Measurement.Adc.HighSpeed.Mode, AUTO
TestParameter, Measurement.Adc.HighSpeed.Coeff, 1
TestParameter, Measurement.Adc.HighResolution.AutoZero, OFF
TestParameter, Measurement.Adc.HighResolution.Mode, AUTO
TestParameter, Measurement.Adc.HighResolution.Coeff, 6
TestParameter, Measurement.WaitTime.Source.Coeff, 1
TestParameter, Measurement.WaitTime.Source.Offset, 0
TestParameter, Measurement.WaitTime.Monitor.Coeff, 1
TestParameter, Measurement.WaitTime.Monitor.Offset, 0
TestParameter, Output.Graph.Enabled, true
TestParameter, Output.Graph.AutoScaling, false
TestParameter, Output.Graph.XAxis.Data, vg
TestParameter, Output.Graph.XAxis.Scale, Linear
TestParameter, Output.Graph.XAxis.Left, 0
TestParameter, Output.Graph.XAxis.Right, 0.9
TestParameter, Output.Graph.XAxis.RunTimeAutoScale, true
TestParameter, Output.Graph.YAxis.Data, ib
TestParameter, Output.Graph.YAxis.Scale, Linear
TestParameter, Output.Graph.YAxis.Bottom, -0.1
TestParameter, Output.Graph.YAxis.Top, 0.1
TestParameter, Output.Graph.YAxis.Group, 
TestParameter, Output.Graph.YAxis.RunTimeAutoScale, true
TestParameter, AutoAnalysis.Interpolation, false
TestParameter, AutoAnalysis.Var2StepCount, 1
TestParameter, AutoAnalysis.Var2StepScript, 
TestParameter, AutoAnalysis.Line1.Enabled, false
TestParameter, AutoAnalysis.Line1.Type, 1
TestParameter, AutoAnalysis.Line1.Fix, True
TestParameter, AutoAnalysis.Line1.YAxis, 0
TestParameter, AutoAnalysis.Line1.Point1.Type, 0
TestParameter, AutoAnalysis.Line1.Point1.XY.X, 
TestParameter, AutoAnalysis.Line1.Point1.XY.Y, 
TestParameter, AutoAnalysis.Line1.Point1.Data.Var, 
TestParameter, AutoAnalysis.Line1.Point1.Data.Condition, 
TestParameter, AutoAnalysis.Line1.Point1.Data.Start, false
TestParameter, AutoAnalysis.Line1.Point1.Data.StartVar, 
TestParameter, AutoAnalysis.Line1.Point1.Data.StartCondition, 
TestParameter, AutoAnalysis.Line1.Point2.Type, 0
TestParameter, AutoAnalysis.Line1.Point2.XY.X, 
TestParameter, AutoAnalysis.Line1.Point2.XY.Y, 
TestParameter, AutoAnalysis.Line1.Point2.Data.Var, 
TestParameter, AutoAnalysis.Line1.Point2.Data.Condition, 
TestParameter, AutoAnalysis.Line1.Point2.Data.Start, false
TestParameter, AutoAnalysis.Line1.Point2.Data.StartVar, 
TestParameter, AutoAnalysis.Line1.Point2.Data.StartCondition, 
TestParameter, AutoAnalysis.Line1.GradientExpr, 0
TestParameter, AutoAnalysis.Line2.Enabled, false
TestParameter, AutoAnalysis.Line2.Type, 1
TestParameter, AutoAnalysis.Line2.Fix, True
TestParameter, AutoAnalysis.Line2.YAxis, 0
TestParameter, AutoAnalysis.Line2.Point1.Type, 0
TestParameter, AutoAnalysis.Line2.Point1.XY.X, 
TestParameter, AutoAnalysis.Line2.Point1.XY.Y, 
TestParameter, AutoAnalysis.Line2.Point1.Data.Var, 
TestParameter, AutoAnalysis.Line2.Point1.Data.Condition, 
TestParameter, AutoAnalysis.Line2.Point1.Data.Start, false
TestParameter, AutoAnalysis.Line2.Point1.Data.StartVar, 
TestParameter, AutoAnalysis.Line2.Point1.Data.StartCondition, 
TestParameter, AutoAnalysis.Line2.Point2.Type, 0
TestParameter, AutoAnalysis.Line2.Point2.XY.X, 
TestParameter, AutoAnalysis.Line2.Point2.XY.Y, 
TestParameter, AutoAnalysis.Line2.Point2.Data.Var, 
TestParameter, AutoAnalysis.Line2.Point2.Data.Condition, 
TestParameter, AutoAnalysis.Line2.Point2.Data.Start, false
TestParameter, AutoAnalysis.Line2.Point2.Data.StartVar, 
TestParameter, AutoAnalysis.Line2.Point2.Data.StartCondition, 
TestParameter, AutoAnalysis.Line2.GradientExpr, 0
TestParameter, AutoAnalysis.Marker.Enabled, false
TestParameter, AutoAnalysis.Marker.Data.Var, 
TestParameter, AutoAnalysis.Marker.Data.Condition, 
TestParameter, AutoAnalysis.Marker.Data.Start, false
TestParameter, AutoAnalysis.Marker.Data.StartVar, 
TestParameter, AutoAnalysis.Marker.Data.StartCondition, 
MetaData, TestRecord.EntryPoint, true
MetaData, TestRecord.RecordTime, 01/16/2024 15:25:36
MetaData, TestRecord.TestTarget, N-1-0.35-298K
MetaData, TestRecord.IterationIndex, 3
MetaData, TestRecord.Preservation, true
MetaData, TestRecord.Flag, 
MetaData, TestRecord.Remarks, 
MetaData, TestRecord.LinkKey, b171ebea-c98d-4935-a2f6-4d79bc858984
MetaData, TestRecord.Parameters, 
Dimension1, 331, 331
Dimension2, 6, 6
DataName, vg, ib
DataValue, 0, -1.7850000000000002E-11
DataValue, 0.01, -2.174E-11
DataValue, 0.02, -1.719E-11
DataValue, 0.03, -2.3740000000000003E-11
DataValue, 0.04, -2.185E-11
DataValue, 0.05, -1.7490000000000002E-11
DataValue, 0.06, -2.385E-11
DataValue, 0.07, -1.974E-11
DataValue, 0.08, -1.954E-11
DataValue, 0.09, -2.2970000000000002E-11
DataValue, 0.1, -2.123E-11
DataValue, 0.11, -1.781E-11
DataValue, 0.12, -2.2110000000000002E-11
DataValue, 0.13, -2.252E-11
DataValue, 0.14, -1.7960000000000002E-11
DataValue, 0.15, -1.9020000000000003E-11
DataValue, 0.16, -2.3010000000000003E-11
DataValue, 0.17, -1.757E-11
DataValue, 0.18, -2.0330000000000002E-11
DataValue, 0.19, -2.5830000000000003E-11
DataValue, 0.2, -1.6140000000000002E-11
DataValue, 0.21, -2.123E-11
DataValue, 0.22, -2.369E-11
DataValue, 0.23, -1.5850000000000002E-11
DataValue, 0.24, -2.032E-11
DataValue, 0.25, -2.1090000000000002E-11
DataValue, 0.26, -1.792E-11
DataValue, 0.27, -2.0910000000000002E-11
DataValue, 0.28, -2.214E-11
DataValue, 0.29, -1.7140000000000002E-11
DataValue, 0.3, -1.996E-11
DataValue, 0.31, -2.158E-11
DataValue, 0.32, -1.7310000000000003E-11
DataValue, 0.33, -2.3040000000000002E-11
DataValue, 0.34, -2.1860000000000003E-11
DataValue, 0.35000000000000003, -1.766E-11
DataValue, 0.36, -2.4790000000000002E-11
DataValue, 0.37, -2.0180000000000002E-11
DataValue, 0.38, -2.028E-11
DataValue, 0.39, -2.467E-11
DataValue, 0.4, -2.209E-11
DataValue, 0.41000000000000003, -2.112E-11
DataValue, 0.42, -2.309E-11
DataValue, 0.43, -2.285E-11
DataValue, 0.44, -2.2310000000000002E-11
DataValue, 0.45, -2.629E-11
DataValue, 0.46, -2.163E-11
DataValue, 0.47000000000000003, -2.0370000000000003E-11
DataValue, 0.48, -2.5560000000000003E-11
DataValue, 0.49, -1.877E-11
DataValue, 0.5, -2.2480000000000003E-11
DataValue, 0.51, -2.385E-11
DataValue, 0.52, -1.8110000000000003E-11
DataValue, 0.53, -2.1820000000000002E-11
DataValue, 0.54, -2.192E-11
DataValue, 0.55, -1.835E-11
DataValue, 0.56, -2.181E-11
DataValue, 0.57000000000000006, -2.291E-11
DataValue, 0.58, -1.855E-11
DataValue, 0.59, -1.936E-11
DataValue, 0.6, -2.2990000000000003E-11
DataValue, 0.61, -1.7890000000000002E-11
DataValue, 0.62, -2.185E-11
DataValue, 0.63, -2.2930000000000002E-11
DataValue, 0.64, -1.95E-11
DataValue, 0.65, -2.4280000000000002E-11
DataValue, 0.66, -2.096E-11
DataValue, 0.67, -2.1840000000000002E-11
DataValue, 0.68, -2.5430000000000003E-11
DataValue, 0.69000000000000006, -2.2210000000000003E-11
DataValue, 0.70000000000000007, -2.2280000000000003E-11
DataValue, 0.71, -2.3630000000000003E-11
DataValue, 0.72, -2.1510000000000002E-11
DataValue, 0.73, -2.1370000000000003E-11
DataValue, 0.74, -2.5920000000000003E-11
DataValue, 0.75, -2.1260000000000003E-11
DataValue, 0.76, -2.1570000000000003E-11
DataValue, 0.77, -2.4540000000000003E-11
DataValue, 0.78, -2.225E-11
DataValue, 0.79, -2.165E-11
DataValue, 0.8, -2.6160000000000003E-11
DataValue, 0.81, -2.1390000000000003E-11
DataValue, 0.82000000000000006, -2.2460000000000002E-11
DataValue, 0.83000000000000007, -2.558E-11
DataValue, 0.84, -2.2110000000000002E-11
DataValue, 0.85, -2.0350000000000003E-11
DataValue, 0.86, -2.283E-11
DataValue, 0.87, -2.2550000000000002E-11
DataValue, 0.88, -1.866E-11
DataValue, 0.89, -1.9090000000000002E-11
DataValue, 0.9, -2.2310000000000002E-11
DataValue, 0.91, -1.981E-11
DataValue, 0.92, -2.1260000000000003E-11
DataValue, 0.93, -2.5560000000000003E-11
DataValue, 0.94000000000000006, -2.065E-11
DataValue, 0.95000000000000007, -2.127E-11
DataValue, 0.96, -2.6520000000000003E-11
DataValue, 0.97, -2.1600000000000002E-11
DataValue, 0.98, -2.167E-11
DataValue, 0.99, -2.4450000000000003E-11
DataValue, 1, -2.138E-11
DataValue, 1.01, -2.019E-11
DataValue, 1.02, -2.294E-11
DataValue, 1.03, -2.2820000000000002E-11
DataValue, 1.04, -1.968E-11
DataValue, 1.05, -2.307E-11
DataValue, 1.06, -2.3260000000000002E-11
DataValue, 1.07, -1.899E-11
DataValue, 1.08, -2.058E-11
DataValue, 1.09, -2.524E-11
DataValue, 1.1, -2.028E-11
DataValue, 1.11, -2.1000000000000002E-11
DataValue, 1.12, -2.5160000000000003E-11
DataValue, 1.1300000000000001, -2.034E-11
DataValue, 1.1400000000000001, -2.3150000000000002E-11
DataValue, 1.1500000000000001, -2.5970000000000002E-11
DataValue, 1.16, -2.2190000000000003E-11
DataValue, 1.17, -2.1820000000000002E-11
DataValue, 1.18, -2.3840000000000002E-11
DataValue, 1.19, -2.3500000000000003E-11
DataValue, 1.2, -1.8620000000000003E-11
DataValue, 1.21, -2.132E-11
DataValue, 1.22, -2.34E-11
DataValue, 1.23, -1.7270000000000002E-11
DataValue, 1.24, -2.121E-11
DataValue, 1.25, -2.4940000000000003E-11
DataValue, 1.26, -1.7620000000000003E-11
DataValue, 1.27, -2.2110000000000002E-11
DataValue, 1.28, -2.5470000000000004E-11
DataValue, 1.29, -1.996E-11
DataValue, 1.3, -2.2730000000000002E-11
DataValue, 1.31, -2.5150000000000002E-11
DataValue, 1.32, -2.129E-11
DataValue, 1.33, -1.9710000000000002E-11
DataValue, 1.34, -2.376E-11
DataValue, 1.35, -2.334E-11
DataValue, 1.36, -1.739E-11
DataValue, 1.37, -2.0640000000000003E-11
DataValue, 1.3800000000000001, -2.429E-11
DataValue, 1.3900000000000001, -1.777E-11
DataValue, 1.4000000000000001, -2.045E-11
DataValue, 1.41, -2.351E-11
DataValue, 1.42, -1.906E-11
DataValue, 1.43, -2.252E-11
DataValue, 1.44, -2.5320000000000003E-11
DataValue, 1.45, -1.9860000000000003E-11
DataValue, 1.46, -2.2190000000000003E-11
DataValue, 1.47, -2.609E-11
DataValue, 1.48, -2.2100000000000003E-11
DataValue, 1.49, -2.2040000000000002E-11
DataValue, 1.5, -2.3940000000000003E-11
DataValue, 1.51, -2.3E-11
DataValue, 1.52, -1.817E-11
DataValue, 1.53, -1.9600000000000002E-11
DataValue, 1.54, -2.2790000000000003E-11
DataValue, 1.55, -1.916E-11
DataValue, 1.56, -2.0860000000000003E-11
DataValue, 1.57, -2.413E-11
DataValue, 1.58, -1.879E-11
DataValue, 1.59, -2.209E-11
DataValue, 1.6, -2.6790000000000002E-11
DataValue, 1.61, -1.839E-11
DataValue, 1.62, -2.2190000000000003E-11
DataValue, 1.6300000000000001, -2.5760000000000003E-11
DataValue, 1.6400000000000001, -2.256E-11
DataValue, 1.6500000000000001, -2.1820000000000002E-11
DataValue, 1.6600000000000001, -2.263E-11
DataValue, 1.67, -2.2620000000000002E-11
DataValue, 1.68, -1.9070000000000002E-11
DataValue, 1.69, -1.9220000000000003E-11
DataValue, 1.7, -2.633E-11
DataValue, 1.71, -2.3790000000000003E-11
DataValue, 1.72, -2.0090000000000002E-11
DataValue, 1.73, -2.5460000000000002E-11
DataValue, 1.74, -2.1190000000000003E-11
DataValue, 1.75, -2.318E-11
DataValue, 1.76, -2.66E-11
DataValue, 1.77, -2.1370000000000003E-11
DataValue, 1.78, -2.2370000000000003E-11
DataValue, 1.79, -2.427E-11
DataValue, 1.8, -2.065E-11
DataValue, 1.81, -2.24E-11
DataValue, 1.82, -2.5900000000000002E-11
DataValue, 1.83, -2.0200000000000002E-11
DataValue, 1.84, -2.1770000000000003E-11
DataValue, 1.85, -2.4940000000000003E-11
DataValue, 1.86, -1.704E-11
DataValue, 1.87, -2.331E-11
DataValue, 1.8800000000000001, -2.5570000000000002E-11
DataValue, 1.8900000000000001, -1.7850000000000002E-11
DataValue, 1.9000000000000001, -2.2370000000000003E-11
DataValue, 1.9100000000000001, -2.4260000000000002E-11
DataValue, 1.92, -1.723E-11
DataValue, 1.93, -2.2480000000000003E-11
DataValue, 1.94, -2.502E-11
DataValue, 1.95, -1.908E-11
DataValue, 1.96, -2.3010000000000003E-11
DataValue, 1.97, -2.6230000000000003E-11
DataValue, 1.98, -2.336E-11
DataValue, 1.99, -2.0310000000000002E-11
DataValue, 2, -2.595E-11
DataValue, 2.0100000000000002, -2.349E-11
DataValue, 2.02, -1.7000000000000003E-11
DataValue, 2.0300000000000002, -2.2210000000000003E-11
DataValue, 2.04, -2.3570000000000002E-11
DataValue, 2.05, -1.7450000000000002E-11
DataValue, 2.06, -2.192E-11
DataValue, 2.07, -2.207E-11
DataValue, 2.08, -1.9730000000000003E-11
DataValue, 2.09, -2.2680000000000003E-11
DataValue, 2.1, -2.5120000000000003E-11
DataValue, 2.11, -2.291E-11
DataValue, 2.12, -2.2330000000000002E-11
DataValue, 2.13, -2.478E-11
DataValue, 2.14, -2.2840000000000002E-11
DataValue, 2.15, -1.9600000000000002E-11
DataValue, 2.16, -2.2590000000000003E-11
DataValue, 2.17, -2.274E-11
DataValue, 2.18, -1.675E-11
DataValue, 2.19, -2.185E-11
DataValue, 2.2, -2.6070000000000003E-11
DataValue, 2.21, -1.8690000000000002E-11
DataValue, 2.22, -2.249E-11
DataValue, 2.23, -2.629E-11
DataValue, 2.24, -2.0750000000000003E-11
DataValue, 2.25, -2.3010000000000003E-11
DataValue, 2.2600000000000002, -2.4830000000000003E-11
DataValue, 2.27, -2.342E-11
DataValue, 2.2800000000000002, -2.291E-11
DataValue, 2.29, -2.518E-11
DataValue, 2.3000000000000003, -2.309E-11
DataValue, 2.31, -1.87E-11
DataValue, 2.32, -2.551E-11
DataValue, 2.33, -2.476E-11
DataValue, 2.34, -2.021E-11
DataValue, 2.35, -2.305E-11
DataValue, 2.36, -2.0730000000000002E-11
DataValue, 2.37, -2.62E-11
DataValue, 2.38, -2.331E-11
DataValue, 2.39, -2.24E-11
DataValue, 2.4, -2.5630000000000003E-11
DataValue, 2.41, -2.351E-11
DataValue, 2.42, -2.1730000000000002E-11
DataValue, 2.43, -2.6410000000000002E-11
DataValue, 2.44, -2.3570000000000002E-11
DataValue, 2.45, -2.167E-11
DataValue, 2.46, -2.664E-11
DataValue, 2.47, -2.136E-11
DataValue, 2.48, -2.3500000000000003E-11
DataValue, 2.49, -2.66E-11
DataValue, 2.5, -1.837E-11
DataValue, 2.5100000000000002, -2.2970000000000002E-11
DataValue, 2.52, -2.5460000000000002E-11
DataValue, 2.5300000000000002, -1.9200000000000002E-11
DataValue, 2.54, -2.118E-11
DataValue, 2.5500000000000003, -2.3370000000000002E-11
DataValue, 2.56, -1.9470000000000002E-11
DataValue, 2.57, -2.4120000000000003E-11
DataValue, 2.58, -2.3280000000000003E-11
DataValue, 2.59, -1.976E-11
DataValue, 2.6, -2.6250000000000003E-11
DataValue, 2.61, -2.3990000000000003E-11
DataValue, 2.62, -2.145E-11
DataValue, 2.63, -2.6270000000000003E-11
DataValue, 2.64, -2.2610000000000003E-11
DataValue, 2.65, -2.327E-11
DataValue, 2.66, -2.7200000000000004E-11
DataValue, 2.67, -2.24E-11
DataValue, 2.68, -2.329E-11
DataValue, 2.69, -2.5500000000000002E-11
DataValue, 2.7, -2.1200000000000002E-11
DataValue, 2.71, -2.365E-11
DataValue, 2.72, -2.704E-11
DataValue, 2.73, -2.067E-11
DataValue, 2.74, -2.254E-11
DataValue, 2.75, -2.7280000000000002E-11
DataValue, 2.7600000000000002, -1.7200000000000003E-11
DataValue, 2.77, -2.2460000000000002E-11
DataValue, 2.7800000000000002, -2.642E-11
DataValue, 2.79, -1.848E-11
DataValue, 2.8000000000000003, -2.3440000000000002E-11
DataValue, 2.81, -2.5170000000000002E-11
DataValue, 2.82, -1.9040000000000003E-11
DataValue, 2.83, -2.232E-11
DataValue, 2.84, -2.329E-11
DataValue, 2.85, -1.8420000000000003E-11
DataValue, 2.86, -2.2680000000000003E-11
DataValue, 2.87, -2.4610000000000003E-11
DataValue, 2.88, -2.016E-11
DataValue, 2.89, -2.458E-11
DataValue, 2.9, -2.2920000000000003E-11
DataValue, 2.91, -1.781E-11
DataValue, 2.92, -2.4520000000000003E-11
DataValue, 2.93, -2.6430000000000003E-11
DataValue, 2.94, -1.9150000000000003E-11
DataValue, 2.95, -2.3520000000000003E-11
DataValue, 2.96, -2.551E-11
DataValue, 2.97, -2.167E-11
DataValue, 2.98, -2.5010000000000003E-11
DataValue, 2.99, -2.6320000000000003E-11
DataValue, 3, -2.398E-11
DataValue, 3.0100000000000002, -2.311E-11
DataValue, 3.02, -2.644E-11
DataValue, 3.0300000000000002, -2.4460000000000002E-11
DataValue, 3.04, -1.965E-11
DataValue, 3.0500000000000003, -2.2810000000000003E-11
DataValue, 3.06, -2.5390000000000002E-11
DataValue, 3.0700000000000003, -1.8620000000000003E-11
DataValue, 3.08, -2.3930000000000002E-11
DataValue, 3.09, -2.382E-11
DataValue, 3.1, -1.8200000000000002E-11
DataValue, 3.11, -2.5050000000000003E-11
DataValue, 3.12, -2.8110000000000004E-11
DataValue, 3.13, -2.218E-11
DataValue, 3.14, -2.378E-11
DataValue, 3.15, -2.6470000000000003E-11
DataValue, 3.16, -2.4900000000000003E-11
DataValue, 3.17, -2.3440000000000002E-11
DataValue, 3.18, -2.651E-11
DataValue, 3.19, -2.4810000000000003E-11
DataValue, 3.2, -2.054E-11
DataValue, 3.21, -2.591E-11
DataValue, 3.22, -2.4440000000000002E-11
DataValue, 3.23, -1.794E-11
DataValue, 3.24, -2.4150000000000002E-11
DataValue, 3.25, -2.4260000000000002E-11
DataValue, 3.2600000000000002, -1.99E-11
DataValue, 3.27, -2.436E-11
DataValue, 3.2800000000000002, -2.456E-11
DataValue, 3.29, -2.112E-11
DataValue, 3.3000000000000003, -2.4140000000000003E-11
DataValue, 0, -2.014E-11
DataValue, 0.01, -1.517E-11
DataValue, 0.02, -1.968E-11
DataValue, 0.03, -1.945E-11
DataValue, 0.04, -1.761E-11
DataValue, 0.05, -2.336E-11
DataValue, 0.06, -1.6140000000000002E-11
DataValue, 0.07, -1.81E-11
DataValue, 0.08, -1.996E-11
DataValue, 0.09, -1.498E-11
DataValue, 0.1, -2.3170000000000002E-11
DataValue, 0.11, -1.615E-11
DataValue, 0.12, -1.934E-11
DataValue, 0.13, -1.901E-11
DataValue, 0.14, -1.5230000000000002E-11
DataValue, 0.15, -2.2020000000000002E-11
DataValue, 0.16, -1.9040000000000003E-11
DataValue, 0.17, -2.0000000000000002E-11
DataValue, 0.18, -2.1840000000000002E-11
DataValue, 0.19, -1.5320000000000002E-11
DataValue, 0.2, -2.105E-11
DataValue, 0.21, -1.99E-11
DataValue, 0.22, -1.586E-11
DataValue, 0.23, -2.2390000000000003E-11
DataValue, 0.24, -1.7780000000000002E-11
DataValue, 0.25, -1.9070000000000002E-11
DataValue, 0.26, -2.265E-11
DataValue, 0.27, -1.626E-11
DataValue, 0.28, -1.968E-11
DataValue, 0.29, -2.0570000000000003E-11
DataValue, 0.3, -1.458E-11
DataValue, 0.31, -1.7490000000000002E-11
DataValue, 0.32, -2.0020000000000002E-11
DataValue, 0.33, -1.73E-11
DataValue, 0.34, -2.4260000000000002E-11
DataValue, 0.35000000000000003, -1.8800000000000002E-11
DataValue, 0.36, -1.9130000000000003E-11
DataValue, 0.37, -2.1900000000000003E-11
DataValue, 0.38, -1.541E-11
DataValue, 0.39, -2.0530000000000002E-11
DataValue, 0.4, -1.8910000000000002E-11
