
SetupTitle, NMOS-id-vg-vbs@vds=0.05
PrimitiveTest, I/V Sweep
TestParameter, Context.MainFrame, B1500A
TestParameter, Channel.UnitType, SMU, SMU, SMU, SMU
TestParameter, Channel.Unit, SMU2:HR, SMU1:HR, SMU3:HR, SMU4:HR
TestParameter, Channel.IName, ib, is, ig, id
TestParameter, Channel.VName, vb, vs, vg, vd
TestParameter, Channel.Mode, V, COMMON, V, V
TestParameter, Channel.Func, VAR2, CONST, VAR1, CONST
TestParameter, Channel.Index, 
TestParameter, Channel.Time, 
TestParameter, Measurement.Port.Unit, SMU2:HR, SMU1:HR, SMU3:HR, SMU4:HR
TestParameter, Measurement.Port.SeriesResistor, NONE, NONE, NONE, NONE
TestParameter, Measurement.Port.Filter, ON, ON, ON, ON
TestParameter, Measurement.Port.OutputVoltageComparison, 0, 0, 0, 0
TestParameter, Measurement.Primary.Locus, Single
TestParameter, Measurement.Primary.Scale, LINEAR
TestParameter, Measurement.Primary.Start, -0.5
TestParameter, Measurement.Primary.Stop, 3.3000000000000003
TestParameter, Measurement.Primary.Step, 0.01
TestParameter, Measurement.Primary.Compliance, 0.001
TestParameter, Measurement.Primary.PowerCompliance, 0
TestParameter, Measurement.Aborting.Condition, SKIP AT ANY ABNORMAL
TestParameter, Measurement.PostOutput.Value, START
TestParameter, Measurement.PostOutput.Retention, OFF
TestParameter, Measurement.Secondary.Start, 0
TestParameter, Measurement.Secondary.Count, 7
TestParameter, Measurement.Secondary.Step, -0.6
TestParameter, Measurement.Secondary.Compliance, 0.1
TestParameter, Measurement.Secondary.PowerCompliance, 0
TestParameter, Measurement.Bias.Source, 0, 0, -0.5, 0.05
TestParameter, Measurement.Bias.Compliance, 0.1, 0.1, 0.001, 0.1
TestParameter, Measurement.Monitor.Unit, SMU2:HR, SMU1:HR, SMU3:HR, SMU4:HR
TestParameter, Measurement.Monitor.Adc, HR ADC, HR ADC, HR ADC, HR ADC
TestParameter, Measurement.Monitor.Measurement, Compliance Side, Compliance Side, Compliance Side, Compliance Side
TestParameter, Measurement.Monitor.RangingMode, LIMITED, LIMITED, LIMITED, LIMITED
TestParameter, Measurement.Monitor.RangeBoundary, 1nA, 1nA, 1nA, 1nA
TestParameter, Measurement.Monitor.RangeRating, BY FULL RANGE, BY FULL RANGE, BY FULL RANGE, BY FULL RANGE
TestParameter, Measurement.Monitor.RangeRatingCoeff, 50, 50, 50, 50
TestParameter, Measurement.Timing.Hold, 0
TestParameter, Measurement.Timing.Delay, 0
TestParameter, Measurement.Adc.HighSpeed.Mode, AUTO
TestParameter, Measurement.Adc.HighSpeed.Coeff, 1
TestParameter, Measurement.Adc.HighResolution.AutoZero, OFF
TestParameter, Measurement.Adc.HighResolution.Mode, AUTO
TestParameter, Measurement.Adc.HighResolution.Coeff, 6
TestParameter, Measurement.WaitTime.Source.Coeff, 1
TestParameter, Measurement.WaitTime.Source.Offset, 0
TestParameter, Measurement.WaitTime.Monitor.Coeff, 1
TestParameter, Measurement.WaitTime.Monitor.Offset, 0
TestParameter, Output.Graph.Enabled, true
TestParameter, Output.Graph.AutoScaling, false
TestParameter, Output.Graph.XAxis.Data, vg
TestParameter, Output.Graph.XAxis.Scale, Linear
TestParameter, Output.Graph.XAxis.Left, 0
TestParameter, Output.Graph.XAxis.Right, 0.9
TestParameter, Output.Graph.XAxis.RunTimeAutoScale, true
TestParameter, Output.Graph.YAxis.Data, id
TestParameter, Output.Graph.YAxis.Scale, Linear
TestParameter, Output.Graph.YAxis.Bottom, -0.1
TestParameter, Output.Graph.YAxis.Top, 0.1
TestParameter, Output.Graph.YAxis.Group, 
TestParameter, Output.Graph.YAxis.RunTimeAutoScale, true
TestParameter, AutoAnalysis.Interpolation, false
TestParameter, AutoAnalysis.Var2StepCount, 1
TestParameter, AutoAnalysis.Var2StepScript, 
TestParameter, AutoAnalysis.Line1.Enabled, false
TestParameter, AutoAnalysis.Line1.Type, 1
TestParameter, AutoAnalysis.Line1.Fix, True
TestParameter, AutoAnalysis.Line1.YAxis, 0
TestParameter, AutoAnalysis.Line1.Point1.Type, 0
TestParameter, AutoAnalysis.Line1.Point1.XY.X, 
TestParameter, AutoAnalysis.Line1.Point1.XY.Y, 
TestParameter, AutoAnalysis.Line1.Point1.Data.Var, 
TestParameter, AutoAnalysis.Line1.Point1.Data.Condition, 
TestParameter, AutoAnalysis.Line1.Point1.Data.Start, false
TestParameter, AutoAnalysis.Line1.Point1.Data.StartVar, 
TestParameter, AutoAnalysis.Line1.Point1.Data.StartCondition, 
TestParameter, AutoAnalysis.Line1.Point2.Type, 0
TestParameter, AutoAnalysis.Line1.Point2.XY.X, 
TestParameter, AutoAnalysis.Line1.Point2.XY.Y, 
TestParameter, AutoAnalysis.Line1.Point2.Data.Var, 
TestParameter, AutoAnalysis.Line1.Point2.Data.Condition, 
TestParameter, AutoAnalysis.Line1.Point2.Data.Start, false
TestParameter, AutoAnalysis.Line1.Point2.Data.StartVar, 
TestParameter, AutoAnalysis.Line1.Point2.Data.StartCondition, 
TestParameter, AutoAnalysis.Line1.GradientExpr, 0
TestParameter, AutoAnalysis.Line2.Enabled, false
TestParameter, AutoAnalysis.Line2.Type, 1
TestParameter, AutoAnalysis.Line2.Fix, True
TestParameter, AutoAnalysis.Line2.YAxis, 0
TestParameter, AutoAnalysis.Line2.Point1.Type, 0
TestParameter, AutoAnalysis.Line2.Point1.XY.X, 
TestParameter, AutoAnalysis.Line2.Point1.XY.Y, 
TestParameter, AutoAnalysis.Line2.Point1.Data.Var, 
TestParameter, AutoAnalysis.Line2.Point1.Data.Condition, 
TestParameter, AutoAnalysis.Line2.Point1.Data.Start, false
TestParameter, AutoAnalysis.Line2.Point1.Data.StartVar, 
TestParameter, AutoAnalysis.Line2.Point1.Data.StartCondition, 
TestParameter, AutoAnalysis.Line2.Point2.Type, 0
TestParameter, AutoAnalysis.Line2.Point2.XY.X, 
TestParameter, AutoAnalysis.Line2.Point2.XY.Y, 
TestParameter, AutoAnalysis.Line2.Point2.Data.Var, 
TestParameter, AutoAnalysis.Line2.Point2.Data.Condition, 
TestParameter, AutoAnalysis.Line2.Point2.Data.Start, false
TestParameter, AutoAnalysis.Line2.Point2.Data.StartVar, 
TestParameter, AutoAnalysis.Line2.Point2.Data.StartCondition, 
TestParameter, AutoAnalysis.Line2.GradientExpr, 0
TestParameter, AutoAnalysis.Marker.Enabled, false
TestParameter, AutoAnalysis.Marker.Data.Var, 
TestParameter, AutoAnalysis.Marker.Data.Condition, 
TestParameter, AutoAnalysis.Marker.Data.Start, false
TestParameter, AutoAnalysis.Marker.Data.StartVar, 
TestParameter, AutoAnalysis.Marker.Data.StartCondition, 
MetaData, TestRecord.EntryPoint, true
MetaData, TestRecord.RecordTime, 01/16/2024 15:24:00
MetaData, TestRecord.TestTarget, N-1-0.35-298K
MetaData, TestRecord.IterationIndex, 3
MetaData, TestRecord.Preservation, true
MetaData, TestRecord.Flag, 
MetaData, TestRecord.Remarks, 
MetaData, TestRecord.LinkKey, 9fef3484-9260-4e05-b250-00aa0c5e2281
MetaData, TestRecord.Parameters, 
Dimension1, 381, 381
Dimension2, 7, 7
DataName, vg, id
DataValue, -0.5, 3.9800000000000004E-12
DataValue, -0.49, 4.97E-12
DataValue, -0.48, 1.2840000000000001E-11
DataValue, -0.47000000000000003, 1.91E-12
DataValue, -0.46, 6.0300000000000008E-12
DataValue, -0.45, 1.1440000000000001E-11
DataValue, -0.44, -7.8000000000000011E-13
DataValue, -0.43, 5.7600000000000005E-12
DataValue, -0.42, 9.88E-12
DataValue, -0.41000000000000003, -2.24E-12
DataValue, -0.4, 6.2200000000000006E-12
DataValue, -0.39, 8.35E-12
DataValue, -0.38, -2.31E-12
DataValue, -0.37, 6.4700000000000005E-12
DataValue, -0.36, 6.6800000000000006E-12
DataValue, -0.35000000000000003, -2.5800000000000003E-12
DataValue, -0.34, 8.05E-12
DataValue, -0.33, 6.65E-12
DataValue, -0.32, -1.4900000000000001E-12
DataValue, -0.31, 1.0630000000000001E-11
DataValue, -0.3, 5.8300000000000008E-12
DataValue, -0.29, 4.7E-13
DataValue, -0.28, 1.208E-11
DataValue, -0.27, 5.9300000000000008E-12
DataValue, -0.26, 1.17E-12
DataValue, -0.25, 1.3260000000000001E-11
DataValue, -0.24, 5.65E-12
DataValue, -0.23, 2.7000000000000002E-12
DataValue, -0.22, 1.3740000000000001E-11
DataValue, -0.21, 5.65E-12
DataValue, -0.2, 4.11E-12
DataValue, -0.19, 1.4100000000000002E-11
DataValue, -0.18, 3.7800000000000005E-12
DataValue, -0.17, 4.94E-12
DataValue, -0.16, 1.3440000000000001E-11
DataValue, -0.15, 5.39E-12
DataValue, -0.14, 1.9900000000000002E-12
DataValue, -0.13, 1.392E-11
DataValue, -0.12, 5.6100000000000005E-12
DataValue, -0.11, -6.3E-13
DataValue, -0.1, 8.56E-12
DataValue, -0.09, 7.27E-12
DataValue, -0.08, -2.11E-12
DataValue, -0.07, 6.3300000000000007E-12
DataValue, -0.06, 1.019E-11
DataValue, -0.05, 1.5800000000000001E-12
DataValue, -0.04, 4.9600000000000007E-12
DataValue, -0.03, 1.414E-11
DataValue, -0.02, 5.74E-12
DataValue, -0.01, 2.9100000000000003E-12
DataValue, 0, 1.3140000000000001E-11
DataValue, 0.01, 5.95E-12
DataValue, 0.02, -2.4300000000000003E-12
DataValue, 0.03, 9.55E-12
DataValue, 0.04, 6.8000000000000009E-12
DataValue, 0.05, -2E-12
DataValue, 0.06, 6.0300000000000008E-12
DataValue, 0.07, 9.76E-12
DataValue, 0.08, -2.42E-12
DataValue, 0.09, 5.9100000000000005E-12
DataValue, 0.1, 1.1230000000000001E-11
DataValue, 0.11, 2.2700000000000002E-12
DataValue, 0.12, 4.6100000000000008E-12
DataValue, 0.13, 1.2850000000000001E-11
DataValue, 0.14, 5.19E-12
DataValue, 0.15, 5.8E-12
DataValue, 0.16, 1.402E-11
DataValue, 0.17, 5.7600000000000005E-12
DataValue, 0.18, 2.2200000000000002E-12
DataValue, 0.19, 1.1730000000000001E-11
DataValue, 0.2, 6.51E-12
DataValue, 0.21, -9.2000000000000012E-13
DataValue, 0.22, 7.9800000000000011E-12
DataValue, 0.23, 8.6000000000000013E-12
DataValue, 0.24, -1.0600000000000001E-12
DataValue, 0.25, 8.42E-12
DataValue, 0.26, 1.4460000000000001E-11
DataValue, 0.27, 6.4700000000000005E-12
DataValue, 0.28, 1.007E-11
DataValue, 0.29, 1.9420000000000002E-11
DataValue, 0.3, 1.2140000000000001E-11
DataValue, 0.31, 1.2570000000000002E-11
DataValue, 0.32, 2.4650000000000003E-11
DataValue, 0.33, 2.076E-11
DataValue, 0.34, 1.972E-11
DataValue, 0.35000000000000003, 3.652E-11
DataValue, 0.36, 3.828E-11
DataValue, 0.37, 3.7710000000000005E-11
DataValue, 0.38, 5.934E-11
DataValue, 0.39, 7.425E-11
DataValue, 0.4, 8.3420000000000008E-11
DataValue, 0.41000000000000003, 1.1352000000000001E-10
DataValue, 0.42, 1.501E-10
DataValue, 0.43, 1.7558E-10
DataValue, 0.44, 2.3038E-10
DataValue, 0.45, 3.0858000000000003E-10
DataValue, 0.46, 3.7579000000000005E-10
DataValue, 0.47000000000000003, 4.7846E-10
DataValue, 0.48, 6.2498E-10
DataValue, 0.49, 7.881600000000001E-10
DataValue, 0.5, 1.00723E-09
DataValue, 0.51, 1.3862E-09
DataValue, 0.52, 1.6657E-09
DataValue, 0.53, 2.1419E-09
DataValue, 0.54, 2.733E-09
DataValue, 0.55, 3.4702E-09
DataValue, 0.56, 4.4459E-09
DataValue, 0.57000000000000006, 5.666E-09
DataValue, 0.58, 7.2235E-09
DataValue, 0.59, 9.2028E-09
DataValue, 0.6, 1.07483E-08
DataValue, 0.61, 1.54888E-08
DataValue, 0.62, 1.95514E-08
DataValue, 0.63, 2.47586E-08
DataValue, 0.64, 2.9693199999999998E-08
DataValue, 0.65, 3.7679199999999994E-08
DataValue, 0.66, 4.72948E-08
DataValue, 0.67, 5.6228999999999993E-08
DataValue, 0.68, 6.812439999999999E-08
DataValue, 0.69000000000000006, 8.42562E-08
DataValue, 0.70000000000000007, 1.026106E-07
DataValue, 0.71, 1.2468E-07
DataValue, 0.72, 1.5204E-07
DataValue, 0.73, 1.8068E-07
DataValue, 0.74, 2.152E-07
DataValue, 0.75, 2.5732E-07
DataValue, 0.76, 3.048E-07
DataValue, 0.77, 3.5857999999999997E-07
DataValue, 0.78, 4.1934E-07
DataValue, 0.79, 4.8994E-07
DataValue, 0.8, 5.6681999999999994E-07
DataValue, 0.81, 6.528E-07
DataValue, 0.82000000000000006, 7.4958E-07
DataValue, 0.83000000000000007, 8.5484E-07
DataValue, 0.84, 9.7266E-07
DataValue, 0.85, 1.10326E-06
DataValue, 0.86, 1.2406E-06
DataValue, 0.87, 1.3925000000000002E-06
DataValue, 0.88, 1.5468000000000002E-06
DataValue, 0.89, 1.7186000000000002E-06
DataValue, 0.9, 1.8895000000000003E-06
DataValue, 0.91, 2.0867000000000003E-06
DataValue, 0.92, 2.2728E-06
DataValue, 0.93, 2.4889000000000004E-06
DataValue, 0.94000000000000006, 2.6873E-06
DataValue, 0.95000000000000007, 2.9119000000000004E-06
DataValue, 0.96, 3.1475000000000004E-06
DataValue, 0.97, 3.3719000000000003E-06
DataValue, 0.98, 3.6061000000000005E-06
DataValue, 0.99, 3.8523E-06
DataValue, 1, 4.0966000000000007E-06
DataValue, 1.01, 4.3467E-06
DataValue, 1.02, 4.592E-06
DataValue, 1.03, 4.8487000000000007E-06
DataValue, 1.04, 5.1263E-06
DataValue, 1.05, 5.3632000000000006E-06
DataValue, 1.06, 5.6236000000000007E-06
DataValue, 1.07, 5.8847000000000006E-06
DataValue, 1.08, 6.1266000000000008E-06
DataValue, 1.09, 6.3825E-06
DataValue, 1.1, 6.6309E-06
DataValue, 1.11, 6.8949000000000007E-06
DataValue, 1.12, 7.1540000000000005E-06
DataValue, 1.1300000000000001, 7.4083000000000007E-06
DataValue, 1.1400000000000001, 7.6659E-06
DataValue, 1.1500000000000001, 7.8923E-06
DataValue, 1.16, 8.1712E-06
DataValue, 1.17, 8.4280000000000013E-06
DataValue, 1.18, 8.675100000000001E-06
DataValue, 1.19, 8.9244E-06
DataValue, 1.2, 9.1638E-06
DataValue, 1.21, 9.4135E-06
DataValue, 1.22, 9.6689000000000016E-06
DataValue, 1.23, 9.8987E-06
DataValue, 1.24, 1.0154900000000002E-05
DataValue, 1.25, 1.04048E-05
DataValue, 1.26, 1.0632100000000001E-05
DataValue, 1.27, 1.0871200000000002E-05
DataValue, 1.28, 1.11139E-05
DataValue, 1.29, 1.1357800000000002E-05
DataValue, 1.3, 1.1594000000000001E-05
DataValue, 1.31, 1.1816E-05
DataValue, 1.32, 1.2052E-05
DataValue, 1.33, 1.2264E-05
DataValue, 1.34, 1.25E-05
DataValue, 1.35, 1.2722000000000001E-05
DataValue, 1.36, 1.2954E-05
DataValue, 1.37, 1.3168E-05
DataValue, 1.3800000000000001, 1.3382E-05
DataValue, 1.3900000000000001, 1.3606E-05
DataValue, 1.4000000000000001, 1.383E-05
DataValue, 1.41, 1.4048E-05
DataValue, 1.42, 1.4252E-05
DataValue, 1.43, 1.4476E-05
DataValue, 1.44, 1.4694E-05
DataValue, 1.45, 1.4884E-05
DataValue, 1.46, 1.5092E-05
DataValue, 1.47, 1.5304E-05
DataValue, 1.48, 1.5518E-05
DataValue, 1.49, 1.571E-05
DataValue, 1.5, 1.593E-05
DataValue, 1.51, 1.6128000000000002E-05
DataValue, 1.52, 1.6338000000000002E-05
DataValue, 1.53, 1.652E-05
DataValue, 1.54, 1.6716E-05
DataValue, 1.55, 1.6924E-05
DataValue, 1.56, 1.7118E-05
DataValue, 1.57, 1.7306E-05
DataValue, 1.58, 1.7494000000000002E-05
DataValue, 1.59, 1.7698000000000002E-05
DataValue, 1.6, 1.788E-05
DataValue, 1.61, 1.8066E-05
DataValue, 1.62, 1.8238E-05
DataValue, 1.6300000000000001, 1.8438000000000002E-05
DataValue, 1.6400000000000001, 1.8618E-05
DataValue, 1.6500000000000001, 1.8796E-05
DataValue, 1.6600000000000001, 1.8992E-05
DataValue, 1.67, 1.9168E-05
DataValue, 1.68, 1.9348000000000002E-05
DataValue, 1.69, 1.9508E-05
DataValue, 1.7, 1.9694E-05
DataValue, 1.71, 1.9874E-05
DataValue, 1.72, 2.0044E-05
DataValue, 1.73, 2.0206E-05
DataValue, 1.74, 2.0386E-05
DataValue, 1.75, 2.0564E-05
DataValue, 1.76, 2.072E-05
DataValue, 1.77, 2.0892E-05
DataValue, 1.78, 2.107E-05
DataValue, 1.79, 2.1230000000000002E-05
DataValue, 1.8, 2.1380000000000002E-05
DataValue, 1.81, 2.1544000000000002E-05
DataValue, 1.82, 2.1716E-05
DataValue, 1.83, 2.1884E-05
DataValue, 1.84, 2.2034E-05
DataValue, 1.85, 2.219E-05
DataValue, 1.86, 2.2368E-05
DataValue, 1.87, 2.2518E-05
DataValue, 1.8800000000000001, 2.2664000000000002E-05
DataValue, 1.8900000000000001, 2.2812E-05
DataValue, 1.9000000000000001, 2.2976E-05
DataValue, 1.9100000000000001, 2.313E-05
DataValue, 1.92, 2.3274E-05
DataValue, 1.93, 2.3438E-05
DataValue, 1.94, 2.3566E-05
DataValue, 1.95, 2.3712E-05
DataValue, 1.96, 2.3872E-05
DataValue, 1.97, 2.4018E-05
DataValue, 1.98, 2.4156E-05
DataValue, 1.99, 2.431E-05
DataValue, 2, 2.4466000000000003E-05
DataValue, 2.0100000000000002, 2.4580000000000002E-05
DataValue, 2.02, 2.4724000000000002E-05
DataValue, 2.0300000000000002, 2.4876E-05
DataValue, 2.04, 2.5014E-05
DataValue, 2.05, 2.5132E-05
DataValue, 2.06, 2.5282E-05
DataValue, 2.07, 2.5426E-05
DataValue, 2.08, 2.555E-05
DataValue, 2.09, 2.568E-05
DataValue, 2.1, 2.5828E-05
DataValue, 2.11, 2.5962E-05
DataValue, 2.12, 2.6084E-05
DataValue, 2.13, 2.622E-05
DataValue, 2.14, 2.6358E-05
DataValue, 2.15, 2.6474E-05
DataValue, 2.16, 2.659E-05
DataValue, 2.17, 2.6728000000000002E-05
DataValue, 2.18, 2.6850000000000002E-05
DataValue, 2.19, 2.6962E-05
DataValue, 2.2, 2.71E-05
DataValue, 2.21, 2.7228E-05
DataValue, 2.22, 2.7344E-05
DataValue, 2.23, 2.7468000000000002E-05
DataValue, 2.24, 2.7588E-05
DataValue, 2.25, 2.7708E-05
DataValue, 2.2600000000000002, 2.7808000000000002E-05
DataValue, 2.27, 2.7954E-05
DataValue, 2.2800000000000002, 2.8074000000000003E-05
DataValue, 2.29, 2.8176000000000003E-05
DataValue, 2.3000000000000003, 2.8294E-05
DataValue, 2.31, 2.8418E-05
DataValue, 2.32, 2.8534E-05
DataValue, 2.33, 2.8628E-05
DataValue, 2.34, 2.8736E-05
DataValue, 2.35, 2.8856E-05
DataValue, 2.36, 2.8972E-05
DataValue, 2.37, 2.9064E-05
DataValue, 2.38, 2.9188000000000002E-05
DataValue, 2.39, 2.9310000000000002E-05
DataValue, 2.4, 2.9418000000000002E-05
DataValue, 2.41, 2.9514000000000002E-05
DataValue, 2.42, 2.9616000000000002E-05
DataValue, 2.43, 2.973E-05
DataValue, 2.44, 2.9836E-05
DataValue, 2.45, 2.9922000000000003E-05
DataValue, 2.46, 3.0036000000000002E-05
DataValue, 2.47, 3.0144E-05
DataValue, 2.48, 3.0238E-05
DataValue, 2.49, 3.0342000000000002E-05
DataValue, 2.5, 3.0444000000000002E-05
DataValue, 2.5100000000000002, 3.0558E-05
DataValue, 2.52, 3.0644E-05
DataValue, 2.5300000000000002, 3.073E-05
DataValue, 2.54, 3.0850000000000004E-05
DataValue, 2.5500000000000003, 3.0942E-05
DataValue, 2.56, 3.1016E-05
DataValue, 2.57, 3.1114E-05
DataValue, 2.58, 3.1232E-05
DataValue, 2.59, 3.132E-05
DataValue, 2.6, 3.1400000000000004E-05
DataValue, 2.61, 3.1494E-05
DataValue, 2.62, 3.1608E-05
DataValue, 2.63, 3.169E-05
DataValue, 2.64, 3.1762E-05
DataValue, 2.65, 3.1848000000000004E-05
DataValue, 2.66, 3.1950000000000004E-05
DataValue, 2.67, 3.2054E-05
DataValue, 2.68, 3.2122E-05
DataValue, 2.69, 3.2214E-05
DataValue, 2.7, 3.2316E-05
DataValue, 2.71, 3.2408E-05
DataValue, 2.72, 3.249E-05
DataValue, 2.73, 3.2562000000000004E-05
DataValue, 2.74, 3.2670000000000004E-05
DataValue, 2.75, 3.2724E-05
DataValue, 2.7600000000000002, 3.279E-05
DataValue, 2.77, 3.2902000000000004E-05
DataValue, 2.7800000000000002, 3.2988E-05
DataValue, 2.79, 3.3058E-05
DataValue, 2.8000000000000003, 3.3142E-05
DataValue, 2.81, 3.3228E-05
DataValue, 2.82, 3.3314E-05
DataValue, 2.83, 3.3366E-05
DataValue, 2.84, 3.3464000000000004E-05
DataValue, 2.85, 3.355E-05
DataValue, 2.86, 3.3622000000000004E-05
DataValue, 2.87, 3.3686E-05
DataValue, 2.88, 3.3746E-05
DataValue, 2.89, 3.3860000000000004E-05
DataValue, 2.9, 3.393E-05
DataValue, 2.91, 3.3996000000000005E-05
DataValue, 2.92, 3.4054E-05
DataValue, 2.93, 3.4138000000000004E-05
DataValue, 2.94, 3.4222E-05
DataValue, 2.95, 3.4272E-05
DataValue, 2.96, 3.4338E-05
DataValue, 2.97, 3.4448E-05
DataValue, 2.98, 3.4512000000000004E-05
DataValue, 2.99, 3.4552000000000004E-05
DataValue, 3, 3.4624E-05
DataValue, 3.0100000000000002, 3.4718E-05
DataValue, 3.02, 3.4786E-05
DataValue, 3.0300000000000002, 3.484E-05
DataValue, 3.04, 3.4904E-05
DataValue, 3.0500000000000003, 3.4956E-05
DataValue, 3.06, 3.505E-05
DataValue, 3.0700000000000003, 3.5118E-05
DataValue, 3.08, 3.5154E-05
DataValue, 3.09, 3.524E-05
DataValue, 3.1, 3.5308E-05
DataValue, 3.11, 3.5344E-05
DataValue, 3.12, 3.5418E-05
DataValue, 3.13, 3.55E-05
DataValue, 3.14, 3.5550000000000004E-05
DataValue, 3.15, 3.561E-05
DataValue, 3.16, 3.5674000000000004E-05
DataValue, 3.17, 3.5754000000000004E-05
DataValue, 3.18, 3.5776000000000004E-05
DataValue, 3.19, 3.584E-05
DataValue, 3.2, 3.5914E-05
DataValue, 3.21, 3.5974E-05
DataValue, 3.22, 3.5994E-05
DataValue, 3.23, 3.6066E-05
DataValue, 3.24, 3.6122000000000004E-05
DataValue, 3.25, 3.6202E-05
DataValue, 3.2600000000000002, 3.624E-05
DataValue, 3.27, 3.6326000000000004E-05
DataValue, 3.2800000000000002, 3.6386E-05
DataValue, 3.29, 3.6406000000000003E-05
DataValue, 3.3000000000000003, 3.6478E-05
DataValue, -0.5, 6.4E-12
DataValue, -0.49, 7.39E-12
DataValue, -0.48, -1.1000000000000001E-13
DataValue, -0.47000000000000003, 1.401E-11
DataValue, -0.46, 3.9E-12
DataValue, -0.45, 6.3300000000000007E-12
DataValue, -0.44, 8.11E-12
DataValue, -0.43, -8.2E-13
DataValue, -0.42, 1.343E-11
DataValue, -0.41000000000000003, 5.34E-12
DataValue, -0.4, 6.0300000000000008E-12
DataValue, -0.39, 1.016E-11
DataValue, -0.38, -1.98E-12
DataValue, -0.37, 1.0850000000000002E-11
DataValue, -0.36, 6.0800000000000008E-12
DataValue, -0.35000000000000003, 5.63E-12
DataValue, -0.34, 1.046E-11
DataValue, -0.33, -2.06E-12
DataValue, -0.32, 1.0310000000000001E-11
