#521604!Ceyear Technologies,3672E,ZKJ00317,2.1.6
!Calibration ON : 2P/1,2
!Sweep Type: lin Frequency Sweep
!S2P File: Measurements: S11, S21, S12, S22:
!Tuesday, January 23, 2024  14 : 44
# Hz  S  dB  R 50.000
10000000.000000 -23.227271 -2.865945 26.467668 5.224121 -75.040313 155.078116 -12.292945 164.598997
344950000.000000 -22.038469 -36.385387 25.079007 -55.927426 -78.423632 -149.155291 -12.073401 142.758796
679900000.000000 -20.336549 -79.435855 23.971208 -105.470098 -90.110402 -63.729772 -11.739568 102.643791
1014850000.000000 -18.495009 -129.817035 22.792396 -154.387324 -92.663878 37.085970 -11.480523 63.377425
1349800000.000000 -17.494477 171.806968 22.459111 152.664201 -88.738342 -153.975484 -11.466784 27.357771
1684750000.000000 -17.926728 114.588823 22.363320 104.862452 -83.492399 -170.404534 -11.775916 -10.757142
2019700000.000000 -19.021400 68.350506 22.712314 57.601762 -90.892428 92.272255 -12.101317 -48.322219
2354650000.000000 -19.769970 30.750323 23.473270 7.818984 -84.446375 85.858807 -12.663537 -84.305650
2689600000.000000 -20.086854 -1.024263 23.776853 -40.303887 -90.524462 -61.822641 -13.214516 -121.178866
3024550000.000000 -20.082465 -29.524736 23.726840 -90.947185 -89.507174 96.605007 -14.180270 -156.638802
3359500000.000000 -19.890426 -55.483486 23.516892 -141.253772 -89.656047 -125.055244 -15.752069 166.481146
3694450000.000000 -19.660228 -80.304884 23.287893 168.576071 -84.780425 62.821448 -17.596406 126.045068
4029400000.000000 -19.443746 -104.516806 23.187053 118.435637 -95.334533 -16.157447 -19.821780 76.467078
4364350000.000000 -19.330614 -128.674183 23.249561 67.794034 -90.046095 -142.690950 -21.485617 23.859284
4699300000.000000 -19.392751 -152.898988 23.926964 16.448865 -80.315193 -121.657438 -23.310915 -31.536785
5034250000.000000 -19.552732 -177.127610 24.489516 -33.635194 -88.945335 -136.769178 -21.993781 -95.339304
5369200000.000000 -19.987416 158.375506 24.778832 -85.274413 -86.159285 16.600986 -20.102794 -150.793826
5704150000.000000 -20.718777 134.438533 24.868131 -136.899566 -85.786686 -90.180782 -18.799682 170.264561
6039100000.000000 -21.722164 111.595037 24.415347 170.853719 -90.194348 -84.745509 -18.098909 142.577471
6374050000.000000 -22.847557 88.686261 24.312992 120.252627 -92.267624 121.920985 -17.838170 103.326949
6709000000.000000 -24.313652 67.093951 24.276150 68.559367 -87.667542 59.688184 -18.309359 70.254040
7043950000.000000 -25.955109 47.362600 24.397854 19.208337 -83.105332 58.113888 -16.601633 37.476055
7378900000.000000 -27.629774 30.472254 24.911040 -28.899528 -90.036210 11.616975 -14.972870 -4.984627
7713850000.000000 -29.230029 20.091289 25.119655 -81.332398 -84.600096 -45.114322 -14.877316 -42.295400
8048800000.000000 -29.571549 15.323313 25.461405 -131.276997 -81.989482 -112.034083 -14.927536 -79.476756
8383750000.000000 -28.257370 9.137349 25.255052 175.534310 -85.148504 109.410140 -14.845220 -122.538951
8718700000.000000 -26.238019 -3.650345 25.264933 124.467698 -87.483213 79.887679 -15.091749 -167.416206
9053650000.000000 -24.238232 -22.394382 25.179299 71.951658 -88.189026 126.265737 -15.116142 152.268158
9388600000.000000 -22.556074 -44.679891 25.133011 19.630405 -85.713638 -55.416615 -15.279128 111.042455
9723550000.000000 -21.135779 -68.803715 25.362462 -32.200744 -84.432886 -8.201580 -15.761308 62.669854
10058500000.000000 -20.029606 -93.940831 25.682846 -83.405445 -88.670429 19.175280 -16.069312 13.351999
10393450000.000000 -19.222054 -119.701469 25.831178 -134.033698 -98.066415 -49.895980 -15.261916 -33.049636
10728400000.000000 -18.648448 -145.950289 25.608437 174.636780 -88.323643 -114.719595 -14.049012 -78.949080
11063350000.000000 -18.311619 -172.884942 25.444633 123.372272 -84.524112 54.620409 -13.381495 -125.964790
11398300000.000000 -18.154866 159.456328 25.194387 72.004494 -97.207922 -133.644339 -12.532802 -170.448563
11733250000.000000 -18.109577 130.729508 24.972998 20.278203 -94.151965 22.692285 -11.242642 145.952573
12068200000.000000 -18.129249 101.024526 25.012955 -30.647311 -91.542075 130.280149 -10.354876 104.162785
12403150000.000000 -18.147837 70.394993 25.243787 -81.482840 -89.486929 -96.970247 -10.172086 64.377234
12738100000.000000 -18.100650 39.378743 25.432002 -132.145777 -83.617923 -63.739513 -9.840548 23.924847
13073050000.000000 -18.013465 8.753272 25.324449 176.326559 -94.376343 -168.855678 -9.374578 -17.822131
13408000000.000000 -17.814298 -20.607409 25.227929 124.545257 -96.520502 124.228527 -8.894177 -57.504270
13742950000.000000 -17.539777 -48.655504 24.782344 71.717481 -99.149326 43.545132 -8.621402 -94.219857
14077900000.000000 -17.305256 -75.172683 24.541309 20.729925 -86.068338 -1.766767 -8.808221 -130.150924
14412850000.000000 -17.094322 -99.863883 24.261299 -30.207584 -98.053930 -0.029209 -9.569516 -167.288922
14747800000.000000 -16.934007 -123.386208 24.153872 -79.820810 -89.706706 -37.488442 -10.581407 155.132523
15082750000.000000 -16.890041 -145.848085 24.267753 -128.359412 -84.478719 -143.187688 -11.758403 116.730746
15417700000.000000 -16.944906 -167.370829 24.460076 -176.359693 -94.775817 -21.048320 -13.081261 76.360849
15752650000.000000 -17.071589 171.760760 24.423263 133.199022 -87.022789 -147.031767 -14.945804 32.396351
16087600000.000000 -17.233100 151.305543 24.460776 82.368545 -95.921285 -82.508022 -16.329771 -21.100239
16422550000.000000 -17.373393 131.184903 24.417726 28.638413 -81.144734 144.318320 -16.337325 -84.929737
16757500000.000000 -17.465727 110.784869 24.376934 -22.726171 -83.235000 91.259308 -15.491117 -149.816885
17092450000.000000 -17.472686 90.147765 24.417546 -75.757831 -84.438682 13.055625 -14.628064 150.616728
17427400000.000000 -17.361778 68.257047 24.446732 -123.807911 -85.209735 -37.748675 -13.443330 99.022277
17762350000.000000 -17.127983 44.916594 24.365349 -178.028499 -84.274020 -78.378095 -12.286295 53.563836
18097300000.000000 -16.773237 20.514529 24.449849 134.467018 -95.303356 -19.579491 -11.363083 12.562595
18432250000.000000 -16.334586 -4.984664 23.770054 81.403553 -76.719676 166.942184 -11.251777 -28.534917
18767200000.000000 -15.701121 -31.398340 24.542601 33.317148 -88.343120 97.367654 -11.188105 -72.351939
19102150000.000000 -15.148066 -58.172390 24.236390 -17.594650 -94.944951 -21.366144 -11.087347 -115.966490
19437100000.000000 -14.612772 -85.073761 24.127264 -68.228915 -81.123588 23.241313 -10.965715 -158.048684
19772050000.000000 -14.141699 -112.008375 24.097574 -118.224777 -85.682124 -4.032432 -11.149366 164.597282
20107000000.000000 -13.829388 -139.288519 23.974042 -168.181296 -80.585737 -84.071548 -11.759871 125.183008
20441950000.000000 -13.798785 -167.164285 23.903990 142.264620 -78.932740 -162.404840 -12.149721 85.822746
20776900000.000000 -13.903104 165.143865 23.863427 92.303468 -81.798041 -175.457520 -12.648719 45.693327
21111850000.000000 -14.387648 137.195563 23.659717 41.761017 -81.922925 120.392873 -12.768159 5.289743
21446800000.000000 -15.165502 109.645432 23.559584 -7.459487 -79.992448 46.654795 -12.659885 -37.102960
21781750000.000000 -16.178230 82.373246 23.612922 -56.444775 -77.631394 -1.836453 -12.201336 -78.737613
22116700000.000000 -17.299025 55.551171 23.725772 -105.367191 -83.820903 -42.339555 -11.603385 -120.380308
22451650000.000000 -18.339825 28.546270 23.685054 -156.104939 -81.066688 -90.680605 -10.845437 -159.573467
22786600000.000000 -19.207590 0.253460 24.011666 153.461199 -81.019637 -137.816904 -10.614120 162.996422
23121550000.000000 -19.901732 -28.731198 23.915794 100.952868 -79.590739 -169.376205 -10.764658 125.652902
23456500000.000000 -20.472096 -58.701754 24.281647 49.275231 -76.926421 152.232702 -11.385790 88.612201
23791450000.000000 -20.925580 -87.416233 24.064642 -4.083759 -79.756916 76.794856 -12.132108 51.870519
24126400000.000000 -21.657472 -114.919591 23.305833 -55.994328 -75.204588 31.076651 -13.140101 17.379386
24461350000.000000 -22.436156 -139.693584 22.905735 -108.962054 -78.708125 -14.630659 -14.241086 -16.135966
24796300000.000000 -23.598208 -160.558843 22.784117 -161.898967 -75.166024 -76.310437 -15.593821 -47.814585
25131250000.000000 -25.246629 -174.988573 23.232183 145.801403 -75.313188 -129.904307 -17.002669 -82.886593
25466200000.000000 -26.619691 -176.944006 23.536695 93.507579 -74.641919 -161.873939 -18.217451 -116.497103
25801150000.000000 -25.516372 -171.482124 23.575718 40.595316 -72.793098 140.311975 -20.244688 -148.375833
26136100000.000000 -22.596054 -178.285839 23.216823 -13.137822 -72.686513 85.380086 -22.790019 -166.466349
26471050000.000000 -20.044237 163.788746 22.748768 -67.183301 -72.179507 44.266074 -24.214450 -151.037950
26806000000.000000 -18.178790 140.625230 23.585945 -120.959067 -72.179394 -13.953972 -20.125436 -149.309969
27140950000.000000 -16.906305 115.148250 23.622184 -172.121323 -69.960067 -58.013841 -16.040129 -170.443400
27475900000.000000 -16.142753 88.723456 23.658855 137.315665 -71.352460 -126.600901 -13.728605 162.842656
27810850000.000000 -15.744912 62.332444 23.887291 88.183244 -68.670825 -173.308208 -12.262236 132.472349
28145800000.000000 -15.635906 36.728014 23.806416 37.985079 -72.781885 146.829710 -11.347103 102.682176
28480750000.000000 -15.608373 12.646739 23.593809 -12.453882 -69.545105 91.938916 -10.898557 72.575101
28815700000.000000 -15.580848 -10.680630 23.828482 -63.100625 -67.010005 43.919260 -10.576504 43.340903
29150650000.000000 -15.458449 -33.727867 23.720876 -114.149213 -70.223208 3.066491 -10.404194 14.295884
29485600000.000000 -15.282816 -56.711792 23.510480 -165.397030 -68.271514 -61.980382 -10.200896 -15.199193
29820550000.000000 -15.188696 -79.326127 23.731921 142.745080 -67.491020 -107.743722 -10.129723 -45.187237
30155500000.000000 -15.164110 -102.297791 23.900986 91.803510 -71.588682 169.321410 -10.146083 -76.182103
30490450000.000000 -15.284613 -125.236356 24.126061 39.965894 -67.608938 156.532060 -10.443395 -107.956105
30825400000.000000 -15.615772 -147.826334 24.155130 -12.123850 -66.818902 79.770272 -10.940159 -140.599766
31160350000.000000 -16.246099 -170.657408 24.288872 -65.733598 -66.014668 39.920988 -11.901227 -173.188820
31495300000.000000 -17.284169 167.502955 24.296742 -119.499838 -66.968589 -17.912420 -13.617442 151.671178
31830250000.000000 -18.770662 147.496077 23.863727 -175.357985 -64.894930 -61.906210 -16.453427 113.409735
32165200000.000000 -20.388692 134.848668 24.414550 132.822360 -65.744893 -119.114319 -21.019178 65.802738
32500150000.000000 -21.241696 124.944519 23.855643 77.057988 -64.572489 -174.376169 -24.876586 -5.430360
32835100000.000000 -20.879902 111.997992 23.467717 23.553744 -65.007941 132.685110 -23.709260 -79.947285
33170050000.000000 -20.086653 91.665993 23.248584 -29.154499 -65.249122 69.175540 -20.797755 -129.239235
33505000000.000000 -19.295014 64.293777 23.370997 -79.809221 -65.232322 28.009658 -17.916499 -166.407952
33839950000.000000 -18.509138 32.273064 22.863581 -133.829856 -65.266094 -32.292699 -15.811534 164.245850
34174900000.000000 -17.613158 -2.297834 22.473721 172.820965 -66.088482 -78.903049 -14.664151 136.620825
34509850000.000000 -16.524003 -37.862826 22.328494 120.344516 -65.966804 -129.907758 -14.569470 110.849564
34844800000.000000 -15.319661 -73.523994 22.718268 69.768962 -64.479408 179.553213 -16.205272 80.052495
35179750000.000000 -14.282375 -107.870308 22.678484 17.630154 -64.712755 127.656249 -19.179104 40.222325
35514700000.000000 -13.486135 -140.424968 22.399754 -35.089502 -65.809222 80.638160 -22.338633 -16.506262
35849650000.000000 -12.848697 -171.879610 22.667461 -84.678355 -64.227775 29.952639 -24.215408 -66.787865
36184600000.000000 -12.520330 157.428354 22.371020 -137.729401 -63.420640 -22.596350 -32.237913 -106.432229
36519550000.000000 -12.464776 126.712018 22.408581 167.955042 -62.680585 -73.360015 -31.217107 53.771109
36854500000.000000 -12.663915 95.740632 22.412063 113.566141 -63.631183 -127.077364 -21.666801 19.399159
37189450000.000000 -12.911143 64.071019 22.172791 59.046003 -63.396444 179.335797 -19.060864 -9.560230
37524400000.000000 -13.274048 31.753578 22.902124 7.795556 -62.098994 121.720212 -18.303000 -49.003917
37859350000.000000 -13.784305 -1.128956 22.264207 -49.449525 -63.306085 60.958267 -17.256949 -92.435785
38194300000.000000 -14.404940 -32.945038 22.500931 -100.113921 -61.720606 9.386930 -15.040551 -131.955137
38529250000.000000 -15.068918 -63.755246 22.761070 -153.259200 -61.571876 -40.169581 -12.968384 -160.760775
38864200000.000000 -15.772651 -90.541637 22.212844 151.879228 -61.170230 -85.508491 -12.054616 172.767939
39199150000.000000 -16.537483 -115.349658 22.459650 97.579938 -60.349998 -148.047487 -12.090067 143.572376
39534100000.000000 -16.864237 -135.650704 22.167421 42.597844 -61.238399 157.516800 -12.876962 109.219143
39869050000.000000 -16.962868 -154.339606 21.329962 -15.239320 -60.929067 107.536260 -13.514010 70.018366
40204000000.000000 -16.996402 -173.308898 21.209506 -70.709426 -60.240362 43.580963 -13.484359 31.831145
40538950000.000000 -17.036103 168.574709 20.728692 -126.560647 -60.310748 -9.284550 -13.413799 2.245123
40873900000.000000 -17.093612 149.027221 21.132886 -179.526434 -60.244528 -73.964009 -14.348684 -22.378512
41208850000.000000 -16.933512 127.265980 20.421727 125.423396 -60.167024 -116.430152 -15.317833 -52.390973
41543800000.000000 -17.335677 98.779068 19.899079 70.871285 -58.988233 179.658639 -15.777905 -90.303226
41878750000.000000 -18.715091 66.675402 19.616630 17.367641 -59.268533 134.474271 -14.688016 -131.006892
42213700000.000000 -21.339539 30.985343 19.306524 -36.842377 -58.904862 76.192134 -13.524796 -159.029949
42548650000.000000 -25.722320 -8.835784 19.045067 -90.548007 -59.119211 19.976963 -13.412008 178.074309
42883600000.000000 -32.319189 -56.290105 18.754306 -147.495644 -58.538848 -32.149479 -13.745688 161.921020
43218550000.000000 -39.005648 -111.028737 19.068462 156.435009 -59.128921 -88.035808 -14.923234 145.892462
43553500000.000000 -38.456353 -96.877953 19.074395 99.949074 -59.254083 -144.022350 -15.516079 118.718748
43888450000.000000 -28.949276 -114.625574 18.904612 43.201508 -58.937066 152.995794 -15.644474 86.618474
44223400000.000000 -22.602600 -148.553259 18.664813 -13.310928 -59.250343 103.530738 -15.574549 50.910416
44558350000.000000 -18.700036 176.340735 19.297026 -67.394584 -58.842883 49.344165 -15.246923 22.664350
44893300000.000000 -16.350178 139.719431 18.563833 -124.499932 -58.716397 -4.192859 -17.353687 1.202721
45228250000.000000 -14.633418 103.575661 18.819546 -178.641498 -58.003645 -56.837807 -20.218217 -20.426226
45563200000.000000 -13.562732 67.662534 18.458541 125.350703 -58.691113 -115.916844 -24.406976 -36.144306
45898150000.000000 -12.781726 32.195594 17.967297 68.495383 -57.843880 -171.541151 -26.877611 -82.432669
46233100000.000000 -12.226127 -4.226853 18.000400 12.483338 -57.625049 137.304936 -24.380820 -127.318390
46568050000.000000 -11.964372 -41.500178 17.427139 -46.117041 -57.983078 70.348860 -21.731014 -158.655402
46903000000.000000 -12.348035 -79.869608 17.178921 -103.616873 -58.648128 20.299172 -20.491853 170.369962
47237950000.000000 -13.437498 -118.160958 17.005097 -160.900840 -58.977930 -42.655343 -20.211491 126.238606
47572900000.000000 -15.574317 -153.970209 16.682851 142.324581 -58.571051 -101.700120 -18.804942 78.321039
47907850000.000000 -19.034683 175.462731 16.300871 85.944431 -58.715374 -157.237156 -16.636337 24.639607
48242800000.000000 -24.118739 159.958906 15.808068 29.982403 -60.266364 147.123780 -13.915034 -13.054913
48577750000.000000 -28.291950 178.938123 15.623377 -24.868827 -59.488616 88.902517 -13.125943 -44.597694
48912700000.000000 -25.916705 -174.136616 15.178851 -81.596321 -61.251197 46.647286 -11.678582 -77.660833
49247650000.000000 -24.267871 167.160047 15.090787 -139.161091 -59.796096 -5.793158 -11.289187 -108.144639
49582600000.000000 -24.316041 137.478275 14.747551 163.101524 -59.195368 -74.392546 -10.595119 -142.626688
49917550000.000000 -25.027241 95.961338 14.362188 103.226484 -60.204954 -128.420050 -10.117706 -170.219471
50252500000.000000 -25.162916 37.478490 13.620052 43.008133 -60.013376 164.564613 -10.160129 161.430721
50587450000.000000 -22.870353 -23.125236 12.954656 -16.925867 -60.027867 113.448673 -10.315620 139.638678
50922400000.000000 -19.918102 -69.701022 12.507185 -75.784843 -60.812632 48.040717 -10.885170 120.749860
51257350000.000000 -17.736628 -106.118310 11.767044 -135.724611 -60.503339 -4.072925 -11.232771 102.315954
51592300000.000000 -16.354356 -136.042751 11.046976 165.925452 -62.566933 -83.759940 -11.818393 80.018489
51927250000.000000 -15.451989 -163.748643 10.301950 107.150299 -65.122452 -157.038459 -12.542210 50.129714
52262200000.000000 -14.995909 169.373401 9.474896 48.291603 -66.430869 155.778945 -12.840450 15.407354
52597150000.000000 -14.817049 140.067863 8.784168 -12.387833 -69.769395 103.823020 -12.655739 -21.691305
52932100000.000000 -15.379359 107.757720 7.441601 -72.661086 -66.304901 36.404614 -12.524909 -56.542648
53267050000.000000 -16.309152 71.179916 5.961387 -134.514281 -68.458157 -34.962756 -13.339786 -91.992785
53602000000.000000 -17.527633 31.049424 3.777222 166.001478 -67.816618 -95.492401 -13.702155 -124.946036
53936950000.000000 -18.384388 -11.975433 1.089509 108.638567 -67.999752 -172.556758 -15.415525 -158.455616
54271900000.000000 -18.509222 -53.325345 -1.775259 54.247607 -62.263903 115.987968 -15.572469 164.015777
54606850000.000000 -18.506287 -85.984446 -4.689141 14.294061 -66.657100 38.217407 -16.477299 134.726160
54941800000.000000 -18.117375 -108.628363 -5.353226 -21.598232 -63.615985 -59.563106 -18.247144 97.236759
55276750000.000000 -16.843642 -125.909233 -4.289511 -67.557945 -64.088052 -92.616720 -21.493757 63.067142
55611700000.000000 -15.215722 -145.054187 -3.495412 -124.051236 -65.320944 177.200510 -24.314597 -40.813215
55946650000.000000 -14.090152 -168.028081 -3.551265 175.243757 -63.893059 90.396534 -18.366242 -100.717990
56281600000.000000 -13.588838 166.666578 -4.159078 114.219226 -64.197332 36.526936 -13.612563 -141.593151
56616550000.000000 -14.013389 140.247489 -5.336801 54.248869 -68.107988 -65.801309 -11.567982 -168.768735
56951500000.000000 -15.445218 113.492625 -6.741699 -3.396219 -69.010132 -98.094811 -9.870895 162.414518
57286450000.000000 -17.891077 83.703244 -8.204254 -60.042303 -71.128566 142.174613 -9.149873 138.107892
57621400000.000000 -21.999339 47.293741 -9.721417 -114.956870 -78.291863 -160.055004 -8.949768 111.667941
57956350000.000000 -26.321020 -17.707661 -11.149686 -169.138283 -81.395369 25.831946 -9.267910 84.094363
58291300000.000000 -22.894122 -90.623774 -12.457579 136.997241 -77.472145 113.761732 -10.716235 52.817096
58626250000.000000 -18.339279 -128.832268 -13.686496 84.026146 -76.554031 132.543783 -11.699466 10.732973
58961200000.000000 -15.731031 -156.396023 -14.797702 32.459769 -75.853954 -66.503666 -12.652722 -31.425609
59296150000.000000 -13.286831 179.641441 -15.551860 -18.532670 -71.743605 109.664914 -12.328812 -75.974913
59631100000.000000 -12.848895 157.986880 -16.243288 -68.600025 -89.039420 -49.723336 -13.193717 -108.220663
59966050000.000000 -11.957006 133.987369 -16.064981 -120.277854 -68.728929 26.216203 -15.103026 -148.081092
60301000000.000000 -12.423662 111.374192 -15.792250 179.803671 -71.667388 35.605442 -17.814125 -129.968906
60635950000.000000 -13.395563 83.039194 -16.353252 125.476430 -75.522517 -46.106461 -15.368530 176.590784
60970900000.000000 -16.289159 53.155664 -15.785960 68.390633 -71.373160 -124.495493 -16.600368 147.212597
61305850000.000000 -23.472514 30.239704 -15.858403 5.838422 -68.389043 -42.889669 -16.370754 161.270774
