#521361!Ceyear Technologies,3672E,ZKJ00317,2.1.6
!Calibration ON : 2P/1,3
!Sweep Type: lin Frequency Sweep
!S2P File: Measurements: S11, S31, S13, S33:
!Tuesday, January 16, 2024  18 : 22
# Hz  S  dB  R 50.000
10000000.000000 -40.847373 76.314015 -0.317096 -175.874101 -0.300379 -175.823331 -38.678962 -46.171415
344950000.000000 -40.212506 49.561155 -0.339317 -117.736836 -0.323042 -117.685450 -38.040256 -47.954666
679900000.000000 -39.838301 20.893087 -0.361529 -56.688486 -0.345655 -56.636270 -37.565313 -50.648229
1014850000.000000 -39.326002 -4.190355 -0.384567 7.267842 -0.368990 7.320208 -37.020842 -51.262820
1349800000.000000 -38.656956 -31.909050 -0.408309 74.137190 -0.393081 74.189403 -36.427512 -52.695433
1684750000.000000 -38.270398 -63.839830 -0.431800 143.916923 -0.417050 143.969960 -35.968087 -53.663684
2019700000.000000 -37.705229 -100.267676 -0.456054 -143.395112 -0.441686 -143.341237 -35.394402 -53.640616
2354650000.000000 -37.113520 -137.919256 -0.480654 -67.795065 -0.466678 -67.740385 -34.910836 -54.758927
2689600000.000000 -36.709320 -171.505931 -0.505258 10.715995 -0.491651 10.770939 -34.687359 -55.028832
3024550000.000000 -36.091583 150.668287 -0.530490 92.137372 -0.517295 92.192889 -34.162512 -54.584143
3359500000.000000 -36.736212 113.243991 -0.555804 176.466395 -0.543058 176.522643 -33.819359 -54.053528
3694450000.000000 -36.311262 77.497875 -0.581455 -96.295587 -0.569163 -96.238460 -33.327195 -52.240705
4029400000.000000 -35.664054 39.399998 -0.607749 -6.146101 -0.595825 -6.088733 -32.818593 -52.062939
4364350000.000000 -35.322235 5.076687 -0.634544 86.908838 -0.623060 86.966987 -32.465423 -51.785812
4699300000.000000 -34.722302 -32.635309 -0.662216 -177.127736 -0.651143 -177.068685 -31.872000 -49.884889
5034250000.000000 -34.049771 -71.984752 -0.690762 -78.253659 -0.680233 -78.193849 -31.298969 -48.532152
5369200000.000000 -33.531323 -108.899934 -0.719906 23.525658 -0.710074 23.585975 -30.742726 -43.432585
5704150000.000000 -32.899008 -148.071186 -0.749897 128.219158 -0.740658 128.282733 -30.119167 -41.008188
6039100000.000000 -32.521424 173.693393 -0.780550 -124.174835 -0.771964 -124.108727 -29.662556 -38.765090
6374050000.000000 -31.991258 137.789805 -0.812393 -13.660649 -0.804452 -13.591533 -29.291890 -34.918989
6709000000.000000 -31.350209 97.983976 -0.844898 99.768744 -0.837468 99.842608 -28.758034 -32.876989
7043950000.000000 -31.119717 64.981544 -0.874536 -146.778748 -0.867300 -146.701324 -28.782461 -26.724672
7378900000.000000 -30.916152 35.525346 -0.903350 -33.312926 -0.896234 -33.230333 -28.697305 -18.047029
7713850000.000000 -30.523303 6.119108 -0.930731 80.165970 -0.923538 80.252881 -28.615218 -11.108586
8048800000.000000 -30.410951 -15.852328 -0.957526 -166.346024 -0.950213 -166.253537 -28.966027 -4.446640
8383750000.000000 -30.647549 -35.621204 -0.985632 -52.847349 -0.977857 -52.744573 -28.745590 3.704163
8718700000.000000 -30.377862 -62.239137 -1.012015 60.668391 -1.003300 60.779178 -28.774548 9.620494
9053650000.000000 -30.114260 -83.839308 -1.037375 174.194850 -1.027391 174.311895 -28.827586 20.203699
9388600000.000000 -30.033267 -105.184002 -1.062136 -72.260834 -1.050639 -72.141671 -28.645436 25.838238
9723550000.000000 -30.038925 -121.962927 -1.083887 41.285433 -1.071195 41.403181 -28.769689 31.487916
10058500000.000000 -29.778965 -133.132300 -1.104526 154.832228 -1.090772 154.947423 -28.707660 40.318062
10393450000.000000 -29.562788 -151.191572 -1.123902 -91.608596 -1.109400 -91.496813 -28.616033 45.770373
10728400000.000000 -29.591560 -166.361994 -1.141513 21.945550 -1.126210 22.054348 -28.910525 51.055035
11063350000.000000 -29.456834 -177.582878 -1.158441 135.497307 -1.142598 135.602759 -28.844696 59.483174
11398300000.000000 -29.200341 164.750868 -1.174260 -110.946214 -1.158209 -110.844207 -28.784486 65.417131
11733250000.000000 -29.291994 151.749474 -1.188896 2.603881 -1.172745 2.702629 -29.030800 74.317560
12068200000.000000 -29.248395 141.891111 -1.203458 116.153318 -1.187014 116.248981 -28.958564 81.121396
12403150000.000000 -29.111468 124.529006 -1.217433 -130.297032 -1.200843 -130.203921 -28.945890 87.296848
12738100000.000000 -28.958434 112.949491 -1.231474 -16.754818 -1.214730 -16.664152 -28.833075 95.224555
13073050000.000000 -29.056043 104.341825 -1.244604 96.790307 -1.227798 96.879542 -28.851685 101.260331
13408000000.000000 -29.240963 95.207080 -1.257326 -149.664900 -1.240229 -149.577150 -29.087202 108.309143
13742950000.000000 -28.928712 91.933298 -1.271004 -36.123870 -1.253607 -36.037962 -28.904890 117.278008
14077900000.000000 -28.944937 82.067131 -1.283780 77.421424 -1.266189 77.506386 -28.854865 123.520039
14412850000.000000 -29.333518 78.760770 -1.295889 -169.037807 -1.278112 -168.953025 -28.974030 131.723522
14747800000.000000 -29.055837 77.761995 -1.309254 -55.495415 -1.291188 -55.412321 -28.774541 139.133657
15082750000.000000 -29.058880 77.615916 -1.321747 58.048325 -1.303581 58.129356 -28.803034 145.385725
15417700000.000000 -29.092663 82.550240 -1.334348 171.590211 -1.316062 171.669850 -28.703271 154.096926
15752650000.000000 -28.920030 82.003280 -1.347711 -74.866538 -1.329222 -74.787319 -28.283361 161.021067
16087600000.000000 -29.028857 82.493724 -1.360263 38.673860 -1.341547 38.753148 -28.339674 167.553656
16422550000.000000 -27.707413 86.434566 -1.373600 152.219367 -1.354605 152.297740 -28.032621 174.898935
16757500000.000000 -27.641507 85.814233 -1.386754 -94.231794 -1.367411 -94.154187 -27.956311 -179.506236
17092450000.000000 -28.144804 83.125049 -1.399423 19.313829 -1.379939 19.390428 -27.951740 -171.086228
17427400000.000000 -27.811025 74.097530 -1.412252 132.869747 -1.392486 132.947000 -27.654038 -163.412195
17762350000.000000 -27.867143 64.318276 -1.424158 -113.570757 -1.404141 -113.493785 -27.697341 -157.134553
18097300000.000000 -28.000879 60.606231 -1.435644 -0.014774 -1.415214 0.060941 -27.680808 -149.258625
18432250000.000000 -27.880289 52.938476 -1.446821 113.552874 -1.425884 113.627961 -27.614265 -145.846216
18767200000.000000 -27.979476 43.419946 -1.457008 -132.884172 -1.435746 -132.811341 -27.727206 -139.377294
19102150000.000000 -27.713660 37.415436 -1.467226 -19.324839 -1.445533 -19.254945 -27.558891 -131.876427
19437100000.000000 -27.761813 27.722304 -1.476168 94.242268 -1.454093 94.308800 -27.398807 -126.685592
19772050000.000000 -28.019890 26.345421 -1.484680 -152.196019 -1.462297 -152.133615 -27.459100 -118.653309
20107000000.000000 -27.930529 18.531958 -1.493115 -38.635335 -1.470190 -38.576678 -27.261116 -110.918127
20441950000.000000 -28.147105 6.074611 -1.500141 74.927326 -1.476923 74.979975 -27.357136 -104.705444
20776900000.000000 -28.450166 -7.330728 -1.507472 -171.515054 -1.484166 -171.467416 -27.284929 -96.068004
21111850000.000000 -28.484655 -25.214540 -1.514155 -57.955913 -1.490590 -57.914708 -26.986364 -88.018920
21446800000.000000 -28.251714 -38.559778 -1.518395 55.598312 -1.495120 55.629362 -27.296496 -78.972767
21781750000.000000 -28.390571 -52.897346 -1.523564 169.141351 -1.501113 169.163207 -27.240836 -69.673412
22116700000.000000 -28.673012 -69.995034 -1.528758 -77.321589 -1.507531 -77.306493 -27.407867 -64.883676
22451650000.000000 -28.971765 -89.233569 -1.533606 36.203235 -1.513796 36.216308 -27.597418 -54.163731
22786600000.000000 -29.007760 -113.177881 -1.540599 149.730547 -1.521757 149.743481 -27.674552 -44.241213
23121550000.000000 -29.377446 -138.065785 -1.547927 -96.742492 -1.530191 -96.727215 -27.972740 -33.956504
23456500000.000000 -29.493892 -162.814042 -1.555722 16.776699 -1.538675 16.795827 -27.986590 -22.761621
23791450000.000000 -29.721167 172.248017 -1.564426 130.300568 -1.548150 130.321229 -28.031737 -10.207565
24126400000.000000 -29.940310 148.005108 -1.573558 -116.172471 -1.557678 -116.148835 -28.215861 0.977801
24461350000.000000 -30.121047 132.069884 -1.583051 -2.647865 -1.567460 -2.620801 -28.325865 12.677148
24796300000.000000 -30.225685 117.589271 -1.593133 110.882687 -1.577492 110.911741 -28.150872 23.081706
25131250000.000000 -30.438029 101.873062 -1.602697 -135.585188 -1.587209 -135.554702 -28.224823 35.332574
25466200000.000000 -30.537978 85.782548 -1.612489 -22.054584 -1.596997 -22.022650 -28.240911 48.263273
25801150000.000000 -30.607654 61.318725 -1.622198 91.481296 -1.606769 91.517070 -28.223685 59.366109
26136100000.000000 -30.585456 33.442764 -1.632042 -154.982728 -1.616386 -154.946279 -28.215659 72.016031
26471050000.000000 -30.512420 7.367617 -1.641895 -41.448803 -1.626225 -41.411613 -28.049891 84.807167
26806000000.000000 -30.708809 -26.749733 -1.650454 72.088336 -1.634834 72.126366 -28.244792 96.968283
27140950000.000000 -30.593489 -53.267309 -1.659142 -174.376589 -1.643649 -174.337149 -28.236681 109.915743
27475900000.000000 -30.500510 -85.338441 -1.667993 -60.839836 -1.652656 -60.800375 -28.147725 121.678735
27810850000.000000 -30.863685 -111.365659 -1.676106 52.692474 -1.660870 52.732998 -28.244776 134.818084
28145800000.000000 -30.725713 -137.547254 -1.685260 166.227189 -1.669672 166.268670 -28.135787 148.168775
28480750000.000000 -30.832434 -171.182815 -1.693803 -80.238097 -1.678273 -80.195955 -28.157726 159.988300
28815700000.000000 -30.838779 161.092276 -1.702064 33.293008 -1.686526 33.334675 -28.176568 173.944260
29150650000.000000 -30.761041 135.014372 -1.710669 146.829591 -1.695132 146.872675 -28.010771 -172.670993
29485600000.000000 -30.915639 108.885309 -1.718544 -99.635368 -1.703240 -99.592216 -28.045916 -159.544013
29820550000.000000 -30.703179 82.329172 -1.727366 13.901476 -1.711921 13.944261 -27.905319 -145.920330
30155500000.000000 -30.444438 57.913863 -1.735593 127.441048 -1.720182 127.484807 -27.803124 -133.361153
30490450000.000000 -30.477814 39.624126 -1.744107 -119.029038 -1.728777 -118.986099 -27.752773 -119.271637
30825400000.000000 -30.293495 23.052876 -1.752523 -5.493002 -1.737367 -5.451209 -27.591663 -105.812896
31160350000.000000 -30.386984 6.047958 -1.760160 108.043468 -1.745124 108.085791 -27.542457 -92.685388
31495300000.000000 -30.296931 -12.355226 -1.769182 -138.429085 -1.753848 -138.385239 -27.403653 -78.514303
31830250000.000000 -30.248845 -28.980367 -1.777223 -24.898810 -1.762136 -24.851955 -27.208501 -64.860151
32165200000.000000 -30.174325 -46.508637 -1.785009 88.631385 -1.770577 88.679934 -27.094708 -51.289923
32500150000.000000 -29.906675 -65.086495 -1.794677 -157.838602 -1.780186 -157.786289 -26.844575 -37.267182
32835100000.000000 -29.880108 -91.820055 -1.803238 -44.309328 -1.788799 -44.254248 -26.637018 -23.941499
33170050000.000000 -29.751269 -118.914787 -1.812916 69.214299 -1.798463 69.272914 -26.435710 -9.997867
33505000000.000000 -29.362308 -143.975722 -1.821787 -177.254100 -1.807892 -177.194426 -26.121158 3.611548
33839950000.000000 -29.141745 -161.419208 -1.830234 -63.725577 -1.816764 -63.666059 -25.880167 16.661324
34174900000.000000 -28.941899 -179.440720 -1.840365 49.798019 -1.826781 49.861572 -25.583370 30.284810
34509850000.000000 -28.808480 155.660421 -1.849419 163.322068 -1.836296 163.387135 -25.181014 42.475782
34844800000.000000 -28.581483 138.578908 -1.858701 -83.161168 -1.846049 -83.093971 -24.934426 55.575158
35179750000.000000 -28.250300 119.220130 -1.868415 30.362586 -1.855977 30.430254 -24.450395 69.277930
35514700000.000000 -27.786560 101.657727 -1.878146 143.880065 -1.865731 143.947518 -24.087622 80.776311
35849650000.000000 -27.554320 84.557056 -1.888854 -102.609575 -1.876589 -102.537433 -23.715227 93.830019
36184600000.000000 -27.228278 62.610514 -1.898714 10.909362 -1.886951 10.981778 -23.240070 104.023611
36519550000.000000 -26.918628 48.120285 -1.909216 124.418155 -1.897501 124.487670 -22.970505 115.466852
36854500000.000000 -26.466658 30.321051 -1.920361 -122.072072 -1.908787 -122.000987 -22.445971 126.838247
37189450000.000000 -26.397509 6.743841 -1.930191 -8.563514 -1.918984 -8.490423 -22.135588 137.563618
37524400000.000000 -26.036945 -16.972735 -1.941061 104.944763 -1.929703 105.016690 -21.796069 148.750898
37859350000.000000 -25.764045 -47.611742 -1.951598 -141.543847 -1.940687 -141.473057 -21.534597 158.917318
38194300000.000000 -25.577722 -72.506378 -1.961849 -28.035960 -1.951150 -27.965015 -21.355097 169.476061
38529250000.000000 -25.292511 -96.093868 -1.973576 85.468371 -1.962708 85.540996 -21.055590 179.884362
38864200000.000000 -25.186196 -118.260360 -1.984097 -161.021081 -1.973162 -160.949745 -20.940617 -169.903965
39199150000.000000 -24.999400 -131.566811 -1.994700 -47.518441 -1.983987 -47.446946 -20.759498 -159.252583
39534100000.000000 -24.811687 -145.637224 -2.005799 65.986858 -1.995527 66.058288 -20.553755 -149.137043
39869050000.000000 -24.815048 -159.225947 -2.016643 179.491936 -2.006712 179.565885 -20.308216 -139.244598
40204000000.000000 -24.682115 178.155592 -2.028089 -67.002465 -2.018197 -66.929093 -20.164086 -129.115087
40538950000.000000 -24.411340 154.947226 -2.039478 46.506711 -2.029356 46.578114 -20.030086 -119.095577
40873900000.000000 -24.224815 131.278193 -2.050655 160.011983 -2.040332 160.087017 -19.934894 -109.415320
41208850000.000000 -24.214920 109.003434 -2.061446 -86.485757 -2.051343 -86.406453 -19.862685 -99.723799
41543800000.000000 -24.069260 87.729504 -2.071870 27.022802 -2.061878 27.105270 -19.770534 -90.119921
41878750000.000000 -24.141032 64.910409 -2.082067 140.529275 -2.072276 140.612396 -19.722758 -80.383907
42213700000.000000 -24.102576 41.917402 -2.092155 -105.965312 -2.083169 -105.880685 -19.636485 -71.030011
42548650000.000000 -24.254828 12.513000 -2.101918 7.541256 -2.093264 7.626196 -19.698081 -62.321291
42883600000.000000 -24.326610 -10.228777 -2.110734 121.042796 -2.102525 121.128176 -19.807028 -52.568475
43218550000.000000 -24.076496 -32.265705 -2.120770 -125.453714 -2.112488 -125.368922 -19.772651 -43.493232
43553500000.000000 -24.418239 -56.488017 -2.129298 -11.950503 -2.121274 -11.860815 -19.941395 -34.319734
43888450000.000000 -24.511815 -78.586850 -2.138200 101.548173 -2.130424 101.640951 -20.010441 -24.816499
44223400000.000000 -24.491101 -105.979787 -2.147962 -144.948179 -2.140713 -144.852514 -20.132598 -16.371261
44558350000.000000 -24.865133 -130.122966 -2.156219 -31.442942 -2.149836 -31.348038 -20.314140 -7.012015
44893300000.000000 -24.900100 -153.314581 -2.166006 82.059682 -2.159722 82.154482 -20.412358 1.990843
45228250000.000000 -25.179648 178.423413 -2.175290 -164.436263 -2.168918 -164.339334 -20.847367 9.967523
45563200000.000000 -25.421028 154.445619 -2.183668 -50.940977 -2.177347 -50.844775 -21.062818 20.234320
45898150000.000000 -25.311620 133.685572 -2.192815 62.556060 -2.186971 62.653806 -21.146579 29.498941
46233100000.000000 -25.600849 117.380859 -2.200144 176.053619 -2.194725 176.156490 -21.499292 39.092727
46568050000.000000 -25.701229 103.138951 -2.209172 -70.453308 -2.203244 -70.350330 -21.600145 49.306358
46903000000.000000 -26.087233 83.417919 -2.218418 43.042775 -2.212411 43.147843 -21.720800 58.033373
47237950000.000000 -26.401420 68.071502 -2.225991 156.536936 -2.220050 156.643889 -21.976999 67.674571
47572900000.000000 -26.283368 54.241912 -2.235206 -89.970972 -2.228693 -89.860309 -22.041285 77.064377
47907850000.000000 -26.530171 35.117485 -2.243121 23.528071 -2.236430 23.640071 -22.314351 85.899707
48242800000.000000 -26.619111 19.783220 -2.251540 137.012888 -2.244139 137.128010 -22.426063 95.835832
48577750000.000000 -26.564572 -0.282873 -2.260076 -109.494220 -2.252400 -109.374373 -22.494944 104.445058
48912700000.000000 -26.817078 -17.161733 -2.267136 3.995442 -2.259650 4.122037 -22.918414 113.706906
49247650000.000000 -26.742940 -31.315011 -2.276264 117.480982 -2.268160 117.606205 -22.944834 123.544595
49582600000.000000 -26.874397 -49.348493 -2.284604 -129.023886 -2.276498 -128.893669 -23.073233 131.358883
49917550000.000000 -27.044348 -64.956657 -2.293212 -15.542206 -2.284329 -15.406433 -23.259496 141.511226
50252500000.000000 -26.846382 -77.860769 -2.303260 97.943492 -2.293050 98.082164 -23.268748 150.322004
50587450000.000000 -27.085249 -95.478541 -2.311570 -148.570676 -2.300760 -148.431693 -23.603449 159.216954
50922400000.000000 -27.059033 -110.204391 -2.321715 -35.098304 -2.309175 -34.956795 -23.641494 168.874959
51257350000.000000 -26.884483 -130.098724 -2.331515 78.383702 -2.317837 78.523199 -23.649918 176.990866
51592300000.000000 -27.137441 -146.613295 -2.339295 -168.139738 -2.324573 -167.994279 -23.949312 -173.730582
51927250000.000000 -27.098529 -160.251071 -2.348949 -54.672412 -2.332389 -54.524433 -23.964623 -164.314110
52262200000.000000 -27.113820 -178.182617 -2.357923 58.795912 -2.339848 58.948750 -24.125588 -156.563346
52597150000.000000 -27.169911 167.087174 -2.366783 172.259427 -2.347600 172.417241 -24.214393 -146.780214
52932100000.000000 -27.031027 154.899154 -2.375764 -74.276080 -2.356097 -74.114564 -24.235375 -138.036561
53267050000.000000 -27.189323 147.942516 -2.384898 39.183716 -2.363968 39.346237 -24.691143 -127.553858
53602000000.000000 -27.147787 142.554007 -2.395411 152.636753 -2.373442 152.802200 -24.656610 -117.839358
53936950000.000000 -27.127838 133.048564 -2.404794 -93.905922 -2.382040 -93.741409 -24.767258 -109.376561
54271900000.000000 -27.189161 126.000059 -2.414354 19.547014 -2.390440 19.708069 -24.919248 -98.860297
54606850000.000000 -27.178969 120.609754 -2.425235 132.994754 -2.400031 133.155134 -24.886523 -88.737653
54941800000.000000 -27.260414 114.189359 -2.435514 -113.552177 -2.409270 -113.393054 -24.955553 -79.841754
55276750000.000000 -27.219192 108.284142 -2.446100 -0.108449 -2.418372 0.046573 -24.994144 -69.616696
55611700000.000000 -27.061505 102.520765 -2.456730 113.335172 -2.427691 113.486775 -24.866173 -59.577235
55946650000.000000 -27.190059 97.572286 -2.468161 -133.226001 -2.437859 -133.079795 -24.819377 -49.794091
56281600000.000000 -27.291884 91.164773 -2.478673 -19.797372 -2.447837 -19.646562 -24.737621 -39.580569
56616550000.000000 -27.064159 79.499005 -2.488865 93.636128 -2.457485 93.780033 -24.607726 -30.332667
56951500000.000000 -27.093575 63.600088 -2.500022 -152.935149 -2.467921 -152.798097 -24.596381 -20.372536
57286450000.000000 -26.901375 45.878609 -2.512083 -39.517951 -2.479277 -39.384567 -24.400627 -9.691237
57621400000.000000 -26.881355 25.015806 -2.524018 73.896758 -2.489987 74.032749 -24.314298 -0.520650
57956350000.000000 -26.743296 0.919796 -2.536685 -172.694476 -2.501452 -172.562103 -24.255146 10.077017
58291300000.000000 -26.474874 -24.292777 -2.550691 -59.280232 -2.514793 -59.153865 -23.812505 20.511268
58626250000.000000 -26.648209 -51.938718 -2.563968 54.128639 -2.527469 54.254705 -23.749979 28.527060
58961200000.000000 -26.464237 -78.263560 -2.580865 167.531685 -2.544348 167.648075 -23.689324 38.429381
59296150000.000000 -26.240814 -106.607526 -2.599910 -79.010050 -2.562847 -78.905535 -23.558575 47.339946
59631100000.000000 -26.225031 -131.222759 -2.612970 34.413698 -2.575713 34.520638 -23.582844 57.267637
59966050000.000000 -25.701292 -156.077886 -2.626395 147.827961 -2.589122 147.931455 -23.470606 67.531107
60301000000.000000 -25.693902 175.894599 -2.639683 -98.758725 -2.603260 -98.666094 -23.453270 76.495290
60635950000.000000 -25.625777 151.418644 -2.653062 14.636492 -2.617446 14.719426 -23.431128 87.342761
60970900000.000000 -25.423520 128.133694 -2.667053 125.120093 -2.631835 125.196342 -23.255197 98.202015
61305850000.000000 -25.333159 103.464716 -2.680028 -127.301697 -2.645918 -127.232444 -23.238275 108.206876
61640800000.000000 -25.242056 79.290512 -2.692882 -22.637036 -2.659735 -22.576302 -23.212415 118.928078
61975750000.000000 -25.051867 54.931311 -2.705885 79.124725 -2.673205 79.171258 -22.910613 128.741073
