
SetupTitle, PMOS-id-vd-vgs@vbs=3.3
PrimitiveTest, I/V Sweep
TestParameter, Context.MainFrame, B1500A
TestParameter, Channel.UnitType, SMU, SMU, SMU, SMU
TestParameter, Channel.Unit, SMU2:HR, SMU1:HR, SMU3:HR, SMU4:HR
TestParameter, Channel.IName, ib, is, ig, id
TestParameter, Channel.VName, vb, vs, vg, vd
TestParameter, Channel.Mode, V, COMMON, V, V
TestParameter, Channel.Func, CONST, CONST, VAR2, VAR1
TestParameter, Channel.Index, 
TestParameter, Channel.Time, 
TestParameter, Measurement.Port.Unit, SMU2:HR, SMU1:HR, SMU3:HR, SMU4:HR
TestParameter, Measurement.Port.SeriesResistor, NONE, NONE, NONE, NONE
TestParameter, Measurement.Port.Filter, ON, ON, ON, ON
TestParameter, Measurement.Port.OutputVoltageComparison, 0, 0, 0, 0
TestParameter, Measurement.Primary.Locus, Single
TestParameter, Measurement.Primary.Scale, LINEAR
TestParameter, Measurement.Primary.Start, 0
TestParameter, Measurement.Primary.Stop, -3.3000000000000003
TestParameter, Measurement.Primary.Step, -0.01
TestParameter, Measurement.Primary.Compliance, 0.1
TestParameter, Measurement.Primary.PowerCompliance, 0
TestParameter, Measurement.Aborting.Condition, SKIP AT ANY ABNORMAL
TestParameter, Measurement.PostOutput.Value, START
TestParameter, Measurement.PostOutput.Retention, OFF
TestParameter, Measurement.Secondary.Start, -0.3
TestParameter, Measurement.Secondary.Count, 6
TestParameter, Measurement.Secondary.Step, -0.6
TestParameter, Measurement.Secondary.Compliance, 0.1
TestParameter, Measurement.Secondary.PowerCompliance, 0
TestParameter, Measurement.Bias.Source, 3.3000000000000003, 0, -0.3, 0
TestParameter, Measurement.Bias.Compliance, 0.1, 0.1, 0.1, 0.1
TestParameter, Measurement.Monitor.Unit, SMU2:HR, SMU1:HR, SMU3:HR, SMU4:HR
TestParameter, Measurement.Monitor.Adc, HR ADC, HR ADC, HR ADC, HR ADC
TestParameter, Measurement.Monitor.Measurement, Compliance Side, Compliance Side, Compliance Side, Compliance Side
TestParameter, Measurement.Monitor.RangingMode, LIMITED, LIMITED, LIMITED, LIMITED
TestParameter, Measurement.Monitor.RangeBoundary, 1nA, 1nA, 1nA, 1nA
TestParameter, Measurement.Monitor.RangeRating, BY FULL RANGE, BY FULL RANGE, BY FULL RANGE, BY FULL RANGE
TestParameter, Measurement.Monitor.RangeRatingCoeff, 50, 50, 50, 50
TestParameter, Measurement.Timing.Hold, 0
TestParameter, Measurement.Timing.Delay, 0
TestParameter, Measurement.Adc.HighSpeed.Mode, AUTO
TestParameter, Measurement.Adc.HighSpeed.Coeff, 1
TestParameter, Measurement.Adc.HighResolution.AutoZero, OFF
TestParameter, Measurement.Adc.HighResolution.Mode, AUTO
TestParameter, Measurement.Adc.HighResolution.Coeff, 6
TestParameter, Measurement.WaitTime.Source.Coeff, 1
TestParameter, Measurement.WaitTime.Source.Offset, 0
TestParameter, Measurement.WaitTime.Monitor.Coeff, 1
TestParameter, Measurement.WaitTime.Monitor.Offset, 0
TestParameter, Output.Graph.Enabled, true
TestParameter, Output.Graph.AutoScaling, false
TestParameter, Output.Graph.XAxis.Data, vd
TestParameter, Output.Graph.XAxis.Scale, Linear
TestParameter, Output.Graph.XAxis.Left, 0
TestParameter, Output.Graph.XAxis.Right, 1
TestParameter, Output.Graph.XAxis.RunTimeAutoScale, true
TestParameter, Output.Graph.YAxis.Data, id
TestParameter, Output.Graph.YAxis.Scale, Linear
TestParameter, Output.Graph.YAxis.Bottom, -0.1
TestParameter, Output.Graph.YAxis.Top, 0.1
TestParameter, Output.Graph.YAxis.Group, 
TestParameter, Output.Graph.YAxis.RunTimeAutoScale, true
TestParameter, AutoAnalysis.Interpolation, false
TestParameter, AutoAnalysis.Var2StepCount, 1
TestParameter, AutoAnalysis.Var2StepScript, 
TestParameter, AutoAnalysis.Line1.Enabled, false
TestParameter, AutoAnalysis.Line1.Type, 1
TestParameter, AutoAnalysis.Line1.Fix, True
TestParameter, AutoAnalysis.Line1.YAxis, 0
TestParameter, AutoAnalysis.Line1.Point1.Type, 0
TestParameter, AutoAnalysis.Line1.Point1.XY.X, 
TestParameter, AutoAnalysis.Line1.Point1.XY.Y, 
TestParameter, AutoAnalysis.Line1.Point1.Data.Var, 
TestParameter, AutoAnalysis.Line1.Point1.Data.Condition, 
TestParameter, AutoAnalysis.Line1.Point1.Data.Start, false
TestParameter, AutoAnalysis.Line1.Point1.Data.StartVar, 
TestParameter, AutoAnalysis.Line1.Point1.Data.StartCondition, 
TestParameter, AutoAnalysis.Line1.Point2.Type, 0
TestParameter, AutoAnalysis.Line1.Point2.XY.X, 
TestParameter, AutoAnalysis.Line1.Point2.XY.Y, 
TestParameter, AutoAnalysis.Line1.Point2.Data.Var, 
TestParameter, AutoAnalysis.Line1.Point2.Data.Condition, 
TestParameter, AutoAnalysis.Line1.Point2.Data.Start, false
TestParameter, AutoAnalysis.Line1.Point2.Data.StartVar, 
TestParameter, AutoAnalysis.Line1.Point2.Data.StartCondition, 
TestParameter, AutoAnalysis.Line1.GradientExpr, 0
TestParameter, AutoAnalysis.Line2.Enabled, false
TestParameter, AutoAnalysis.Line2.Type, 1
TestParameter, AutoAnalysis.Line2.Fix, True
TestParameter, AutoAnalysis.Line2.YAxis, 0
TestParameter, AutoAnalysis.Line2.Point1.Type, 0
TestParameter, AutoAnalysis.Line2.Point1.XY.X, 
TestParameter, AutoAnalysis.Line2.Point1.XY.Y, 
TestParameter, AutoAnalysis.Line2.Point1.Data.Var, 
TestParameter, AutoAnalysis.Line2.Point1.Data.Condition, 
TestParameter, AutoAnalysis.Line2.Point1.Data.Start, false
TestParameter, AutoAnalysis.Line2.Point1.Data.StartVar, 
TestParameter, AutoAnalysis.Line2.Point1.Data.StartCondition, 
TestParameter, AutoAnalysis.Line2.Point2.Type, 0
TestParameter, AutoAnalysis.Line2.Point2.XY.X, 
TestParameter, AutoAnalysis.Line2.Point2.XY.Y, 
TestParameter, AutoAnalysis.Line2.Point2.Data.Var, 
TestParameter, AutoAnalysis.Line2.Point2.Data.Condition, 
TestParameter, AutoAnalysis.Line2.Point2.Data.Start, false
TestParameter, AutoAnalysis.Line2.Point2.Data.StartVar, 
TestParameter, AutoAnalysis.Line2.Point2.Data.StartCondition, 
TestParameter, AutoAnalysis.Line2.GradientExpr, 0
TestParameter, AutoAnalysis.Marker.Enabled, false
TestParameter, AutoAnalysis.Marker.Data.Var, 
TestParameter, AutoAnalysis.Marker.Data.Condition, 
TestParameter, AutoAnalysis.Marker.Data.Start, false
TestParameter, AutoAnalysis.Marker.Data.StartVar, 
TestParameter, AutoAnalysis.Marker.Data.StartCondition, 
MetaData, TestRecord.EntryPoint, true
MetaData, TestRecord.RecordTime, 01/16/2024 16:03:47
MetaData, TestRecord.TestTarget, P-0.22-0.35-298K
MetaData, TestRecord.IterationIndex, 2
MetaData, TestRecord.Preservation, true
MetaData, TestRecord.Flag, 
MetaData, TestRecord.Remarks, 
MetaData, TestRecord.LinkKey, a66d9b1c-e415-4956-ba9c-afd5b9d065b4
MetaData, TestRecord.Parameters, 
Dimension1, 331, 331
Dimension2, 6, 6
DataName, vd, id
DataValue, 0, 7.64E-12
DataValue, -0.01, -7.93E-12
DataValue, -0.02, 7.6600000000000009E-12
DataValue, -0.03, -7.61E-12
DataValue, -0.04, 6.7900000000000008E-12
DataValue, -0.05, -6.3200000000000005E-12
DataValue, -0.06, 6.3400000000000009E-12
DataValue, -0.07, -6.0300000000000008E-12
DataValue, -0.08, 4.72E-12
DataValue, -0.09, -3.9300000000000004E-12
DataValue, -0.1, 1.6200000000000002E-12
DataValue, -0.11, -2.0700000000000003E-12
DataValue, -0.12, 8.0000000000000013E-14
DataValue, -0.13, -1.2400000000000002E-12
DataValue, -0.14, -1.0100000000000001E-12
DataValue, -0.15, -1.14E-12
DataValue, -0.16, -6.9000000000000009E-13
DataValue, -0.17, -1.1900000000000002E-12
DataValue, -0.18, -1.3000000000000001E-12
DataValue, -0.19, -1.27E-12
DataValue, -0.2, -1.8000000000000002E-12
DataValue, -0.21, -1.23E-12
DataValue, -0.22, -2.23E-12
DataValue, -0.23, -8.5000000000000011E-13
DataValue, -0.24, -2.4300000000000003E-12
DataValue, -0.25, 4.5000000000000005E-13
DataValue, -0.26, -3.5500000000000004E-12
DataValue, -0.27, 1.45E-12
DataValue, -0.28, -4.32E-12
DataValue, -0.29, 3.1600000000000003E-12
DataValue, -0.3, -6.2300000000000007E-12
DataValue, -0.31, 4.9600000000000007E-12
DataValue, -0.32, -7.770000000000001E-12
DataValue, -0.33, 6.7300000000000006E-12
DataValue, -0.34, -8.62E-12
DataValue, -0.35000000000000003, 7.3800000000000013E-12
DataValue, -0.36, -7.770000000000001E-12
DataValue, -0.37, 8.11E-12
DataValue, -0.38, -8.0900000000000013E-12
DataValue, -0.39, 7.4600000000000009E-12
DataValue, -0.4, -6.8500000000000009E-12
DataValue, -0.41000000000000003, 5.8700000000000006E-12
DataValue, -0.42, -4.9600000000000007E-12
DataValue, -0.43, 3.3400000000000003E-12
DataValue, -0.44, -2.9300000000000002E-12
DataValue, -0.45, 1.08E-12
DataValue, -0.46, -1.23E-12
DataValue, -0.47000000000000003, -4.5000000000000005E-13
DataValue, -0.48, -1.32E-12
DataValue, -0.49, -1.02E-12
DataValue, -0.5, -1.4200000000000002E-12
DataValue, -0.51, -1.0600000000000001E-12
DataValue, -0.52, -1.41E-12
DataValue, -0.53, -1.79E-12
DataValue, -0.54, -1.3400000000000002E-12
DataValue, -0.55, -2.57E-12
DataValue, -0.56, -6.8E-13
DataValue, -0.57000000000000006, -3.13E-12
DataValue, -0.58, 5.8000000000000005E-13
DataValue, -0.59, -4.12E-12
DataValue, -0.6, 2.28E-12
DataValue, -0.61, -5.4600000000000006E-12
DataValue, -0.62, 3.8E-12
DataValue, -0.63, -6.6E-12
DataValue, -0.64, 6.09E-12
DataValue, -0.65, -7.9800000000000011E-12
DataValue, -0.66, 6.9800000000000006E-12
DataValue, -0.67, -8.13E-12
DataValue, -0.68, 7.870000000000001E-12
DataValue, -0.69000000000000006, -7.8900000000000013E-12
DataValue, -0.70000000000000007, 8.04E-12
DataValue, -0.71, -7.42E-12
DataValue, -0.72, 6.6800000000000006E-12
DataValue, -0.73, -6.0800000000000008E-12
DataValue, -0.74, 4.67E-12
DataValue, -0.75, -4.08E-12
DataValue, -0.76, 1.8900000000000002E-12
DataValue, -0.77, -1.95E-12
DataValue, -0.78, 1.7E-13
DataValue, -0.79, -1.1900000000000002E-12
DataValue, -0.8, -5.9E-13
DataValue, -0.81, -1.4400000000000001E-12
DataValue, -0.82000000000000006, -1.37E-12
DataValue, -0.83000000000000007, -1.2900000000000002E-12
DataValue, -0.84, -1.4400000000000001E-12
DataValue, -0.85, -1.17E-12
DataValue, -0.86, -2.0200000000000003E-12
DataValue, -0.87, -6.0000000000000007E-13
DataValue, -0.88, -2.5500000000000002E-12
DataValue, -0.89, 3.0000000000000005E-14
DataValue, -0.9, -3.7800000000000005E-12
DataValue, -0.91, 1.4300000000000002E-12
DataValue, -0.92, -4.79E-12
DataValue, -0.93, 3.05E-12
DataValue, -0.94000000000000006, -5.7300000000000008E-12
DataValue, -0.95000000000000007, 4.5000000000000006E-12
DataValue, -0.96, -7.1300000000000005E-12
DataValue, -0.97, 6.0700000000000006E-12
DataValue, -0.98, -8.4900000000000012E-12
DataValue, -0.99, 7.5800000000000012E-12
DataValue, -1, -8.64E-12
DataValue, -1.01, 8.1800000000000011E-12
DataValue, -1.02, -7.4700000000000011E-12
DataValue, -1.03, 7.7E-12
DataValue, -1.04, -6.8700000000000004E-12
DataValue, -1.05, 5.58E-12
DataValue, -1.06, -4.52E-12
DataValue, -1.07, 6.26E-12
DataValue, -1.08, -5.0100000000000007E-12
DataValue, -1.09, 3.38E-12
DataValue, -1.1, -3.0600000000000003E-12
DataValue, -1.11, 8.8000000000000009E-13
DataValue, -1.12, -1.3900000000000001E-12
DataValue, -1.1300000000000001, -4.5000000000000005E-13
DataValue, -1.1400000000000001, -1.07E-12
DataValue, -1.1500000000000001, -7.9000000000000007E-13
DataValue, -1.16, -1.21E-12
DataValue, -1.17, -8E-13
DataValue, -1.18, -1.4E-12
DataValue, -1.19, -1.21E-12
DataValue, -1.2, -1.3000000000000001E-12
DataValue, -1.21, -1.3500000000000001E-12
DataValue, -1.22, -1.41E-12
DataValue, -1.23, -1.93E-12
DataValue, -1.24, -8.7E-13
DataValue, -1.25, -2.7600000000000004E-12
DataValue, -1.26, -4E-13
DataValue, -1.27, -3.5200000000000003E-12
DataValue, -1.28, 1.12E-12
DataValue, -1.29, -5.07E-12
DataValue, -1.3, 2.95E-12
DataValue, -1.31, -5.7600000000000005E-12
DataValue, -1.32, 5.07E-12
DataValue, -1.33, -7.22E-12
DataValue, -1.34, 6.6200000000000005E-12
DataValue, -1.35, -8.1700000000000009E-12
DataValue, -1.36, 7.64E-12
DataValue, -1.37, -6.7200000000000004E-12
DataValue, -1.3800000000000001, 5.5700000000000007E-12
DataValue, -1.3900000000000001, -7.83E-12
DataValue, -1.4000000000000001, 7.07E-12
DataValue, -1.41, -8.12E-12
DataValue, -1.42, 7.81E-12
DataValue, -1.43, -7.870000000000001E-12
DataValue, -1.44, 7.5600000000000009E-12
DataValue, -1.45, -6.9000000000000009E-12
DataValue, -1.46, 6.5800000000000006E-12
DataValue, -1.47, -5.2200000000000008E-12
DataValue, -1.48, 4E-12
DataValue, -1.49, -3.05E-12
DataValue, -1.5, 1.0100000000000001E-12
DataValue, -1.51, -1.64E-12
DataValue, -1.52, -2.4000000000000004E-13
DataValue, -1.53, -1.51E-12
DataValue, -1.54, -1.0600000000000001E-12
DataValue, -1.55, -9.6000000000000015E-13
DataValue, -1.56, -1.9E-12
DataValue, -1.57, -1.8000000000000002E-12
DataValue, -1.58, -2.57E-12
DataValue, -1.59, -1.9700000000000003E-12
DataValue, -1.6, -3.56E-12
DataValue, -1.61, -9.7000000000000011E-13
DataValue, -1.62, -4.16E-12
DataValue, -1.6300000000000001, 2.9000000000000003E-13
DataValue, -1.6400000000000001, -5.03E-12
DataValue, -1.6500000000000001, 2.31E-12
DataValue, -1.6600000000000001, -6.55E-12
DataValue, -1.67, 5.58E-12
DataValue, -1.68, -7.74E-12
DataValue, -1.69, 7.4800000000000012E-12
DataValue, -1.7, -7.62E-12
DataValue, -1.71, 8.84E-12
DataValue, -1.72, -6.96E-12
DataValue, -1.73, 8.52E-12
DataValue, -1.74, -5.4500000000000004E-12
DataValue, -1.75, 5.8600000000000005E-12
DataValue, -1.76, -4.41E-12
DataValue, -1.77, 5.5600000000000005E-12
DataValue, -1.78, -3.8900000000000006E-12
DataValue, -1.79, 2.9900000000000004E-12
DataValue, -1.8, -1.9700000000000003E-12
DataValue, -1.81, 6.5000000000000006E-13
DataValue, -1.82, -1.6800000000000001E-12
DataValue, -1.83, -1.3800000000000002E-12
DataValue, -1.84, -1.9400000000000002E-12
DataValue, -1.85, -1.2000000000000001E-12
DataValue, -1.86, -1.6700000000000002E-12
DataValue, -1.87, -2.4000000000000003E-12
DataValue, -1.8800000000000001, -2.2500000000000003E-12
DataValue, -1.8900000000000001, -2.6000000000000002E-12
DataValue, -1.9000000000000001, -2.06E-12
DataValue, -1.9100000000000001, -2.9E-12
DataValue, -1.92, -9.5E-13
DataValue, -1.93, -4.3900000000000005E-12
DataValue, -1.94, 2.7E-13
DataValue, -1.95, -4.63E-12
DataValue, -1.96, 1.95E-12
DataValue, -1.97, -6.2800000000000007E-12
DataValue, -1.98, 3.58E-12
DataValue, -1.99, -7.33E-12
DataValue, -2, 6.0100000000000004E-12
DataValue, -2.0100000000000002, -7.7900000000000013E-12
DataValue, -2.02, 7.4E-12
DataValue, -2.0300000000000002, -8.05E-12
DataValue, -2.04, 7.360000000000001E-12
DataValue, -2.05, -7.44E-12
DataValue, -2.06, 1.0030000000000002E-11
DataValue, -2.07, -6.81E-12
DataValue, -2.08, 6.46E-12
DataValue, -2.09, -4.9600000000000007E-12
DataValue, -2.1, 4.43E-12
DataValue, -2.11, -2.97E-12
DataValue, -2.12, 1.45E-12
DataValue, -2.13, -1.69E-12
DataValue, -2.14, -7E-14
DataValue, -2.15, -1.2500000000000001E-12
DataValue, -2.16, -1.22E-12
DataValue, -2.17, -1.85E-12
DataValue, -2.18, -1.8000000000000002E-12
DataValue, -2.19, -1.93E-12
DataValue, -2.2, -2.6100000000000004E-12
DataValue, -2.21, -1.32E-12
DataValue, -2.22, -2.8600000000000003E-12
DataValue, -2.23, -1.09E-12
DataValue, -2.24, -3.7300000000000005E-12
DataValue, -2.25, -3.0000000000000003E-13
DataValue, -2.2600000000000002, -5.3200000000000008E-12
DataValue, -2.27, 2.0500000000000004E-12
DataValue, -2.2800000000000002, -6.3300000000000007E-12
DataValue, -2.29, 5.07E-12
DataValue, -2.3000000000000003, -7.4700000000000011E-12
DataValue, -2.31, 6.4700000000000005E-12
DataValue, -2.32, -7.75E-12
DataValue, -2.33, 8E-12
DataValue, -2.34, -7.6600000000000009E-12
DataValue, -2.35, 8.86E-12
DataValue, -2.36, -7.07E-12
DataValue, -2.37, 8.41E-12
DataValue, -2.38, -5.7600000000000005E-12
DataValue, -2.39, 8.77E-12
DataValue, -2.4, -6.9500000000000009E-12
DataValue, -2.41, 7.82E-12
DataValue, -2.42, -5.5E-12
DataValue, -2.43, 4.6400000000000004E-12
DataValue, -2.44, -3.0900000000000004E-12
DataValue, -2.45, 2.7300000000000003E-12
DataValue, -2.46, -1.6100000000000002E-12
DataValue, -2.47, 3.1000000000000004E-13
DataValue, -2.48, -1.6E-12
DataValue, -2.49, -1.3000000000000001E-12
DataValue, -2.5, -1.78E-12
DataValue, -2.5100000000000002, -1.8100000000000002E-12
DataValue, -2.52, -1.8200000000000003E-12
DataValue, -2.5300000000000002, -2.52E-12
DataValue, -2.54, -1.1900000000000002E-12
DataValue, -2.5500000000000003, -2.1200000000000003E-12
DataValue, -2.56, -2.04E-12
DataValue, -2.57, -2.28E-12
DataValue, -2.58, -1.6600000000000002E-12
DataValue, -2.59, -3.4400000000000003E-12
DataValue, -2.6, -1.22E-12
DataValue, -2.61, -4.52E-12
DataValue, -2.62, -7E-14
DataValue, -2.63, -5.07E-12
DataValue, -2.64, 1.8400000000000002E-12
DataValue, -2.65, -6.4700000000000005E-12
DataValue, -2.66, 3.95E-12
DataValue, -2.67, -7.5E-12
DataValue, -2.68, 6.2200000000000006E-12
DataValue, -2.69, -7.55E-12
DataValue, -2.7, 7.73E-12
DataValue, -2.71, -7.74E-12
DataValue, -2.72, 8.580000000000001E-12
DataValue, -2.73, -6.35E-12
DataValue, -2.74, 8.8900000000000011E-12
DataValue, -2.75, -6.1800000000000007E-12
DataValue, -2.7600000000000002, 7.5900000000000014E-12
DataValue, -2.77, -5.1000000000000005E-12
DataValue, -2.7800000000000002, 4.5500000000000006E-12
DataValue, -2.79, -2.5600000000000004E-12
DataValue, -2.8000000000000003, 9.3E-13
DataValue, -2.81, -1.5600000000000002E-12
DataValue, -2.82, -6.0000000000000007E-13
DataValue, -2.83, -1.51E-12
DataValue, -2.84, -1.6800000000000001E-12
DataValue, -2.85, -1.5E-12
DataValue, -2.86, -2.3500000000000003E-12
DataValue, -2.87, -2.09E-12
DataValue, -2.88, -1.98E-12
DataValue, -2.89, -1.7000000000000002E-12
DataValue, -2.9, -2.2000000000000003E-12
DataValue, -2.91, -2.1200000000000003E-12
DataValue, -2.92, -3E-12
DataValue, -2.93, -1.45E-12
DataValue, -2.94, -3.75E-12
DataValue, -2.95, -1.0100000000000001E-12
DataValue, -2.96, -4.87E-12
DataValue, -2.97, 1.2000000000000002E-13
DataValue, -2.98, -6.0600000000000004E-12
DataValue, -2.99, 2.34E-12
DataValue, -3, -6.7300000000000006E-12
DataValue, -3.0100000000000002, 4.7500000000000006E-12
DataValue, -3.02, -7.72E-12
DataValue, -3.0300000000000002, 7.41E-12
DataValue, -3.04, -8.01E-12
DataValue, -3.0500000000000003, 8.73E-12
DataValue, -3.06, -6.8300000000000006E-12
DataValue, -3.0700000000000003, 8.93E-12
DataValue, -3.08, -6.7900000000000008E-12
DataValue, -3.09, 8.9000000000000013E-12
DataValue, -3.1, -7.21E-12
DataValue, -3.11, 8.480000000000001E-12
DataValue, -3.12, -5.24E-12
DataValue, -3.13, 7.0400000000000007E-12
DataValue, -3.14, -3.61E-12
DataValue, -3.15, 2.9600000000000003E-12
DataValue, -3.16, -2.26E-12
DataValue, -3.17, 5E-13
DataValue, -3.18, -1.3900000000000001E-12
DataValue, -3.19, -1.2400000000000002E-12
DataValue, -3.2, -1.91E-12
DataValue, -3.21, -1.8100000000000002E-12
DataValue, -3.22, -2.4300000000000003E-12
DataValue, -3.23, -2.4500000000000003E-12
DataValue, -3.24, -2.8600000000000003E-12
DataValue, -3.25, -3.4200000000000004E-12
DataValue, -3.2600000000000002, -2.6600000000000004E-12
DataValue, -3.27, -4.11E-12
DataValue, -3.2800000000000002, -9.5E-13
DataValue, -3.29, -5.4100000000000006E-12
DataValue, -3.3000000000000003, 6.3E-13
DataValue, 0, -7.43E-12
DataValue, -0.01, 9.1800000000000009E-12
DataValue, -0.02, -7.2500000000000008E-12
DataValue, -0.03, 1.0300000000000001E-11
DataValue, -0.04, -6.2700000000000005E-12
DataValue, -0.05, 8.04E-12
DataValue, -0.06, -5.29E-12
DataValue, -0.07, 6.36E-12
DataValue, -0.08, -2.7000000000000002E-12
DataValue, -0.09, 3.3200000000000004E-12
DataValue, -0.1, -1.5700000000000002E-12
DataValue, -0.11, 8E-13
DataValue, -0.12, -1.18E-12
DataValue, -0.13, -3.0000000000000005E-14
DataValue, -0.14, -1.0100000000000001E-12
DataValue, -0.15, -2.7E-13
DataValue, -0.16, -1.4E-12
DataValue, -0.17, 5.4E-13
DataValue, -0.18, -9.3E-13
DataValue, -0.19, -4.4000000000000004E-13
DataValue, -0.2, -1.7100000000000002E-12
DataValue, -0.21, -1.1900000000000002E-12
DataValue, -0.22, -6.400000000000001E-13
DataValue, -0.23, -1.7100000000000002E-12
DataValue, -0.24, -1.6E-12
DataValue, -0.25, -2.2200000000000002E-12
DataValue, -0.26, -1.1900000000000002E-12
DataValue, -0.27, -3.0600000000000003E-12
DataValue, -0.28, -3.0000000000000003E-13
DataValue, -0.29, -4.9000000000000005E-12
DataValue, -0.3, 1.2900000000000002E-12
DataValue, -0.31, -5.9100000000000005E-12
DataValue, -0.32, 3.6400000000000006E-12
DataValue, -0.33, -6.9800000000000006E-12
DataValue, -0.34, 5.3500000000000004E-12
DataValue, -0.35000000000000003, -8.03E-12
