
SetupTitle, PMOS-id-vg-vbs@vds=-3.3
PrimitiveTest, I/V Sweep
TestParameter, Context.MainFrame, B1500A
TestParameter, Channel.UnitType, SMU, SMU, SMU, SMU
TestParameter, Channel.Unit, SMU2:HR, SMU1:HR, SMU3:HR, SMU4:HR
TestParameter, Channel.IName, ib, is, ig, id
TestParameter, Channel.VName, vb, vs, vg, vd
TestParameter, Channel.Mode, V, COMMON, V, V
TestParameter, Channel.Func, VAR2, CONST, VAR1, CONST
TestParameter, Channel.Index, 
TestParameter, Channel.Time, 
TestParameter, Measurement.Port.Unit, SMU2:HR, SMU1:HR, SMU3:HR, SMU4:HR
TestParameter, Measurement.Port.SeriesResistor, NONE, NONE, NONE, NONE
TestParameter, Measurement.Port.Filter, ON, ON, ON, ON
TestParameter, Measurement.Port.OutputVoltageComparison, 0, 0, 0, 0
TestParameter, Measurement.Primary.Locus, Single
TestParameter, Measurement.Primary.Scale, LINEAR
TestParameter, Measurement.Primary.Start, 0.5
TestParameter, Measurement.Primary.Stop, -3.3000000000000003
TestParameter, Measurement.Primary.Step, -0.01
TestParameter, Measurement.Primary.Compliance, 0.001
TestParameter, Measurement.Primary.PowerCompliance, 0
TestParameter, Measurement.Aborting.Condition, SKIP AT ANY ABNORMAL
TestParameter, Measurement.PostOutput.Value, START
TestParameter, Measurement.PostOutput.Retention, OFF
TestParameter, Measurement.Secondary.Start, 0
TestParameter, Measurement.Secondary.Count, 7
TestParameter, Measurement.Secondary.Step, 0.6
TestParameter, Measurement.Secondary.Compliance, 0.1
TestParameter, Measurement.Secondary.PowerCompliance, 0
TestParameter, Measurement.Bias.Source, 0, 0, 0.5, -3.3000000000000003
TestParameter, Measurement.Bias.Compliance, 0.1, 0.1, 0.001, 0.1
TestParameter, Measurement.Monitor.Unit, SMU2:HR, SMU1:HR, SMU3:HR, SMU4:HR
TestParameter, Measurement.Monitor.Adc, HR ADC, HR ADC, HR ADC, HR ADC
TestParameter, Measurement.Monitor.Measurement, Compliance Side, Compliance Side, Compliance Side, Compliance Side
TestParameter, Measurement.Monitor.RangingMode, LIMITED, LIMITED, LIMITED, LIMITED
TestParameter, Measurement.Monitor.RangeBoundary, 1nA, 1nA, 1nA, 1nA
TestParameter, Measurement.Monitor.RangeRating, BY FULL RANGE, BY FULL RANGE, BY FULL RANGE, BY FULL RANGE
TestParameter, Measurement.Monitor.RangeRatingCoeff, 50, 50, 50, 50
TestParameter, Measurement.Timing.Hold, 0
TestParameter, Measurement.Timing.Delay, 0
TestParameter, Measurement.Adc.HighSpeed.Mode, AUTO
TestParameter, Measurement.Adc.HighSpeed.Coeff, 1
TestParameter, Measurement.Adc.HighResolution.AutoZero, OFF
TestParameter, Measurement.Adc.HighResolution.Mode, AUTO
TestParameter, Measurement.Adc.HighResolution.Coeff, 6
TestParameter, Measurement.WaitTime.Source.Coeff, 1
TestParameter, Measurement.WaitTime.Source.Offset, 0
TestParameter, Measurement.WaitTime.Monitor.Coeff, 1
TestParameter, Measurement.WaitTime.Monitor.Offset, 0
TestParameter, Output.Graph.Enabled, true
TestParameter, Output.Graph.AutoScaling, false
TestParameter, Output.Graph.XAxis.Data, vg
TestParameter, Output.Graph.XAxis.Scale, Linear
TestParameter, Output.Graph.XAxis.Left, 0
TestParameter, Output.Graph.XAxis.Right, 0.9
TestParameter, Output.Graph.XAxis.RunTimeAutoScale, true
TestParameter, Output.Graph.YAxis.Data, id
TestParameter, Output.Graph.YAxis.Scale, Linear
TestParameter, Output.Graph.YAxis.Bottom, -0.1
TestParameter, Output.Graph.YAxis.Top, 0.1
TestParameter, Output.Graph.YAxis.Group, 
TestParameter, Output.Graph.YAxis.RunTimeAutoScale, true
TestParameter, AutoAnalysis.Interpolation, false
TestParameter, AutoAnalysis.Var2StepCount, 1
TestParameter, AutoAnalysis.Var2StepScript, 
TestParameter, AutoAnalysis.Line1.Enabled, false
TestParameter, AutoAnalysis.Line1.Type, 1
TestParameter, AutoAnalysis.Line1.Fix, True
TestParameter, AutoAnalysis.Line1.YAxis, 0
TestParameter, AutoAnalysis.Line1.Point1.Type, 0
TestParameter, AutoAnalysis.Line1.Point1.XY.X, 
TestParameter, AutoAnalysis.Line1.Point1.XY.Y, 
TestParameter, AutoAnalysis.Line1.Point1.Data.Var, 
TestParameter, AutoAnalysis.Line1.Point1.Data.Condition, 
TestParameter, AutoAnalysis.Line1.Point1.Data.Start, false
TestParameter, AutoAnalysis.Line1.Point1.Data.StartVar, 
TestParameter, AutoAnalysis.Line1.Point1.Data.StartCondition, 
TestParameter, AutoAnalysis.Line1.Point2.Type, 0
TestParameter, AutoAnalysis.Line1.Point2.XY.X, 
TestParameter, AutoAnalysis.Line1.Point2.XY.Y, 
TestParameter, AutoAnalysis.Line1.Point2.Data.Var, 
TestParameter, AutoAnalysis.Line1.Point2.Data.Condition, 
TestParameter, AutoAnalysis.Line1.Point2.Data.Start, false
TestParameter, AutoAnalysis.Line1.Point2.Data.StartVar, 
TestParameter, AutoAnalysis.Line1.Point2.Data.StartCondition, 
TestParameter, AutoAnalysis.Line1.GradientExpr, 0
TestParameter, AutoAnalysis.Line2.Enabled, false
TestParameter, AutoAnalysis.Line2.Type, 1
TestParameter, AutoAnalysis.Line2.Fix, True
TestParameter, AutoAnalysis.Line2.YAxis, 0
TestParameter, AutoAnalysis.Line2.Point1.Type, 0
TestParameter, AutoAnalysis.Line2.Point1.XY.X, 
TestParameter, AutoAnalysis.Line2.Point1.XY.Y, 
TestParameter, AutoAnalysis.Line2.Point1.Data.Var, 
TestParameter, AutoAnalysis.Line2.Point1.Data.Condition, 
TestParameter, AutoAnalysis.Line2.Point1.Data.Start, false
TestParameter, AutoAnalysis.Line2.Point1.Data.StartVar, 
TestParameter, AutoAnalysis.Line2.Point1.Data.StartCondition, 
TestParameter, AutoAnalysis.Line2.Point2.Type, 0
TestParameter, AutoAnalysis.Line2.Point2.XY.X, 
TestParameter, AutoAnalysis.Line2.Point2.XY.Y, 
TestParameter, AutoAnalysis.Line2.Point2.Data.Var, 
TestParameter, AutoAnalysis.Line2.Point2.Data.Condition, 
TestParameter, AutoAnalysis.Line2.Point2.Data.Start, false
TestParameter, AutoAnalysis.Line2.Point2.Data.StartVar, 
TestParameter, AutoAnalysis.Line2.Point2.Data.StartCondition, 
TestParameter, AutoAnalysis.Line2.GradientExpr, 0
TestParameter, AutoAnalysis.Marker.Enabled, false
TestParameter, AutoAnalysis.Marker.Data.Var, 
TestParameter, AutoAnalysis.Marker.Data.Condition, 
TestParameter, AutoAnalysis.Marker.Data.Start, false
TestParameter, AutoAnalysis.Marker.Data.StartVar, 
TestParameter, AutoAnalysis.Marker.Data.StartCondition, 
MetaData, TestRecord.EntryPoint, true
MetaData, TestRecord.RecordTime, 01/16/2024 16:02:44
MetaData, TestRecord.TestTarget, P-0.22-0.35-298K
MetaData, TestRecord.IterationIndex, 2
MetaData, TestRecord.Preservation, true
MetaData, TestRecord.Flag, 
MetaData, TestRecord.Remarks, 
MetaData, TestRecord.LinkKey, 06804d04-d71f-4aa2-a341-1adcca2f2391
MetaData, TestRecord.Parameters, 
Dimension1, 381, 381
Dimension2, 7, 7
DataName, vg, id
DataValue, 0.5, -1.0600000000000001E-11
DataValue, 0.49, -2.14E-12
DataValue, 0.48, -8E-13
DataValue, 0.47000000000000003, -1.0540000000000002E-11
DataValue, 0.46, -5.5000000000000008E-13
DataValue, 0.45, -1.5600000000000002E-12
DataValue, 0.44, -9.15E-12
DataValue, 0.43, 1.65E-12
DataValue, 0.42, -1.86E-12
DataValue, 0.41000000000000003, -7.93E-12
DataValue, 0.4, 3.72E-12
DataValue, 0.39, -2.54E-12
DataValue, 0.38, -6.4800000000000007E-12
DataValue, 0.37, 4.9600000000000007E-12
DataValue, 0.36, -3.2700000000000004E-12
DataValue, 0.35000000000000003, -3.3700000000000004E-12
DataValue, 0.34, 5.3200000000000008E-12
DataValue, 0.33, -2.37E-12
DataValue, 0.32, -8.5900000000000012E-12
DataValue, 0.31, 4.53E-12
DataValue, 0.3, -2.1200000000000003E-12
DataValue, 0.29, -1.016E-11
DataValue, 0.28, -1.86E-12
DataValue, 0.27, -9.1000000000000016E-13
DataValue, 0.26, -1.0000000000000001E-11
DataValue, 0.25, -2.37E-12
DataValue, 0.24, 4.51E-12
DataValue, 0.23, -3.43E-12
DataValue, 0.22, -2.92E-12
DataValue, 0.21, 6.3200000000000005E-12
DataValue, 0.2, -2.5000000000000003E-12
DataValue, 0.19, -4.11E-12
DataValue, 0.18, 5.6100000000000005E-12
DataValue, 0.17, -2.31E-12
DataValue, 0.16, -6.2900000000000009E-12
DataValue, 0.15, 3.1200000000000004E-12
DataValue, 0.14, -2.2500000000000003E-12
DataValue, 0.13, -9.68E-12
DataValue, 0.12, -1.23E-12
DataValue, 0.11, -3.18E-12
DataValue, 0.1, -3.0600000000000003E-12
DataValue, 0.09, 5.63E-12
DataValue, 0.08, -4.98E-12
DataValue, 0.07, -2.49E-12
DataValue, 0.06, 4.3900000000000005E-12
DataValue, 0.05, -7.33E-12
DataValue, 0.04, -2.0500000000000004E-12
DataValue, 0.03, 2.77E-12
DataValue, 0.02, -9.190000000000001E-12
DataValue, 0.01, -1.74E-12
DataValue, 0, 9.9E-13
DataValue, -0.01, -1.004E-11
DataValue, -0.02, -1.7000000000000002E-12
DataValue, -0.03, -7.3E-13
DataValue, -0.04, -1.028E-11
DataValue, -0.05, -2.0700000000000003E-12
DataValue, -0.06, 2.47E-12
DataValue, -0.07, -1.0110000000000001E-11
DataValue, -0.08, -2.1200000000000003E-12
DataValue, -0.09, 9.4E-13
DataValue, -0.1, -1.014E-11
DataValue, -0.11, -1.9E-12
DataValue, -0.12, -3.7000000000000004E-13
DataValue, -0.13, -9.75E-12
DataValue, -0.14, -1.6700000000000002E-12
DataValue, -0.15, -1.09E-12
DataValue, -0.16, -1.014E-11
DataValue, -0.17, -3.7000000000000004E-13
DataValue, -0.18, -1.6800000000000001E-12
DataValue, -0.19, -9.3200000000000015E-12
DataValue, -0.2, 2.0500000000000004E-12
DataValue, -0.21, -2.47E-12
DataValue, -0.22, -8.26E-12
DataValue, -0.23, 3.9300000000000004E-12
DataValue, -0.24, -3.58E-12
DataValue, -0.25, -7.1500000000000008E-12
DataValue, -0.26, 4.23E-12
DataValue, -0.27, -4.4500000000000006E-12
DataValue, -0.28, -7.71E-12
DataValue, -0.29, 2.54E-12
DataValue, -0.3, -6.6200000000000005E-12
DataValue, -0.31, -1.3780000000000002E-11
DataValue, -0.32, -1.8900000000000002E-12
DataValue, -0.33, -1.0430000000000001E-11
DataValue, -0.34, -2.0130000000000002E-11
DataValue, -0.35000000000000003, -1.4560000000000003E-11
DataValue, -0.36, -1.774E-11
DataValue, -0.37, -3.2170000000000004E-11
DataValue, -0.38, -3.067E-11
DataValue, -0.39, -3.402E-11
DataValue, -0.4, -5.728E-11
DataValue, -0.41000000000000003, -6.2650000000000011E-11
DataValue, -0.42, -7.108E-11
DataValue, -0.43, -1.0525000000000001E-10
DataValue, -0.44, -1.2937000000000001E-10
DataValue, -0.45, -1.5404000000000002E-10
DataValue, -0.46, -2.0721000000000003E-10
DataValue, -0.47000000000000003, -2.7784000000000005E-10
DataValue, -0.48, -3.3591000000000003E-10
DataValue, -0.49, -4.2747E-10
DataValue, -0.5, -5.5452000000000007E-10
DataValue, -0.51, -6.8687E-10
DataValue, -0.52, -8.7221E-10
DataValue, -0.53, -1.1152900000000002E-09
DataValue, -0.54, -1.504E-09
DataValue, -0.55, -1.8123E-09
DataValue, -0.56, -2.2963E-09
DataValue, -0.57000000000000006, -2.8378E-09
DataValue, -0.58, -3.5714E-09
DataValue, -0.59, -4.4621E-09
DataValue, -0.6, -5.5921E-09
DataValue, -0.61, -6.9716E-09
DataValue, -0.62, -8.6613E-09
DataValue, -0.63, -1.10769E-08
DataValue, -0.64, -1.3986599999999998E-08
DataValue, -0.65, -1.7376199999999997E-08
DataValue, -0.66, -2.1027799999999997E-08
DataValue, -0.67, -2.5642399999999997E-08
DataValue, -0.68, -3.12012E-08
DataValue, -0.69000000000000006, -3.75732E-08
DataValue, -0.70000000000000007, -4.50176E-08
DataValue, -0.71, -5.34736E-08
DataValue, -0.72, -6.33826E-08
DataValue, -0.73, -7.5009399999999989E-08
DataValue, -0.74, -8.8096E-08
DataValue, -0.75, -1.0264839999999999E-07
DataValue, -0.76, -1.1936E-07
DataValue, -0.77, -1.3788E-07
DataValue, -0.78, -1.5778E-07
DataValue, -0.79, -1.8026E-07
DataValue, -0.8, -2.0552E-07
DataValue, -0.81, -2.3196E-07
DataValue, -0.82000000000000006, -2.6148E-07
DataValue, -0.83000000000000007, -2.934E-07
DataValue, -0.84, -3.2766E-07
DataValue, -0.85, -3.6398E-07
DataValue, -0.86, -4.0266E-07
DataValue, -0.87, -4.4522E-07
DataValue, -0.88, -4.8982E-07
DataValue, -0.89, -5.4244E-07
DataValue, -0.9, -5.8874E-07
DataValue, -0.91, -6.401E-07
DataValue, -0.92, -6.9586E-07
DataValue, -0.93, -7.5426E-07
DataValue, -0.94000000000000006, -8.1524E-07
DataValue, -0.95000000000000007, -8.7946E-07
DataValue, -0.96, -9.4726E-07
DataValue, -0.97, -1.0156E-06
DataValue, -0.98, -1.08944E-06
DataValue, -0.99, -1.1685000000000001E-06
DataValue, -1, -1.2479000000000002E-06
DataValue, -1.01, -1.3271000000000002E-06
DataValue, -1.02, -1.4092000000000002E-06
DataValue, -1.03, -1.4953000000000001E-06
DataValue, -1.04, -1.5845000000000003E-06
DataValue, -1.05, -1.6775000000000002E-06
DataValue, -1.06, -1.7768E-06
DataValue, -1.07, -1.8763000000000002E-06
DataValue, -1.08, -1.9765E-06
DataValue, -1.09, -2.0802E-06
DataValue, -1.1, -2.184E-06
DataValue, -1.11, -2.2915000000000004E-06
DataValue, -1.12, -2.4092E-06
DataValue, -1.1300000000000001, -2.5214E-06
DataValue, -1.1400000000000001, -2.6372000000000003E-06
DataValue, -1.1500000000000001, -2.7571000000000003E-06
DataValue, -1.16, -2.8758000000000005E-06
DataValue, -1.17, -3.0014E-06
DataValue, -1.18, -3.1291000000000002E-06
DataValue, -1.19, -3.2548E-06
DataValue, -1.2, -3.3838000000000005E-06
DataValue, -1.21, -3.5186000000000005E-06
DataValue, -1.22, -3.6519000000000006E-06
DataValue, -1.23, -3.7909000000000004E-06
DataValue, -1.24, -3.9295E-06
DataValue, -1.25, -4.0716E-06
DataValue, -1.26, -4.2203E-06
DataValue, -1.27, -4.3648E-06
DataValue, -1.28, -4.5133000000000005E-06
DataValue, -1.29, -4.6661E-06
DataValue, -1.3, -4.8220000000000006E-06
DataValue, -1.31, -4.9765000000000005E-06
DataValue, -1.32, -5.1358000000000009E-06
DataValue, -1.33, -5.2930000000000008E-06
DataValue, -1.34, -5.4560000000000008E-06
DataValue, -1.35, -5.6203E-06
DataValue, -1.36, -5.7903E-06
DataValue, -1.37, -5.956E-06
DataValue, -1.3800000000000001, -6.1255000000000009E-06
DataValue, -1.3900000000000001, -6.2989000000000008E-06
DataValue, -1.4000000000000001, -6.4750000000000007E-06
DataValue, -1.41, -6.650900000000001E-06
DataValue, -1.42, -6.8275E-06
DataValue, -1.43, -7.0089000000000008E-06
DataValue, -1.44, -7.1974000000000007E-06
DataValue, -1.45, -7.3816000000000006E-06
DataValue, -1.46, -7.5731E-06
DataValue, -1.47, -7.7578E-06
DataValue, -1.48, -7.9493E-06
DataValue, -1.49, -8.1432E-06
DataValue, -1.5, -8.342100000000001E-06
DataValue, -1.51, -8.5377000000000013E-06
DataValue, -1.52, -8.7327E-06
DataValue, -1.53, -8.9374E-06
DataValue, -1.54, -9.1419000000000014E-06
DataValue, -1.55, -9.3465000000000011E-06
DataValue, -1.56, -9.5502E-06
DataValue, -1.57, -9.7601000000000016E-06
DataValue, -1.58, -9.9672000000000017E-06
DataValue, -1.59, -1.01792E-05
DataValue, -1.6, -1.0392900000000002E-05
DataValue, -1.61, -1.0609200000000002E-05
DataValue, -1.62, -1.0823600000000001E-05
DataValue, -1.6300000000000001, -1.10452E-05
DataValue, -1.6400000000000001, -1.12599E-05
DataValue, -1.6500000000000001, -1.14847E-05
DataValue, -1.6600000000000001, -1.1708E-05
DataValue, -1.67, -1.1944000000000001E-05
DataValue, -1.68, -1.2172E-05
DataValue, -1.69, -1.2398E-05
DataValue, -1.7, -1.2624E-05
DataValue, -1.71, -1.2862E-05
DataValue, -1.72, -1.3092000000000001E-05
DataValue, -1.73, -1.3336E-05
DataValue, -1.74, -1.3566E-05
DataValue, -1.75, -1.3814E-05
DataValue, -1.76, -1.4054000000000001E-05
DataValue, -1.77, -1.4294E-05
DataValue, -1.78, -1.4534E-05
DataValue, -1.79, -1.4786E-05
DataValue, -1.8, -1.503E-05
DataValue, -1.81, -1.528E-05
DataValue, -1.82, -1.5522E-05
DataValue, -1.83, -1.5778E-05
DataValue, -1.84, -1.6026000000000002E-05
DataValue, -1.85, -1.6282E-05
DataValue, -1.86, -1.654E-05
DataValue, -1.87, -1.6798E-05
DataValue, -1.8800000000000001, -1.7058E-05
DataValue, -1.8900000000000001, -1.7314E-05
DataValue, -1.9000000000000001, -1.7578E-05
DataValue, -1.9100000000000001, -1.7840000000000002E-05
DataValue, -1.92, -1.8108E-05
DataValue, -1.93, -1.8372E-05
DataValue, -1.94, -1.8636E-05
DataValue, -1.95, -1.8902E-05
DataValue, -1.96, -1.918E-05
DataValue, -1.97, -1.9434E-05
DataValue, -1.98, -1.9716000000000002E-05
DataValue, -1.99, -1.9982E-05
DataValue, -2, -2.0254E-05
DataValue, -2.0100000000000002, -2.0532E-05
DataValue, -2.02, -2.0808E-05
DataValue, -2.0300000000000002, -2.108E-05
DataValue, -2.04, -2.1360000000000002E-05
DataValue, -2.05, -2.164E-05
DataValue, -2.06, -2.1922E-05
DataValue, -2.07, -2.2194E-05
DataValue, -2.08, -2.2476E-05
DataValue, -2.09, -2.2764E-05
DataValue, -2.1, -2.305E-05
DataValue, -2.11, -2.3344000000000002E-05
DataValue, -2.12, -2.3626E-05
DataValue, -2.13, -2.3912E-05
DataValue, -2.14, -2.4200000000000002E-05
DataValue, -2.15, -2.4482E-05
DataValue, -2.16, -2.4776E-05
DataValue, -2.17, -2.5074E-05
DataValue, -2.18, -2.5372E-05
DataValue, -2.19, -2.5666E-05
DataValue, -2.2, -2.5954000000000003E-05
DataValue, -2.21, -2.6258E-05
DataValue, -2.22, -2.6552000000000003E-05
DataValue, -2.23, -2.6856000000000002E-05
DataValue, -2.24, -2.7148E-05
DataValue, -2.25, -2.7454000000000002E-05
DataValue, -2.2600000000000002, -2.7748000000000003E-05
DataValue, -2.27, -2.8058E-05
DataValue, -2.2800000000000002, -2.8338000000000002E-05
DataValue, -2.29, -2.8650000000000002E-05
DataValue, -2.3000000000000003, -2.8948E-05
DataValue, -2.31, -2.926E-05
DataValue, -2.32, -2.957E-05
DataValue, -2.33, -2.9874000000000002E-05
DataValue, -2.34, -3.0176E-05
DataValue, -2.35, -3.049E-05
DataValue, -2.36, -3.0806E-05
DataValue, -2.37, -3.112E-05
DataValue, -2.38, -3.143E-05
DataValue, -2.39, -3.1734E-05
DataValue, -2.4, -3.2046000000000005E-05
DataValue, -2.41, -3.235E-05
DataValue, -2.42, -3.2676000000000004E-05
DataValue, -2.43, -3.2984E-05
DataValue, -2.44, -3.3322000000000004E-05
DataValue, -2.45, -3.363E-05
DataValue, -2.46, -3.3956E-05
DataValue, -2.47, -3.4274000000000004E-05
DataValue, -2.48, -3.4584E-05
DataValue, -2.49, -3.4912E-05
DataValue, -2.5, -3.5226000000000005E-05
DataValue, -2.5100000000000002, -3.5556E-05
DataValue, -2.52, -3.5874E-05
DataValue, -2.5300000000000002, -3.6194E-05
DataValue, -2.54, -3.6516E-05
DataValue, -2.5500000000000003, -3.6826E-05
DataValue, -2.56, -3.715E-05
DataValue, -2.57, -3.7506E-05
DataValue, -2.58, -3.7826E-05
DataValue, -2.59, -3.8156E-05
DataValue, -2.6, -3.8484E-05
DataValue, -2.61, -3.8818E-05
DataValue, -2.62, -3.913E-05
DataValue, -2.63, -3.9458E-05
DataValue, -2.64, -3.9788E-05
DataValue, -2.65, -4.0118000000000005E-05
DataValue, -2.66, -4.0448E-05
DataValue, -2.67, -4.0802E-05
DataValue, -2.68, -4.1132E-05
DataValue, -2.69, -4.1466E-05
DataValue, -2.7, -4.1812E-05
DataValue, -2.71, -4.2136000000000005E-05
DataValue, -2.72, -4.247E-05
DataValue, -2.73, -4.279E-05
DataValue, -2.74, -4.3138E-05
DataValue, -2.75, -4.3476E-05
DataValue, -2.7600000000000002, -4.3816E-05
DataValue, -2.77, -4.4132000000000004E-05
DataValue, -2.7800000000000002, -4.4478000000000003E-05
DataValue, -2.79, -4.4828E-05
DataValue, -2.8000000000000003, -4.516E-05
DataValue, -2.81, -4.5498000000000004E-05
DataValue, -2.82, -4.5852E-05
DataValue, -2.83, -4.6192E-05
DataValue, -2.84, -4.6526E-05
DataValue, -2.85, -4.686E-05
DataValue, -2.86, -4.7216E-05
DataValue, -2.87, -4.7568E-05
DataValue, -2.88, -4.7906E-05
DataValue, -2.89, -4.8228E-05
DataValue, -2.9, -4.8594E-05
DataValue, -2.91, -4.8938000000000005E-05
DataValue, -2.92, -4.928E-05
DataValue, -2.93, -4.9632E-05
DataValue, -2.94, -4.998E-05
DataValue, -2.95, -5.0334E-05
DataValue, -2.96, -5.0686E-05
DataValue, -2.97, -5.1032E-05
DataValue, -2.98, -5.138E-05
DataValue, -2.99, -5.1722000000000004E-05
DataValue, -3, -5.2088E-05
DataValue, -3.0100000000000002, -5.2436000000000004E-05
DataValue, -3.02, -5.279E-05
DataValue, -3.0300000000000002, -5.3152E-05
DataValue, -3.04, -5.3498E-05
DataValue, -3.0500000000000003, -5.3872E-05
DataValue, -3.06, -5.4222000000000004E-05
DataValue, -3.0700000000000003, -5.4536E-05
DataValue, -3.08, -5.4894E-05
DataValue, -3.09, -5.524E-05
DataValue, -3.1, -5.5592E-05
DataValue, -3.11, -5.5958E-05
DataValue, -3.12, -5.631E-05
DataValue, -3.13, -5.6666E-05
DataValue, -3.14, -5.7018E-05
DataValue, -3.15, -5.7388E-05
DataValue, -3.16, -5.7784E-05
DataValue, -3.17, -5.8146E-05
DataValue, -3.18, -5.85E-05
DataValue, -3.19, -5.8864000000000004E-05
DataValue, -3.2, -5.9194E-05
DataValue, -3.21, -5.9576E-05
DataValue, -3.22, -5.996E-05
DataValue, -3.23, -6.0306E-05
DataValue, -3.24, -6.067E-05
DataValue, -3.25, -6.105E-05
DataValue, -3.2600000000000002, -6.14E-05
DataValue, -3.27, -6.171E-05
DataValue, -3.2800000000000002, -6.2134E-05
DataValue, -3.29, -6.2462E-05
DataValue, -3.3000000000000003, -6.2800000000000009E-05
DataValue, 0.5, -3.5700000000000003E-12
DataValue, 0.49, -2.8600000000000003E-12
