
SetupTitle, NMOS-id-vg-vbs@vds=0.05
PrimitiveTest, I/V Sweep
TestParameter, Context.MainFrame, B1500A
TestParameter, Channel.UnitType, SMU, SMU, SMU, SMU
TestParameter, Channel.Unit, SMU2:HR, SMU1:HR, SMU3:HR, SMU4:HR
TestParameter, Channel.IName, ib, is, ig, id
TestParameter, Channel.VName, vb, vs, vg, vd
TestParameter, Channel.Mode, V, COMMON, V, V
TestParameter, Channel.Func, VAR2, CONST, VAR1, CONST
TestParameter, Channel.Index, 
TestParameter, Channel.Time, 
TestParameter, Measurement.Port.Unit, SMU2:HR, SMU1:HR, SMU3:HR, SMU4:HR
TestParameter, Measurement.Port.SeriesResistor, NONE, NONE, NONE, NONE
TestParameter, Measurement.Port.Filter, ON, ON, ON, ON
TestParameter, Measurement.Port.OutputVoltageComparison, 0, 0, 0, 0
TestParameter, Measurement.Primary.Locus, Single
TestParameter, Measurement.Primary.Scale, LINEAR
TestParameter, Measurement.Primary.Start, -0.5
TestParameter, Measurement.Primary.Stop, 3.3000000000000003
TestParameter, Measurement.Primary.Step, 0.01
TestParameter, Measurement.Primary.Compliance, 0.001
TestParameter, Measurement.Primary.PowerCompliance, 0
TestParameter, Measurement.Aborting.Condition, SKIP AT ANY ABNORMAL
TestParameter, Measurement.PostOutput.Value, START
TestParameter, Measurement.PostOutput.Retention, OFF
TestParameter, Measurement.Secondary.Start, 0
TestParameter, Measurement.Secondary.Count, 7
TestParameter, Measurement.Secondary.Step, -0.6
TestParameter, Measurement.Secondary.Compliance, 0.1
TestParameter, Measurement.Secondary.PowerCompliance, 0
TestParameter, Measurement.Bias.Source, 0, 0, -0.5, 0.05
TestParameter, Measurement.Bias.Compliance, 0.1, 0.1, 0.001, 0.1
TestParameter, Measurement.Monitor.Unit, SMU2:HR, SMU1:HR, SMU3:HR, SMU4:HR
TestParameter, Measurement.Monitor.Adc, HR ADC, HR ADC, HR ADC, HR ADC
TestParameter, Measurement.Monitor.Measurement, Compliance Side, Compliance Side, Compliance Side, Compliance Side
TestParameter, Measurement.Monitor.RangingMode, LIMITED, LIMITED, LIMITED, LIMITED
TestParameter, Measurement.Monitor.RangeBoundary, 1nA, 1nA, 1nA, 1nA
TestParameter, Measurement.Monitor.RangeRating, BY FULL RANGE, BY FULL RANGE, BY FULL RANGE, BY FULL RANGE
TestParameter, Measurement.Monitor.RangeRatingCoeff, 50, 50, 50, 50
TestParameter, Measurement.Timing.Hold, 0
TestParameter, Measurement.Timing.Delay, 0
TestParameter, Measurement.Adc.HighSpeed.Mode, AUTO
TestParameter, Measurement.Adc.HighSpeed.Coeff, 1
TestParameter, Measurement.Adc.HighResolution.AutoZero, OFF
TestParameter, Measurement.Adc.HighResolution.Mode, AUTO
TestParameter, Measurement.Adc.HighResolution.Coeff, 6
TestParameter, Measurement.WaitTime.Source.Coeff, 1
TestParameter, Measurement.WaitTime.Source.Offset, 0
TestParameter, Measurement.WaitTime.Monitor.Coeff, 1
TestParameter, Measurement.WaitTime.Monitor.Offset, 0
TestParameter, Output.Graph.Enabled, true
TestParameter, Output.Graph.AutoScaling, false
TestParameter, Output.Graph.XAxis.Data, vg
TestParameter, Output.Graph.XAxis.Scale, Linear
TestParameter, Output.Graph.XAxis.Left, 0
TestParameter, Output.Graph.XAxis.Right, 0.9
TestParameter, Output.Graph.XAxis.RunTimeAutoScale, true
TestParameter, Output.Graph.YAxis.Data, id
TestParameter, Output.Graph.YAxis.Scale, Linear
TestParameter, Output.Graph.YAxis.Bottom, -0.1
TestParameter, Output.Graph.YAxis.Top, 0.1
TestParameter, Output.Graph.YAxis.Group, 
TestParameter, Output.Graph.YAxis.RunTimeAutoScale, true
TestParameter, AutoAnalysis.Interpolation, false
TestParameter, AutoAnalysis.Var2StepCount, 1
TestParameter, AutoAnalysis.Var2StepScript, 
TestParameter, AutoAnalysis.Line1.Enabled, false
TestParameter, AutoAnalysis.Line1.Type, 1
TestParameter, AutoAnalysis.Line1.Fix, True
TestParameter, AutoAnalysis.Line1.YAxis, 0
TestParameter, AutoAnalysis.Line1.Point1.Type, 0
TestParameter, AutoAnalysis.Line1.Point1.XY.X, 
TestParameter, AutoAnalysis.Line1.Point1.XY.Y, 
TestParameter, AutoAnalysis.Line1.Point1.Data.Var, 
TestParameter, AutoAnalysis.Line1.Point1.Data.Condition, 
TestParameter, AutoAnalysis.Line1.Point1.Data.Start, false
TestParameter, AutoAnalysis.Line1.Point1.Data.StartVar, 
TestParameter, AutoAnalysis.Line1.Point1.Data.StartCondition, 
TestParameter, AutoAnalysis.Line1.Point2.Type, 0
TestParameter, AutoAnalysis.Line1.Point2.XY.X, 
TestParameter, AutoAnalysis.Line1.Point2.XY.Y, 
TestParameter, AutoAnalysis.Line1.Point2.Data.Var, 
TestParameter, AutoAnalysis.Line1.Point2.Data.Condition, 
TestParameter, AutoAnalysis.Line1.Point2.Data.Start, false
TestParameter, AutoAnalysis.Line1.Point2.Data.StartVar, 
TestParameter, AutoAnalysis.Line1.Point2.Data.StartCondition, 
TestParameter, AutoAnalysis.Line1.GradientExpr, 0
TestParameter, AutoAnalysis.Line2.Enabled, false
TestParameter, AutoAnalysis.Line2.Type, 1
TestParameter, AutoAnalysis.Line2.Fix, True
TestParameter, AutoAnalysis.Line2.YAxis, 0
TestParameter, AutoAnalysis.Line2.Point1.Type, 0
TestParameter, AutoAnalysis.Line2.Point1.XY.X, 
TestParameter, AutoAnalysis.Line2.Point1.XY.Y, 
TestParameter, AutoAnalysis.Line2.Point1.Data.Var, 
TestParameter, AutoAnalysis.Line2.Point1.Data.Condition, 
TestParameter, AutoAnalysis.Line2.Point1.Data.Start, false
TestParameter, AutoAnalysis.Line2.Point1.Data.StartVar, 
TestParameter, AutoAnalysis.Line2.Point1.Data.StartCondition, 
TestParameter, AutoAnalysis.Line2.Point2.Type, 0
TestParameter, AutoAnalysis.Line2.Point2.XY.X, 
TestParameter, AutoAnalysis.Line2.Point2.XY.Y, 
TestParameter, AutoAnalysis.Line2.Point2.Data.Var, 
TestParameter, AutoAnalysis.Line2.Point2.Data.Condition, 
TestParameter, AutoAnalysis.Line2.Point2.Data.Start, false
TestParameter, AutoAnalysis.Line2.Point2.Data.StartVar, 
TestParameter, AutoAnalysis.Line2.Point2.Data.StartCondition, 
TestParameter, AutoAnalysis.Line2.GradientExpr, 0
TestParameter, AutoAnalysis.Marker.Enabled, false
TestParameter, AutoAnalysis.Marker.Data.Var, 
TestParameter, AutoAnalysis.Marker.Data.Condition, 
TestParameter, AutoAnalysis.Marker.Data.Start, false
TestParameter, AutoAnalysis.Marker.Data.StartVar, 
TestParameter, AutoAnalysis.Marker.Data.StartCondition, 
MetaData, TestRecord.EntryPoint, true
MetaData, TestRecord.RecordTime, 01/15/2024 18:57:28
MetaData, TestRecord.TestTarget, N-1-1-298K
MetaData, TestRecord.IterationIndex, 1
MetaData, TestRecord.Preservation, true
MetaData, TestRecord.Flag, 
MetaData, TestRecord.Remarks, 
MetaData, TestRecord.LinkKey, b8537807-e258-4654-944e-094a5f607f37
MetaData, TestRecord.Parameters, 
Dimension1, 381, 381
Dimension2, 7, 7
DataName, vg, id
DataValue, -0.5, 2.87E-12
DataValue, -0.49, 8.32E-12
DataValue, -0.48, 1.4260000000000001E-11
DataValue, -0.47000000000000003, 7.7000000000000005E-13
DataValue, -0.46, 8.1800000000000011E-12
DataValue, -0.45, 1.2480000000000002E-11
DataValue, -0.44, -1.03E-12
DataValue, -0.43, 8.41E-12
DataValue, -0.42, 1.0600000000000001E-11
DataValue, -0.41000000000000003, -1.32E-12
DataValue, -0.4, 8.74E-12
DataValue, -0.39, 1.0720000000000001E-11
DataValue, -0.38, -8.8000000000000009E-13
DataValue, -0.37, 8.64E-12
DataValue, -0.36, 1.049E-11
DataValue, -0.35000000000000003, -1.21E-12
DataValue, -0.34, 8.92E-12
DataValue, -0.33, 9.6100000000000013E-12
DataValue, -0.32, -9.2000000000000012E-13
DataValue, -0.31, 1.035E-11
DataValue, -0.3, 8.8000000000000013E-12
DataValue, -0.29, 7.100000000000001E-13
DataValue, -0.28, 1.3150000000000001E-11
DataValue, -0.27, 8.0900000000000013E-12
DataValue, -0.26, 1.83E-12
DataValue, -0.25, 1.497E-11
DataValue, -0.24, 8.31E-12
DataValue, -0.23, 3.58E-12
DataValue, -0.22, 1.662E-11
DataValue, -0.21, 7.7600000000000009E-12
DataValue, -0.2, 2.0200000000000003E-12
DataValue, -0.19, 1.541E-11
DataValue, -0.18, 8.01E-12
DataValue, -0.17, 4.02E-12
DataValue, -0.16, 1.6870000000000002E-11
DataValue, -0.15, 7.7E-12
DataValue, -0.14, 5.8700000000000006E-12
DataValue, -0.13, 1.717E-11
DataValue, -0.12, 7.4700000000000011E-12
DataValue, -0.11, 7.1800000000000005E-12
DataValue, -0.1, 1.6580000000000002E-11
DataValue, -0.09, 5.28E-12
DataValue, -0.08, 7.9E-12
DataValue, -0.07, 1.502E-11
DataValue, -0.06, 2.5800000000000003E-12
DataValue, -0.05, 8.04E-12
DataValue, -0.04, 1.403E-11
DataValue, -0.03, 5.1700000000000008E-12
DataValue, -0.02, 6.6300000000000006E-12
DataValue, -0.01, 1.683E-11
DataValue, 0, 7.5600000000000009E-12
DataValue, 0.01, 5.1000000000000005E-12
DataValue, 0.02, 1.7380000000000002E-11
DataValue, 0.03, 7.4E-12
DataValue, 0.04, 6.3300000000000007E-12
DataValue, 0.05, 1.6740000000000002E-11
DataValue, 0.06, 7.85E-12
DataValue, 0.07, 2.37E-12
DataValue, 0.08, 1.3040000000000001E-11
DataValue, 0.09, 9.4100000000000013E-12
DataValue, 0.1, -1.3E-13
DataValue, 0.11, 9.0900000000000011E-12
DataValue, 0.12, 1.15E-11
DataValue, 0.13, 6.8E-13
DataValue, 0.14, 8.23E-12
DataValue, 0.15, 1.548E-11
DataValue, 0.16, 6.56E-12
DataValue, 0.17, 6.4300000000000007E-12
DataValue, 0.18, 1.7380000000000002E-11
DataValue, 0.19, 8.1800000000000011E-12
DataValue, 0.2, 4.6000000000000006E-12
DataValue, 0.21, 1.513E-11
DataValue, 0.22, 8.9800000000000009E-12
DataValue, 0.23, 6.3E-13
DataValue, 0.24, 9.55E-12
DataValue, 0.25, 1.068E-11
DataValue, 0.26, 6.1E-13
DataValue, 0.27, 9.96E-12
DataValue, 0.28, 1.458E-11
DataValue, 0.29, 5.08E-12
DataValue, 0.3, 1.0900000000000001E-11
DataValue, 0.31, 2.059E-11
DataValue, 0.32, 1.1950000000000001E-11
DataValue, 0.33, 1.2470000000000002E-11
DataValue, 0.34, 2.4280000000000002E-11
DataValue, 0.35000000000000003, 1.739E-11
DataValue, 0.36, 1.4280000000000001E-11
DataValue, 0.37, 2.7190000000000002E-11
DataValue, 0.38, 2.8010000000000002E-11
DataValue, 0.39, 2.4790000000000002E-11
DataValue, 0.4, 4.0880000000000005E-11
DataValue, 0.41000000000000003, 5.3260000000000005E-11
DataValue, 0.42, 5.2780000000000004E-11
DataValue, 0.43, 7.439E-11
DataValue, 0.44, 1.016E-10
DataValue, 0.45, 1.1285E-10
DataValue, 0.46, 1.4532000000000002E-10
DataValue, 0.47000000000000003, 1.9669000000000002E-10
DataValue, 0.48, 2.3666000000000004E-10
DataValue, 0.49, 2.9567E-10
DataValue, 0.5, 3.9149E-10
DataValue, 0.51, 4.8618000000000007E-10
DataValue, 0.52, 6.2138000000000008E-10
DataValue, 0.53, 7.9431E-10
DataValue, 0.54, 1.0156800000000002E-09
DataValue, 0.55, 1.3847E-09
DataValue, 0.56, 1.6734E-09
DataValue, 0.57000000000000006, 2.1509E-09
DataValue, 0.58, 2.7434E-09
DataValue, 0.59, 3.4955E-09
DataValue, 0.6, 4.5551E-09
DataValue, 0.61, 5.6924E-09
DataValue, 0.62, 7.2641E-09
DataValue, 0.63, 9.3655E-09
DataValue, 0.64, 1.2219799999999999E-08
DataValue, 0.65, 1.54306E-08
DataValue, 0.66, 1.9368599999999998E-08
DataValue, 0.67, 2.4370399999999998E-08
DataValue, 0.68, 3.03012E-08
DataValue, 0.69000000000000006, 3.7559999999999994E-08
DataValue, 0.70000000000000007, 4.6457599999999996E-08
DataValue, 0.71, 5.6709999999999996E-08
DataValue, 0.72, 6.902999999999999E-08
DataValue, 0.73, 8.35704E-08
DataValue, 0.74, 1.0031959999999999E-07
DataValue, 0.75, 1.1996E-07
DataValue, 0.76, 1.4192E-07
DataValue, 0.77, 1.6748E-07
DataValue, 0.78, 1.9596E-07
DataValue, 0.79, 2.2812E-07
DataValue, 0.8, 2.6196E-07
DataValue, 0.81, 2.9993999999999997E-07
DataValue, 0.82000000000000006, 3.4218E-07
DataValue, 0.83000000000000007, 3.8698E-07
DataValue, 0.84, 4.3526E-07
DataValue, 0.85, 4.8636E-07
DataValue, 0.86, 5.4018E-07
DataValue, 0.87, 5.979E-07
DataValue, 0.88, 6.579E-07
DataValue, 0.89, 7.2062E-07
DataValue, 0.9, 7.854E-07
DataValue, 0.91, 8.5272E-07
DataValue, 0.92, 9.2152E-07
DataValue, 0.93, 9.9418E-07
DataValue, 0.94000000000000006, 1.0656799999999999E-06
DataValue, 0.95000000000000007, 1.13932E-06
DataValue, 0.96, 1.2135000000000001E-06
DataValue, 0.97, 1.2924000000000001E-06
DataValue, 0.98, 1.3716000000000001E-06
DataValue, 0.99, 1.4495E-06
DataValue, 1, 1.5283000000000003E-06
DataValue, 1.01, 1.6098000000000002E-06
DataValue, 1.02, 1.6902000000000001E-06
DataValue, 1.03, 1.7725000000000002E-06
DataValue, 1.04, 1.8563000000000001E-06
DataValue, 1.05, 1.9407000000000003E-06
DataValue, 1.06, 2.0222000000000003E-06
DataValue, 1.07, 2.1051000000000004E-06
DataValue, 1.08, 2.1903E-06
DataValue, 1.09, 2.2737000000000004E-06
DataValue, 1.1, 2.359E-06
DataValue, 1.11, 2.4443E-06
DataValue, 1.12, 2.5288000000000003E-06
DataValue, 1.1300000000000001, 2.6124E-06
DataValue, 1.1400000000000001, 2.6966E-06
DataValue, 1.1500000000000001, 2.7832000000000003E-06
DataValue, 1.16, 2.8657000000000004E-06
DataValue, 1.17, 2.9515000000000005E-06
DataValue, 1.18, 3.0362000000000003E-06
DataValue, 1.19, 3.1221E-06
DataValue, 1.2, 3.2043000000000004E-06
DataValue, 1.21, 3.2885000000000004E-06
DataValue, 1.22, 3.3742000000000002E-06
DataValue, 1.23, 3.4565000000000003E-06
DataValue, 1.24, 3.5410000000000005E-06
DataValue, 1.25, 3.6258000000000005E-06
DataValue, 1.26, 3.7097000000000002E-06
DataValue, 1.27, 3.7925000000000005E-06
DataValue, 1.28, 3.8755E-06
DataValue, 1.29, 3.9593E-06
DataValue, 1.3, 4.0427E-06
DataValue, 1.31, 4.1240000000000007E-06
DataValue, 1.32, 4.208E-06
DataValue, 1.33, 4.2913000000000007E-06
DataValue, 1.34, 4.3700000000000005E-06
DataValue, 1.35, 4.4533E-06
DataValue, 1.36, 4.5346000000000006E-06
DataValue, 1.37, 4.6159E-06
DataValue, 1.3800000000000001, 4.697E-06
DataValue, 1.3900000000000001, 4.7783000000000005E-06
DataValue, 1.4000000000000001, 4.8578E-06
DataValue, 1.41, 4.9381E-06
DataValue, 1.42, 5.0195000000000008E-06
DataValue, 1.43, 5.0968000000000009E-06
DataValue, 1.44, 5.1799E-06
DataValue, 1.45, 5.2609000000000007E-06
DataValue, 1.46, 5.3358000000000006E-06
DataValue, 1.47, 5.4136E-06
DataValue, 1.48, 5.4949000000000005E-06
DataValue, 1.49, 5.5715000000000008E-06
DataValue, 1.5, 5.6509E-06
DataValue, 1.51, 5.7310000000000007E-06
DataValue, 1.52, 5.8074000000000005E-06
DataValue, 1.53, 5.881400000000001E-06
DataValue, 1.54, 5.9594000000000009E-06
DataValue, 1.55, 6.0365000000000006E-06
DataValue, 1.56, 6.1107000000000006E-06
DataValue, 1.57, 6.1891000000000006E-06
DataValue, 1.58, 6.2662E-06
DataValue, 1.59, 6.3387000000000008E-06
DataValue, 1.6, 6.4123E-06
DataValue, 1.61, 6.4921000000000009E-06
DataValue, 1.62, 6.5625E-06
DataValue, 1.6300000000000001, 6.6354000000000009E-06
DataValue, 1.6400000000000001, 6.7136E-06
DataValue, 1.6500000000000001, 6.7846000000000011E-06
DataValue, 1.6600000000000001, 6.8571000000000008E-06
DataValue, 1.67, 6.9332000000000008E-06
DataValue, 1.68, 7.0043000000000009E-06
DataValue, 1.69, 7.0732E-06
DataValue, 1.7, 7.1486000000000005E-06
DataValue, 1.71, 7.2204E-06
DataValue, 1.72, 7.2882000000000008E-06
DataValue, 1.73, 7.3628000000000009E-06
DataValue, 1.74, 7.4355000000000011E-06
DataValue, 1.75, 7.5024E-06
DataValue, 1.76, 7.5732000000000006E-06
DataValue, 1.77, 7.6451E-06
DataValue, 1.78, 7.7103000000000014E-06
DataValue, 1.79, 7.7806000000000014E-06
DataValue, 1.8, 7.8534E-06
DataValue, 1.81, 7.9214E-06
DataValue, 1.82, 7.984400000000001E-06
DataValue, 1.83, 8.0559E-06
DataValue, 1.84, 8.125800000000001E-06
DataValue, 1.85, 8.1902000000000016E-06
DataValue, 1.86, 8.2557000000000013E-06
DataValue, 1.87, 8.3256E-06
DataValue, 1.8800000000000001, 8.3923000000000009E-06
DataValue, 1.8900000000000001, 8.4535000000000013E-06
DataValue, 1.9000000000000001, 8.5192000000000014E-06
DataValue, 1.9100000000000001, 8.5899E-06
DataValue, 1.92, 8.6536000000000013E-06
DataValue, 1.93, 8.7155000000000015E-06
DataValue, 1.94, 8.7823E-06
DataValue, 1.95, 8.8489000000000009E-06
DataValue, 1.96, 8.9099000000000009E-06
DataValue, 1.97, 8.970200000000001E-06
DataValue, 1.98, 9.0357E-06
DataValue, 1.99, 9.0997E-06
DataValue, 2, 9.1565000000000012E-06
DataValue, 2.0100000000000002, 9.2196E-06
DataValue, 2.02, 9.2857000000000016E-06
DataValue, 2.0300000000000002, 9.3428000000000014E-06
DataValue, 2.04, 9.4028E-06
DataValue, 2.05, 9.4677000000000008E-06
DataValue, 2.06, 9.528800000000001E-06
DataValue, 2.07, 9.5833E-06
DataValue, 2.08, 9.6446E-06
DataValue, 2.09, 9.7085E-06
DataValue, 2.1, 9.7672E-06
DataValue, 2.11, 9.8243000000000018E-06
DataValue, 2.12, 9.8858000000000011E-06
DataValue, 2.13, 9.9441E-06
DataValue, 2.14, 9.9968E-06
DataValue, 2.15, 1.0055000000000001E-05
DataValue, 2.16, 1.0115400000000001E-05
DataValue, 2.17, 1.0170900000000001E-05
DataValue, 2.18, 1.0224E-05
DataValue, 2.19, 1.02834E-05
DataValue, 2.2, 1.0344700000000001E-05
DataValue, 2.21, 1.03931E-05
DataValue, 2.22, 1.04496E-05
DataValue, 2.23, 1.0510900000000001E-05
DataValue, 2.24, 1.0563E-05
DataValue, 2.25, 1.0612700000000001E-05
DataValue, 2.2600000000000002, 1.06628E-05
DataValue, 2.27, 1.07252E-05
DataValue, 2.2800000000000002, 1.0772900000000002E-05
DataValue, 2.29, 1.08227E-05
DataValue, 2.3000000000000003, 1.0882800000000002E-05
DataValue, 2.31, 1.09354E-05
DataValue, 2.32, 1.09802E-05
DataValue, 2.33, 1.1032600000000002E-05
DataValue, 2.34, 1.1089500000000001E-05
DataValue, 2.35, 1.1138400000000002E-05
DataValue, 2.36, 1.1185300000000001E-05
DataValue, 2.37, 1.1241000000000001E-05
DataValue, 2.38, 1.1291200000000001E-05
DataValue, 2.39, 1.1335200000000001E-05
DataValue, 2.4, 1.1385700000000002E-05
DataValue, 2.41, 1.14431E-05
DataValue, 2.42, 1.1489800000000001E-05
DataValue, 2.43, 1.1534E-05
DataValue, 2.44, 1.1578E-05
DataValue, 2.45, 1.163E-05
DataValue, 2.46, 1.1682000000000001E-05
DataValue, 2.47, 1.172E-05
DataValue, 2.48, 1.1768E-05
DataValue, 2.49, 1.1822E-05
DataValue, 2.5, 1.1868E-05
DataValue, 2.5100000000000002, 1.1908E-05
DataValue, 2.52, 1.1954000000000001E-05
DataValue, 2.5300000000000002, 1.2006E-05
DataValue, 2.54, 1.2052E-05
DataValue, 2.5500000000000003, 1.2094E-05
DataValue, 2.56, 1.2136E-05
DataValue, 2.57, 1.2186E-05
DataValue, 2.58, 1.2234E-05
DataValue, 2.59, 1.2278E-05
DataValue, 2.6, 1.231E-05
DataValue, 2.61, 1.2356E-05
DataValue, 2.62, 1.2402000000000001E-05
DataValue, 2.63, 1.2440000000000001E-05
DataValue, 2.64, 1.248E-05
DataValue, 2.65, 1.2528000000000001E-05
DataValue, 2.66, 1.2568E-05
DataValue, 2.67, 1.2608E-05
DataValue, 2.68, 1.2654000000000001E-05
DataValue, 2.69, 1.2698000000000001E-05
DataValue, 2.7, 1.273E-05
DataValue, 2.71, 1.2774E-05
DataValue, 2.72, 1.2818E-05
DataValue, 2.73, 1.2854000000000001E-05
DataValue, 2.74, 1.289E-05
DataValue, 2.75, 1.2934E-05
DataValue, 2.7600000000000002, 1.2976E-05
DataValue, 2.77, 1.3008E-05
DataValue, 2.7800000000000002, 1.3046E-05
DataValue, 2.79, 1.309E-05
DataValue, 2.8000000000000003, 1.3128E-05
DataValue, 2.81, 1.3164E-05
DataValue, 2.82, 1.3194000000000001E-05
DataValue, 2.83, 1.324E-05
DataValue, 2.84, 1.3276000000000001E-05
DataValue, 2.85, 1.3306000000000001E-05
DataValue, 2.86, 1.3342E-05
DataValue, 2.87, 1.339E-05
DataValue, 2.88, 1.3422000000000001E-05
DataValue, 2.89, 1.3446E-05
DataValue, 2.9, 1.3490000000000001E-05
DataValue, 2.91, 1.3530000000000001E-05
DataValue, 2.92, 1.3562E-05
DataValue, 2.93, 1.359E-05
DataValue, 2.94, 1.3628E-05
DataValue, 2.95, 1.3662E-05
DataValue, 2.96, 1.3694E-05
DataValue, 2.97, 1.3722E-05
DataValue, 2.98, 1.3756E-05
DataValue, 2.99, 1.3798E-05
DataValue, 3, 1.3824E-05
DataValue, 3.0100000000000002, 1.3850000000000001E-05
DataValue, 3.02, 1.389E-05
DataValue, 3.0300000000000002, 1.3928000000000001E-05
DataValue, 3.04, 1.3944E-05
DataValue, 3.0500000000000003, 1.399E-05
DataValue, 3.06, 1.4020000000000001E-05
DataValue, 3.0700000000000003, 1.4042E-05
DataValue, 3.08, 1.408E-05
DataValue, 3.09, 1.411E-05
DataValue, 3.1, 1.4136E-05
DataValue, 3.11, 1.4168E-05
DataValue, 3.12, 1.4200000000000001E-05
DataValue, 3.13, 1.4232E-05
DataValue, 3.14, 1.4252E-05
DataValue, 3.15, 1.4284E-05
DataValue, 3.16, 1.432E-05
DataValue, 3.17, 1.4344E-05
DataValue, 3.18, 1.4366000000000001E-05
DataValue, 3.19, 1.4402E-05
DataValue, 3.2, 1.444E-05
DataValue, 3.21, 1.4456E-05
DataValue, 3.22, 1.448E-05
DataValue, 3.23, 1.4512000000000001E-05
DataValue, 3.24, 1.4536000000000001E-05
DataValue, 3.25, 1.4564E-05
DataValue, 3.2600000000000002, 1.4594000000000001E-05
DataValue, 3.27, 1.462E-05
DataValue, 3.2800000000000002, 1.4636E-05
DataValue, 3.29, 1.4668000000000001E-05
DataValue, 3.3000000000000003, 1.4692000000000001E-05
DataValue, -0.5, 9.2000000000000012E-12
DataValue, -0.49, 2.92E-12
DataValue, -0.48, 1.7870000000000002E-11
