
SetupTitle, NMOS-id-vd-vgs@vbs=0
PrimitiveTest, I/V Sweep
TestParameter, Context.MainFrame, B1500A
TestParameter, Channel.UnitType, SMU, SMU, SMU, SMU
TestParameter, Channel.Unit, SMU2:HR, SMU1:HR, SMU3:HR, SMU4:HR
TestParameter, Channel.IName, ib, is, ig, id
TestParameter, Channel.VName, vb, vs, vg, vd
TestParameter, Channel.Mode, V, COMMON, V, V
TestParameter, Channel.Func, CONST, CONST, VAR2, VAR1
TestParameter, Channel.Index, 
TestParameter, Channel.Time, 
TestParameter, Measurement.Port.Unit, SMU2:HR, SMU1:HR, SMU3:HR, SMU4:HR
TestParameter, Measurement.Port.SeriesResistor, NONE, NONE, NONE, NONE
TestParameter, Measurement.Port.Filter, ON, ON, ON, ON
TestParameter, Measurement.Port.OutputVoltageComparison, 0, 0, 0, 0
TestParameter, Measurement.Primary.Locus, Single
TestParameter, Measurement.Primary.Scale, LINEAR
TestParameter, Measurement.Primary.Start, 0
TestParameter, Measurement.Primary.Stop, 3.3000000000000003
TestParameter, Measurement.Primary.Step, 0.01
TestParameter, Measurement.Primary.Compliance, 0.1
TestParameter, Measurement.Primary.PowerCompliance, 0
TestParameter, Measurement.Aborting.Condition, SKIP AT ANY ABNORMAL
TestParameter, Measurement.PostOutput.Value, START
TestParameter, Measurement.PostOutput.Retention, OFF
TestParameter, Measurement.Secondary.Start, 0.3
TestParameter, Measurement.Secondary.Count, 6
TestParameter, Measurement.Secondary.Step, 0.6
TestParameter, Measurement.Secondary.Compliance, 0.1
TestParameter, Measurement.Secondary.PowerCompliance, 0
TestParameter, Measurement.Bias.Source, 0, 0, 0.3, 0
TestParameter, Measurement.Bias.Compliance, 0.1, 0.1, 0.1, 0.1
TestParameter, Measurement.Monitor.Unit, SMU2:HR, SMU1:HR, SMU3:HR, SMU4:HR
TestParameter, Measurement.Monitor.Adc, HR ADC, HR ADC, HR ADC, HR ADC
TestParameter, Measurement.Monitor.Measurement, Compliance Side, Compliance Side, Compliance Side, Compliance Side
TestParameter, Measurement.Monitor.RangingMode, LIMITED, LIMITED, LIMITED, LIMITED
TestParameter, Measurement.Monitor.RangeBoundary, 1nA, 1nA, 1nA, 1nA
TestParameter, Measurement.Monitor.RangeRating, BY FULL RANGE, BY FULL RANGE, BY FULL RANGE, BY FULL RANGE
TestParameter, Measurement.Monitor.RangeRatingCoeff, 50, 50, 50, 50
TestParameter, Measurement.Timing.Hold, 0
TestParameter, Measurement.Timing.Delay, 0
TestParameter, Measurement.Adc.HighSpeed.Mode, AUTO
TestParameter, Measurement.Adc.HighSpeed.Coeff, 1
TestParameter, Measurement.Adc.HighResolution.AutoZero, OFF
TestParameter, Measurement.Adc.HighResolution.Mode, AUTO
TestParameter, Measurement.Adc.HighResolution.Coeff, 6
TestParameter, Measurement.WaitTime.Source.Coeff, 1
TestParameter, Measurement.WaitTime.Source.Offset, 0
TestParameter, Measurement.WaitTime.Monitor.Coeff, 1
TestParameter, Measurement.WaitTime.Monitor.Offset, 0
TestParameter, Output.Graph.Enabled, true
TestParameter, Output.Graph.AutoScaling, false
TestParameter, Output.Graph.XAxis.Data, vd
TestParameter, Output.Graph.XAxis.Scale, Linear
TestParameter, Output.Graph.XAxis.Left, 0
TestParameter, Output.Graph.XAxis.Right, 1
TestParameter, Output.Graph.XAxis.RunTimeAutoScale, true
TestParameter, Output.Graph.YAxis.Data, id
TestParameter, Output.Graph.YAxis.Scale, Linear
TestParameter, Output.Graph.YAxis.Bottom, -0.1
TestParameter, Output.Graph.YAxis.Top, 0.1
TestParameter, Output.Graph.YAxis.Group, 
TestParameter, Output.Graph.YAxis.RunTimeAutoScale, true
TestParameter, AutoAnalysis.Interpolation, false
TestParameter, AutoAnalysis.Var2StepCount, 1
TestParameter, AutoAnalysis.Var2StepScript, 
TestParameter, AutoAnalysis.Line1.Enabled, false
TestParameter, AutoAnalysis.Line1.Type, 1
TestParameter, AutoAnalysis.Line1.Fix, True
TestParameter, AutoAnalysis.Line1.YAxis, 0
TestParameter, AutoAnalysis.Line1.Point1.Type, 0
TestParameter, AutoAnalysis.Line1.Point1.XY.X, 
TestParameter, AutoAnalysis.Line1.Point1.XY.Y, 
TestParameter, AutoAnalysis.Line1.Point1.Data.Var, 
TestParameter, AutoAnalysis.Line1.Point1.Data.Condition, 
TestParameter, AutoAnalysis.Line1.Point1.Data.Start, false
TestParameter, AutoAnalysis.Line1.Point1.Data.StartVar, 
TestParameter, AutoAnalysis.Line1.Point1.Data.StartCondition, 
TestParameter, AutoAnalysis.Line1.Point2.Type, 0
TestParameter, AutoAnalysis.Line1.Point2.XY.X, 
TestParameter, AutoAnalysis.Line1.Point2.XY.Y, 
TestParameter, AutoAnalysis.Line1.Point2.Data.Var, 
TestParameter, AutoAnalysis.Line1.Point2.Data.Condition, 
TestParameter, AutoAnalysis.Line1.Point2.Data.Start, false
TestParameter, AutoAnalysis.Line1.Point2.Data.StartVar, 
TestParameter, AutoAnalysis.Line1.Point2.Data.StartCondition, 
TestParameter, AutoAnalysis.Line1.GradientExpr, 0
TestParameter, AutoAnalysis.Line2.Enabled, false
TestParameter, AutoAnalysis.Line2.Type, 1
TestParameter, AutoAnalysis.Line2.Fix, True
TestParameter, AutoAnalysis.Line2.YAxis, 0
TestParameter, AutoAnalysis.Line2.Point1.Type, 0
TestParameter, AutoAnalysis.Line2.Point1.XY.X, 
TestParameter, AutoAnalysis.Line2.Point1.XY.Y, 
TestParameter, AutoAnalysis.Line2.Point1.Data.Var, 
TestParameter, AutoAnalysis.Line2.Point1.Data.Condition, 
TestParameter, AutoAnalysis.Line2.Point1.Data.Start, false
TestParameter, AutoAnalysis.Line2.Point1.Data.StartVar, 
TestParameter, AutoAnalysis.Line2.Point1.Data.StartCondition, 
TestParameter, AutoAnalysis.Line2.Point2.Type, 0
TestParameter, AutoAnalysis.Line2.Point2.XY.X, 
TestParameter, AutoAnalysis.Line2.Point2.XY.Y, 
TestParameter, AutoAnalysis.Line2.Point2.Data.Var, 
TestParameter, AutoAnalysis.Line2.Point2.Data.Condition, 
TestParameter, AutoAnalysis.Line2.Point2.Data.Start, false
TestParameter, AutoAnalysis.Line2.Point2.Data.StartVar, 
TestParameter, AutoAnalysis.Line2.Point2.Data.StartCondition, 
TestParameter, AutoAnalysis.Line2.GradientExpr, 0
TestParameter, AutoAnalysis.Marker.Enabled, false
TestParameter, AutoAnalysis.Marker.Data.Var, 
TestParameter, AutoAnalysis.Marker.Data.Condition, 
TestParameter, AutoAnalysis.Marker.Data.Start, false
TestParameter, AutoAnalysis.Marker.Data.StartVar, 
TestParameter, AutoAnalysis.Marker.Data.StartCondition, 
MetaData, TestRecord.EntryPoint, true
MetaData, TestRecord.RecordTime, 01/15/2024 18:58:13
MetaData, TestRecord.TestTarget, N-1-1-298K
MetaData, TestRecord.IterationIndex, 1
MetaData, TestRecord.Preservation, true
MetaData, TestRecord.Flag, 
MetaData, TestRecord.Remarks, 
MetaData, TestRecord.LinkKey, 0687dd0b-e041-4cd2-bb49-2c2d46e277c5
MetaData, TestRecord.Parameters, 
Dimension1, 331, 331
Dimension2, 6, 6
DataName, vd, id
DataValue, 0, 1.0930000000000001E-11
DataValue, 0.01, 8.24E-12
DataValue, 0.02, 1.1210000000000001E-11
DataValue, 0.03, 1.0430000000000001E-11
DataValue, 0.04, 1.199E-11
DataValue, 0.05, 1.1450000000000002E-11
DataValue, 0.06, 1.1870000000000002E-11
DataValue, 0.07, 1.1750000000000001E-11
DataValue, 0.08, 1.1850000000000001E-11
DataValue, 0.09, 1.1950000000000001E-11
DataValue, 0.1, 1.1850000000000001E-11
DataValue, 0.11, 1.2830000000000001E-11
DataValue, 0.12, 1.0720000000000001E-11
DataValue, 0.13, 1.363E-11
DataValue, 0.14, 9.3800000000000008E-12
DataValue, 0.15, 1.454E-11
DataValue, 0.16, 8.02E-12
DataValue, 0.17, 1.6870000000000002E-11
DataValue, 0.18, 6.1300000000000007E-12
DataValue, 0.19, 1.9090000000000002E-11
DataValue, 0.2, 4.84E-12
DataValue, 0.21, 2.0150000000000003E-11
DataValue, 0.22, 3.07E-12
DataValue, 0.23, 2.0970000000000003E-11
DataValue, 0.24, 2.8100000000000003E-12
DataValue, 0.25, 2.1000000000000002E-11
DataValue, 0.26, 3.1600000000000003E-12
DataValue, 0.27, 1.999E-11
DataValue, 0.28, 5.04E-12
DataValue, 0.29, 1.775E-11
DataValue, 0.3, 8.21E-12
DataValue, 0.31, 1.459E-11
DataValue, 0.32, 1.1030000000000001E-11
DataValue, 0.33, 1.279E-11
DataValue, 0.34, 1.1840000000000001E-11
DataValue, 0.35000000000000003, 1.2750000000000001E-11
DataValue, 0.36, 1.1460000000000002E-11
DataValue, 0.37, 1.2320000000000001E-11
DataValue, 0.38, 1.1740000000000001E-11
DataValue, 0.39, 1.2270000000000002E-11
DataValue, 0.4, 1.2530000000000001E-11
DataValue, 0.41000000000000003, 1.181E-11
DataValue, 0.42, 1.302E-11
DataValue, 0.43, 1.0920000000000001E-11
DataValue, 0.44, 1.3990000000000002E-11
DataValue, 0.45, 9.5200000000000014E-12
DataValue, 0.46, 1.65E-11
DataValue, 0.47000000000000003, 7.3800000000000013E-12
DataValue, 0.48, 1.788E-11
DataValue, 0.49, 5.53E-12
DataValue, 0.5, 1.9860000000000003E-11
DataValue, 0.51, 4.2000000000000007E-12
DataValue, 0.52, 2.1060000000000003E-11
DataValue, 0.53, 2.9E-12
DataValue, 0.54, 2.107E-11
DataValue, 0.55, 3.3900000000000003E-12
DataValue, 0.56, 2.11E-11
DataValue, 0.57000000000000006, 4.62E-12
DataValue, 0.58, 1.9800000000000002E-11
DataValue, 0.59, 6.04E-12
DataValue, 0.6, 1.6940000000000002E-11
DataValue, 0.61, 8.64E-12
DataValue, 0.62, 1.52E-11
DataValue, 0.63, 1.058E-11
DataValue, 0.64, 1.823E-11
DataValue, 0.65, 7.52E-12
DataValue, 0.66, 1.5920000000000002E-11
DataValue, 0.67, 9.97E-12
DataValue, 0.68, 1.3850000000000001E-11
DataValue, 0.69000000000000006, 1.1720000000000001E-11
DataValue, 0.70000000000000007, 1.3170000000000001E-11
DataValue, 0.71, 1.251E-11
DataValue, 0.72, 1.3080000000000002E-11
DataValue, 0.73, 1.209E-11
DataValue, 0.74, 1.2730000000000001E-11
DataValue, 0.75, 1.2370000000000002E-11
DataValue, 0.76, 1.23E-11
DataValue, 0.77, 1.2950000000000001E-11
DataValue, 0.78, 1.1840000000000001E-11
DataValue, 0.79, 1.363E-11
DataValue, 0.8, 1.1210000000000001E-11
DataValue, 0.81, 1.452E-11
DataValue, 0.82000000000000006, 9.4100000000000013E-12
DataValue, 0.83000000000000007, 1.688E-11
DataValue, 0.84, 7.5900000000000014E-12
DataValue, 0.85, 1.87E-11
DataValue, 0.86, 5.5700000000000007E-12
DataValue, 0.87, 1.9780000000000002E-11
DataValue, 0.88, 4.4000000000000006E-12
DataValue, 0.89, 2.116E-11
DataValue, 0.9, 3.6800000000000005E-12
DataValue, 0.91, 2.158E-11
DataValue, 0.92, 3.5500000000000004E-12
DataValue, 0.93, 2.138E-11
DataValue, 0.94000000000000006, 3.13E-12
DataValue, 0.95000000000000007, 2.172E-11
DataValue, 0.96, 3.5900000000000003E-12
DataValue, 0.97, 2.0890000000000002E-11
DataValue, 0.98, 3.56E-12
DataValue, 0.99, 2.1820000000000002E-11
DataValue, 1, 3.4700000000000004E-12
DataValue, 1.01, 2.129E-11
DataValue, 1.02, 3.77E-12
DataValue, 1.03, 2.0260000000000003E-11
DataValue, 1.04, 5.4200000000000007E-12
DataValue, 1.05, 1.8510000000000003E-11
DataValue, 1.06, 8.12E-12
DataValue, 1.07, 1.6380000000000003E-11
DataValue, 1.08, 1.017E-11
DataValue, 1.09, 1.4360000000000001E-11
DataValue, 1.1, 1.2230000000000001E-11
DataValue, 1.11, 1.3170000000000001E-11
DataValue, 1.12, 1.2250000000000001E-11
DataValue, 1.1300000000000001, 1.31E-11
DataValue, 1.1400000000000001, 1.2130000000000001E-11
DataValue, 1.1500000000000001, 1.3160000000000001E-11
DataValue, 1.16, 1.291E-11
DataValue, 1.17, 1.289E-11
DataValue, 1.18, 1.311E-11
DataValue, 1.19, 1.1960000000000002E-11
DataValue, 1.2, 1.2780000000000002E-11
DataValue, 1.21, 1.2270000000000002E-11
DataValue, 1.22, 1.381E-11
DataValue, 1.23, 1.1650000000000002E-11
DataValue, 1.24, 1.433E-11
DataValue, 1.25, 1.0640000000000002E-11
DataValue, 1.26, 1.612E-11
DataValue, 1.27, 8.680000000000001E-12
DataValue, 1.28, 1.737E-11
DataValue, 1.29, 7.4E-12
DataValue, 1.3, 1.928E-11
DataValue, 1.31, 5.38E-12
DataValue, 1.32, 2.0440000000000003E-11
DataValue, 1.33, 4.4000000000000006E-12
DataValue, 1.34, 2.1530000000000002E-11
DataValue, 1.35, 3.9E-12
DataValue, 1.36, 2.154E-11
DataValue, 1.37, 3.7400000000000006E-12
DataValue, 1.3800000000000001, 2.1420000000000002E-11
DataValue, 1.3900000000000001, 4.36E-12
DataValue, 1.4000000000000001, 1.996E-11
DataValue, 1.41, 6.6E-12
DataValue, 1.42, 1.814E-11
DataValue, 1.43, 5.8600000000000005E-12
DataValue, 1.44, 2.149E-11
DataValue, 1.45, 4.33E-12
DataValue, 1.46, 2.067E-11
DataValue, 1.47, 5.8200000000000006E-12
DataValue, 1.48, 1.899E-11
DataValue, 1.49, 8.21E-12
DataValue, 1.5, 1.5890000000000003E-11
DataValue, 1.51, 1.0610000000000001E-11
DataValue, 1.52, 1.432E-11
DataValue, 1.53, 1.2230000000000001E-11
DataValue, 1.54, 1.3470000000000001E-11
DataValue, 1.55, 1.28E-11
DataValue, 1.56, 1.3680000000000002E-11
DataValue, 1.57, 1.2660000000000001E-11
DataValue, 1.58, 1.3290000000000002E-11
DataValue, 1.59, 1.2730000000000001E-11
DataValue, 1.6, 1.289E-11
DataValue, 1.61, 1.3190000000000002E-11
DataValue, 1.62, 1.2360000000000002E-11
DataValue, 1.6300000000000001, 1.402E-11
DataValue, 1.6400000000000001, 1.149E-11
DataValue, 1.6500000000000001, 1.47E-11
DataValue, 1.6600000000000001, 1.0810000000000001E-11
DataValue, 1.67, 1.659E-11
DataValue, 1.68, 8.92E-12
DataValue, 1.69, 1.772E-11
DataValue, 1.7, 7.53E-12
DataValue, 1.71, 1.928E-11
DataValue, 1.72, 5.7800000000000008E-12
DataValue, 1.73, 2.0800000000000002E-11
DataValue, 1.74, 4.43E-12
DataValue, 1.75, 2.1770000000000003E-11
DataValue, 1.76, 3.9900000000000006E-12
DataValue, 1.77, 2.169E-11
DataValue, 1.78, 3.75E-12
DataValue, 1.79, 2.1790000000000003E-11
DataValue, 1.8, 4.41E-12
DataValue, 1.81, 2.0510000000000002E-11
DataValue, 1.82, 6.3900000000000008E-12
DataValue, 1.83, 2.103E-11
DataValue, 1.84, 5.85E-12
DataValue, 1.85, 1.896E-11
DataValue, 1.86, 8.04E-12
DataValue, 1.87, 1.6960000000000002E-11
DataValue, 1.8800000000000001, 9.900000000000001E-12
DataValue, 1.8900000000000001, 1.575E-11
DataValue, 1.9000000000000001, 1.2040000000000001E-11
DataValue, 1.9100000000000001, 1.381E-11
DataValue, 1.92, 1.251E-11
DataValue, 1.93, 1.3960000000000001E-11
DataValue, 1.94, 1.2960000000000001E-11
DataValue, 1.95, 1.353E-11
DataValue, 1.96, 1.2740000000000001E-11
DataValue, 1.97, 1.343E-11
DataValue, 1.98, 1.33E-11
DataValue, 1.99, 1.3260000000000001E-11
DataValue, 2, 1.351E-11
DataValue, 2.0100000000000002, 1.282E-11
DataValue, 2.02, 1.382E-11
DataValue, 2.0300000000000002, 1.178E-11
DataValue, 2.04, 1.508E-11
DataValue, 2.05, 1.045E-11
DataValue, 2.06, 1.641E-11
DataValue, 2.07, 8.87E-12
DataValue, 2.08, 1.806E-11
DataValue, 2.09, 6.97E-12
DataValue, 2.1, 2.014E-11
DataValue, 2.11, 5.2200000000000008E-12
DataValue, 2.12, 2.141E-11
DataValue, 2.13, 4.0900000000000005E-12
DataValue, 2.14, 2.1910000000000002E-11
DataValue, 2.15, 4.28E-12
DataValue, 2.16, 2.201E-11
DataValue, 2.17, 4.13E-12
DataValue, 2.18, 2.192E-11
DataValue, 2.19, 4.1400000000000005E-12
DataValue, 2.2, 2.2370000000000003E-11
DataValue, 2.21, 4.27E-12
DataValue, 2.22, 2.214E-11
DataValue, 2.23, 4.0400000000000006E-12
DataValue, 2.24, 2.1590000000000003E-11
DataValue, 2.25, 5.4000000000000004E-12
DataValue, 2.2600000000000002, 2.0310000000000002E-11
DataValue, 2.27, 7.1400000000000007E-12
DataValue, 2.2800000000000002, 1.803E-11
DataValue, 2.29, 1.0240000000000002E-11
DataValue, 2.3000000000000003, 1.555E-11
DataValue, 2.31, 1.221E-11
DataValue, 2.32, 1.4170000000000001E-11
DataValue, 2.33, 1.2680000000000002E-11
DataValue, 2.34, 1.3980000000000001E-11
DataValue, 2.35, 1.29E-11
DataValue, 2.36, 1.381E-11
DataValue, 2.37, 1.33E-11
DataValue, 2.38, 1.3190000000000002E-11
DataValue, 2.39, 1.412E-11
DataValue, 2.4, 1.2990000000000002E-11
DataValue, 2.41, 1.4400000000000002E-11
DataValue, 2.42, 1.1970000000000002E-11
DataValue, 2.43, 1.5760000000000002E-11
DataValue, 2.44, 1.1960000000000002E-11
DataValue, 2.45, 1.473E-11
DataValue, 2.46, 1.137E-11
DataValue, 2.47, 1.562E-11
DataValue, 2.48, 1.0440000000000002E-11
DataValue, 2.49, 1.743E-11
DataValue, 2.5, 9.04E-12
DataValue, 2.5100000000000002, 1.9000000000000002E-11
DataValue, 2.52, 6.6200000000000005E-12
DataValue, 2.5300000000000002, 2.101E-11
DataValue, 2.54, 5.63E-12
DataValue, 2.5500000000000003, 2.172E-11
DataValue, 2.56, 4.21E-12
DataValue, 2.57, 2.2150000000000002E-11
DataValue, 2.58, 4.5400000000000004E-12
DataValue, 2.59, 2.203E-11
DataValue, 2.6, 4.7500000000000006E-12
DataValue, 2.61, 2.074E-11
DataValue, 2.62, 7.3700000000000011E-12
DataValue, 2.63, 1.868E-11
DataValue, 2.64, 1.0130000000000002E-11
DataValue, 2.65, 1.6200000000000003E-11
DataValue, 2.66, 1.218E-11
DataValue, 2.67, 1.479E-11
DataValue, 2.68, 1.3180000000000002E-11
DataValue, 2.69, 1.3860000000000001E-11
DataValue, 2.7, 1.3140000000000001E-11
DataValue, 2.71, 1.373E-11
DataValue, 2.72, 1.3550000000000001E-11
DataValue, 2.73, 1.3700000000000002E-11
DataValue, 2.74, 1.4160000000000001E-11
DataValue, 2.75, 1.3280000000000002E-11
DataValue, 2.7600000000000002, 1.443E-11
DataValue, 2.77, 1.2130000000000001E-11
DataValue, 2.7800000000000002, 1.5360000000000002E-11
DataValue, 2.79, 1.1310000000000001E-11
DataValue, 2.8000000000000003, 1.6980000000000002E-11
DataValue, 2.81, 9.63E-12
DataValue, 2.82, 1.8560000000000002E-11
DataValue, 2.83, 8.21E-12
DataValue, 2.84, 2.043E-11
DataValue, 2.85, 6.5200000000000005E-12
DataValue, 2.86, 2.127E-11
DataValue, 2.87, 5.0500000000000005E-12
DataValue, 2.88, 2.274E-11
DataValue, 2.89, 4.5900000000000004E-12
DataValue, 2.9, 2.269E-11
DataValue, 2.91, 4.82E-12
DataValue, 2.92, 2.238E-11
DataValue, 2.93, 5.8E-12
DataValue, 2.94, 2.0910000000000002E-11
DataValue, 2.95, 8.25E-12
DataValue, 2.96, 2.2620000000000002E-11
DataValue, 2.97, 5.6100000000000005E-12
DataValue, 2.98, 2.145E-11
DataValue, 2.99, 7.11E-12
DataValue, 3, 1.881E-11
DataValue, 3.0100000000000002, 1.0320000000000001E-11
DataValue, 3.02, 1.655E-11
DataValue, 3.0300000000000002, 1.2480000000000002E-11
DataValue, 3.04, 1.486E-11
DataValue, 3.0500000000000003, 1.362E-11
DataValue, 3.06, 1.424E-11
DataValue, 3.0700000000000003, 1.3870000000000001E-11
DataValue, 3.08, 1.571E-11
DataValue, 3.09, 1.3480000000000002E-11
DataValue, 3.1, 1.56E-11
DataValue, 3.11, 1.3770000000000001E-11
DataValue, 3.12, 1.469E-11
DataValue, 3.13, 1.3990000000000002E-11
DataValue, 3.14, 1.4870000000000003E-11
DataValue, 3.15, 1.412E-11
DataValue, 3.16, 1.4260000000000001E-11
DataValue, 3.17, 1.4260000000000001E-11
DataValue, 3.18, 1.381E-11
DataValue, 3.19, 1.5230000000000002E-11
DataValue, 3.2, 1.323E-11
DataValue, 3.21, 1.497E-11
DataValue, 3.22, 1.3290000000000002E-11
DataValue, 3.23, 1.5890000000000003E-11
DataValue, 3.24, 1.2140000000000001E-11
DataValue, 3.25, 1.69E-11
DataValue, 3.2600000000000002, 1.055E-11
DataValue, 3.27, 1.848E-11
DataValue, 3.2800000000000002, 8.41E-12
DataValue, 3.29, 2.13E-11
DataValue, 3.3000000000000003, 6.5E-12
DataValue, 0, 1.788E-09
DataValue, 0.01, 1.9888E-07
DataValue, 0.02, 3.7494E-07
DataValue, 0.03, 5.2892E-07
DataValue, 0.04, 6.6289999999999993E-07
DataValue, 0.05, 7.8026E-07
DataValue, 0.06, 8.7922E-07
DataValue, 0.07, 9.602E-07
DataValue, 0.08, 1.03158E-06
DataValue, 0.09, 1.08844E-06
DataValue, 0.1, 1.1394E-06
DataValue, 0.11, 1.1692000000000002E-06
DataValue, 0.12, 1.2013E-06
DataValue, 0.13, 1.2255000000000002E-06
DataValue, 0.14, 1.2439E-06
DataValue, 0.15, 1.2591000000000002E-06
DataValue, 0.16, 1.2712000000000002E-06
DataValue, 0.17, 1.28E-06
DataValue, 0.18, 1.2882000000000002E-06
DataValue, 0.19, 1.2942E-06
DataValue, 0.2, 1.2993000000000002E-06
DataValue, 0.21, 1.3025000000000002E-06
DataValue, 0.22, 1.3062E-06
DataValue, 0.23, 1.3094000000000001E-06
DataValue, 0.24, 1.3117E-06
DataValue, 0.25, 1.314E-06
DataValue, 0.26, 1.3166000000000002E-06
DataValue, 0.27, 1.3185000000000002E-06
DataValue, 0.28, 1.3204E-06
DataValue, 0.29, 1.3221000000000002E-06
DataValue, 0.3, 1.3235000000000001E-06
DataValue, 0.31, 1.3242000000000002E-06
DataValue, 0.32, 1.3251000000000002E-06
DataValue, 0.33, 1.3265000000000001E-06
DataValue, 0.34, 1.3283E-06
DataValue, 0.35000000000000003, 1.3301000000000002E-06
DataValue, 0.36, 1.3314E-06
DataValue, 0.37, 1.3317E-06
DataValue, 0.38, 1.3343E-06
DataValue, 0.39, 1.3338E-06
DataValue, 0.4, 1.3348000000000001E-06
DataValue, 0.41000000000000003, 1.3366E-06
DataValue, 0.42, 1.3374E-06
DataValue, 0.43, 1.3371E-06
DataValue, 0.44, 1.3385000000000002E-06
DataValue, 0.45, 1.3387000000000002E-06
DataValue, 0.46, 1.3399E-06
DataValue, 0.47000000000000003, 1.3407000000000001E-06
DataValue, 0.48, 1.3415000000000002E-06
DataValue, 0.49, 1.3479E-06
DataValue, 0.5, 1.3432000000000001E-06
DataValue, 0.51, 1.3439000000000002E-06
DataValue, 0.52, 1.3443000000000002E-06
DataValue, 0.53, 1.3454E-06
DataValue, 0.54, 1.3456E-06
DataValue, 0.55, 1.3455E-06
DataValue, 0.56, 1.3468000000000002E-06
