
SetupTitle, idvg3.3
PrimitiveTest, I/V Sweep
TestParameter, Context.MainFrame, B1500A
TestParameter, Channel.UnitType, SMU, SMU, SMU, SMU
TestParameter, Channel.Unit, SMU4:HR, SMU3:HR, SMU1:HR, SMU2:HR
TestParameter, Channel.IName, Id, Ig, Is, Ibg
TestParameter, Channel.VName, Vd, Vg, Vs, Vbg
TestParameter, Channel.Mode, V, V, V, V
TestParameter, Channel.Func, CONST, VAR1, CONST, VAR2
TestParameter, Channel.Index, 
TestParameter, Channel.Time, 
TestParameter, Measurement.Port.Unit, SMU4:HR, SMU3:HR, SMU1:HR, SMU2:HR
TestParameter, Measurement.Port.SeriesResistor, NONE, NONE, NONE, NONE
TestParameter, Measurement.Port.Filter, ON, ON, ON, ON
TestParameter, Measurement.Port.OutputVoltageComparison, 0, 0, 0, 0
TestParameter, Measurement.Primary.Locus, Single
TestParameter, Measurement.Primary.Scale, LINEAR
TestParameter, Measurement.Primary.Start, -2.1
TestParameter, Measurement.Primary.Stop, 3.63
TestParameter, Measurement.Primary.Step, 0.03
TestParameter, Measurement.Primary.Compliance, 0.1
TestParameter, Measurement.Primary.PowerCompliance, 0
TestParameter, Measurement.Aborting.Condition, CONTINUE AT ANY
TestParameter, Measurement.PostOutput.Value, START
TestParameter, Measurement.PostOutput.Retention, OFF
TestParameter, Measurement.Secondary.Start, -2
TestParameter, Measurement.Secondary.Count, 5
TestParameter, Measurement.Secondary.Step, 2
TestParameter, Measurement.Secondary.Compliance, 0.1
TestParameter, Measurement.Secondary.PowerCompliance, 0
TestParameter, Measurement.Bias.Source, 3.3000000000000003, -2.1, 0, -2
TestParameter, Measurement.Bias.Compliance, 0.1, 0.1, 0.1, 0.1
TestParameter, Measurement.Monitor.Unit, SMU4:HR, SMU3:HR, SMU1:HR, SMU2:HR
TestParameter, Measurement.Monitor.Adc, HR ADC, HR ADC, HR ADC, HR ADC
TestParameter, Measurement.Monitor.Measurement, Compliance Side, Compliance Side, Compliance Side, Compliance Side
TestParameter, Measurement.Monitor.RangingMode, LIMITED, LIMITED, LIMITED, LIMITED
TestParameter, Measurement.Monitor.RangeBoundary, 1nA, 1nA, 1nA, 1nA
TestParameter, Measurement.Monitor.RangeRating, BY FULL RANGE, BY FULL RANGE, BY FULL RANGE, BY FULL RANGE
TestParameter, Measurement.Monitor.RangeRatingCoeff, 50, 50, 50, 50
TestParameter, Measurement.Timing.Hold, 0
TestParameter, Measurement.Timing.Delay, 0
TestParameter, Measurement.Adc.HighSpeed.Mode, AUTO
TestParameter, Measurement.Adc.HighSpeed.Coeff, 1
TestParameter, Measurement.Adc.HighResolution.AutoZero, OFF
TestParameter, Measurement.Adc.HighResolution.Mode, PLC
TestParameter, Measurement.Adc.HighResolution.Coeff, 1
TestParameter, Measurement.WaitTime.Source.Coeff, 1
TestParameter, Measurement.WaitTime.Source.Offset, 0
TestParameter, Measurement.WaitTime.Monitor.Coeff, 1
TestParameter, Measurement.WaitTime.Monitor.Offset, 0
TestParameter, Function.User.Name, gm, absId
TestParameter, Function.User.Unit, S, A
TestParameter, Function.User.Definition, diff(Id,Vg), abs(Id)
TestParameter, Output.Graph.Enabled, true
TestParameter, Output.Graph.AutoScaling, false
TestParameter, Output.Graph.XAxis.Data, Vg
TestParameter, Output.Graph.XAxis.Scale, Linear
TestParameter, Output.Graph.XAxis.Left, -3
TestParameter, Output.Graph.XAxis.Right, 3.63
TestParameter, Output.Graph.XAxis.RunTimeAutoScale, true
TestParameter, Output.Graph.YAxis.Data, Id, Ig, Ib
TestParameter, Output.Graph.YAxis.Scale, Log, Linear, Linear
TestParameter, Output.Graph.YAxis.Bottom, 0.001, -0.1, -0.1
TestParameter, Output.Graph.YAxis.Top, 0.01, 0.1, 0.1
TestParameter, Output.Graph.YAxis.Group, , , 
TestParameter, Output.Graph.YAxis.RunTimeAutoScale, true, true, true
TestParameter, Output.List.Data, Vg, Vd, Ig, Id, Ibg, Is, gm, Vbg, absId
TestParameter, AutoAnalysis.Interpolation, false
TestParameter, AutoAnalysis.Var2StepCount, 1
TestParameter, AutoAnalysis.Var2StepScript, 
TestParameter, AutoAnalysis.Line1.Enabled, false
TestParameter, AutoAnalysis.Line1.Type, 2
TestParameter, AutoAnalysis.Line1.Fix, True
TestParameter, AutoAnalysis.Line1.YAxis, 0
TestParameter, AutoAnalysis.Line1.Point1.Type, 1
TestParameter, AutoAnalysis.Line1.Point1.XY.X, 
TestParameter, AutoAnalysis.Line1.Point1.XY.Y, 
TestParameter, AutoAnalysis.Line1.Point1.Data.Var, Id
TestParameter, AutoAnalysis.Line1.Point1.Data.Condition, 
TestParameter, AutoAnalysis.Line1.Point1.Data.Start, false
TestParameter, AutoAnalysis.Line1.Point1.Data.StartVar, 
TestParameter, AutoAnalysis.Line1.Point1.Data.StartCondition, 
TestParameter, AutoAnalysis.Line1.Point2.Type, 0
TestParameter, AutoAnalysis.Line1.Point2.XY.X, 
TestParameter, AutoAnalysis.Line1.Point2.XY.Y, 
TestParameter, AutoAnalysis.Line1.Point2.Data.Var, 
TestParameter, AutoAnalysis.Line1.Point2.Data.Condition, 
TestParameter, AutoAnalysis.Line1.Point2.Data.Start, false
TestParameter, AutoAnalysis.Line1.Point2.Data.StartVar, 
TestParameter, AutoAnalysis.Line1.Point2.Data.StartCondition, 
TestParameter, AutoAnalysis.Line1.GradientExpr, 0
TestParameter, AutoAnalysis.Line2.Enabled, false
TestParameter, AutoAnalysis.Line2.Type, 1
TestParameter, AutoAnalysis.Line2.Fix, True
TestParameter, AutoAnalysis.Line2.YAxis, 0
TestParameter, AutoAnalysis.Line2.Point1.Type, 0
TestParameter, AutoAnalysis.Line2.Point1.XY.X, 
TestParameter, AutoAnalysis.Line2.Point1.XY.Y, 
TestParameter, AutoAnalysis.Line2.Point1.Data.Var, 
TestParameter, AutoAnalysis.Line2.Point1.Data.Condition, 
TestParameter, AutoAnalysis.Line2.Point1.Data.Start, false
TestParameter, AutoAnalysis.Line2.Point1.Data.StartVar, 
TestParameter, AutoAnalysis.Line2.Point1.Data.StartCondition, 
TestParameter, AutoAnalysis.Line2.Point2.Type, 0
TestParameter, AutoAnalysis.Line2.Point2.XY.X, 
TestParameter, AutoAnalysis.Line2.Point2.XY.Y, 
TestParameter, AutoAnalysis.Line2.Point2.Data.Var, 
TestParameter, AutoAnalysis.Line2.Point2.Data.Condition, 
TestParameter, AutoAnalysis.Line2.Point2.Data.Start, false
TestParameter, AutoAnalysis.Line2.Point2.Data.StartVar, 
TestParameter, AutoAnalysis.Line2.Point2.Data.StartCondition, 
TestParameter, AutoAnalysis.Line2.GradientExpr, 0
TestParameter, AutoAnalysis.Marker.Enabled, false
TestParameter, AutoAnalysis.Marker.Data.Var, 
TestParameter, AutoAnalysis.Marker.Data.Condition, 
TestParameter, AutoAnalysis.Marker.Data.Start, false
TestParameter, AutoAnalysis.Marker.Data.StartVar, 
TestParameter, AutoAnalysis.Marker.Data.StartCondition, 
MetaData, TestRecord.EntryPoint, true
MetaData, TestRecord.RecordTime, 01/16/2024 15:13:06
MetaData, TestRecord.TestTarget, N-5-0.35-298K
MetaData, TestRecord.IterationIndex, 1
MetaData, TestRecord.Preservation, true
MetaData, TestRecord.Flag, 
MetaData, TestRecord.Remarks, 
MetaData, TestRecord.LinkKey, a477b5ed-f681-4129-990c-2804d8770622
MetaData, TestRecord.Parameters, 
Dimension1, 192, 192, 192, 192, 192, 192, 192, 192, 192, 192
Dimension2, 5, 5, 5, 5, 5, 5, 5, 5, 5, 5
DataName, Vg, Vbg, Vd, Id, Ig, Is, Ibg, gm, absId, Ib
DataValue, -2.1, -2, 3.3000000000000003, 2.0619600000000001E-10, -1.7900000000000002E-13, 2.6255E-11, -6.49206E-07, -5.5026666666666247E-10, 2.0619600000000001E-10, 
DataValue, -2.07, -2, 3.3000000000000003, 1.89688E-10, -2.18E-13, 2.6210000000000002E-11, -6.47577E-07, -5.20316666666666E-10, 1.89688E-10, 
DataValue, -2.04, -2, 3.3000000000000003, 1.7497700000000003E-10, -1.3200000000000002E-13, 2.6235000000000004E-11, -6.42531E-07, -4.6663333333333616E-10, 1.7497700000000003E-10, 
DataValue, -2.0100000000000002, -2, 3.3000000000000003, 1.6169E-10, -1.3800000000000002E-13, 2.6145E-11, -6.43541E-07, -4.2298333333333316E-10, 1.6169E-10, 
DataValue, -1.98, -2, 3.3000000000000003, 1.4959800000000001E-10, -1.0100000000000001E-13, 2.6247000000000003E-11, -6.36726E-07, -3.8934999999999809E-10, 1.4959800000000001E-10, 
DataValue, -1.95, -2, 3.3000000000000003, 1.3832900000000002E-10, -1.52E-13, 2.6171E-11, -6.3590099999999994E-07, -3.5648333333333313E-10, 1.3832900000000002E-10, 
DataValue, -1.92, -2, 3.3000000000000003, 1.28209E-10, -8.7000000000000008E-14, 2.6205E-11, -6.38248E-07, -3.1846666666666768E-10, 1.28209E-10, 
DataValue, -1.8900000000000001, -2, 3.3000000000000003, 1.19221E-10, -1.0700000000000001E-13, 2.622E-11, -6.34883E-07, -2.83783333333334E-10, 1.19221E-10, 
DataValue, -1.86, -2, 3.3000000000000003, 1.1118200000000002E-10, -6.9000000000000009E-14, 2.6160000000000003E-11, -6.33827E-07, -2.573166666666665E-10, 1.1118200000000002E-10, 
DataValue, -1.83, -2, 3.3000000000000003, 1.0378200000000001E-10, -7E-15, 2.6171E-11, -6.2999399999999994E-07, -2.3741666666666665E-10, 1.0378200000000001E-10, 
DataValue, -1.8, -2, 3.3000000000000003, 9.6937E-11, -3.0000000000000002E-15, 2.6168E-11, -6.32313E-07, -2.1068333333333321E-10, 9.6937E-11, 
DataValue, -1.77, -2, 3.3000000000000003, 9.1141E-11, 5.3E-14, 2.6107E-11, -6.31851E-07, -1.9009999999999974E-10, 9.1141E-11, 
DataValue, -1.74, -2, 3.3000000000000003, 8.5531000000000009E-11, 6.2E-14, 2.6198000000000003E-11, -6.3403299999999994E-07, -1.8064999999999989E-10, 8.5531000000000009E-11, 
DataValue, -1.71, -2, 3.3000000000000003, 8.0302E-11, -2.6000000000000003E-14, 2.6169000000000003E-11, -6.34256E-07, -1.5684999999999996E-10, 8.0302E-11, 
DataValue, -1.68, -2, 3.3000000000000003, 7.612E-11, 1.3000000000000001E-14, 2.6217E-11, -6.38378E-07, -1.3645000000000039E-10, 7.612E-11, 
DataValue, -1.6500000000000001, -2, 3.3000000000000003, 7.2115E-11, 3.7E-14, 2.6215000000000003E-11, -6.44065E-07, -1.2791666666666705E-10, 7.2115E-11, 
DataValue, -1.62, -2, 3.3000000000000003, 6.8445E-11, 6.5E-14, 2.6226E-11, -6.45004E-07, -1.1206666666666656E-10, 6.8445E-11, 
DataValue, -1.59, -2, 3.3000000000000003, 6.5391E-11, 1E-15, 2.6151000000000004E-11, -6.46186E-07, -9.8699999999999838E-11, 6.5391E-11, 
DataValue, -1.56, -2, 3.3000000000000003, 6.2523000000000007E-11, 4.3000000000000006E-14, 2.6174E-11, -6.35487E-07, -9.1499999999999891E-11, 6.2523000000000007E-11, 
DataValue, -1.53, -2, 3.3000000000000003, 5.9901E-11, 3.6000000000000004E-14, 2.6318E-11, -6.37864E-07, -8.6233333333333289E-11, 5.9901E-11, 
DataValue, -1.5, -2, 3.3000000000000003, 5.7349000000000005E-11, 6.2E-14, 2.6206000000000004E-11, -6.40344E-07, -7.3649999999999947E-11, 5.7349000000000005E-11, 
DataValue, -1.47, -2, 3.3000000000000003, 5.5482E-11, 5.6E-14, 2.6207000000000003E-11, -6.3581E-07, -5.943333333333325E-11, 5.5482E-11, 
DataValue, -1.44, -2, 3.3000000000000003, 5.3783000000000007E-11, 7.8000000000000008E-14, 2.6198000000000003E-11, -6.40146E-07, -5.7133333333333236E-11, 5.3783000000000007E-11, 
DataValue, -1.41, -2, 3.3000000000000003, 5.2054000000000006E-11, 1.63E-13, 2.6163000000000003E-11, -6.32529E-07, -5.3733333333333563E-11, 5.2054000000000006E-11, 
DataValue, -1.3800000000000001, -2, 3.3000000000000003, 5.0559E-11, 1.2000000000000002E-13, 2.6086000000000002E-11, -6.36136E-07, -4.64833333333335E-11, 5.0559E-11, 
DataValue, -1.35, -2, 3.3000000000000003, 4.9265000000000004E-11, 1.54E-13, 2.6175000000000003E-11, -6.36663E-07, -4.0333333333333239E-11, 4.9265000000000004E-11, 
DataValue, -1.32, -2, 3.3000000000000003, 4.8139000000000006E-11, 1.5000000000000002E-13, 2.6173000000000002E-11, -6.38105E-07, -3.7816666666666634E-11, 4.8139000000000006E-11, 
DataValue, -1.29, -2, 3.3000000000000003, 4.6996000000000004E-11, 1.88E-13, 2.6164000000000002E-11, -6.33217E-07, -3.30833333333333E-11, 4.6996000000000004E-11, 
DataValue, -1.26, -2, 3.3000000000000003, 4.6154000000000005E-11, 2.5200000000000004E-13, 2.6217E-11, -6.38727E-07, -2.6033333333333364E-11, 4.6154000000000005E-11, 
DataValue, -1.23, -2, 3.3000000000000003, 4.5434E-11, 2.6400000000000004E-13, 2.6160000000000003E-11, -6.33695E-07, -2.6700000000000041E-11, 4.5434E-11, 
DataValue, -1.2, -2, 3.3000000000000003, 4.4552E-11, 2.49E-13, 2.6160000000000003E-11, -6.3636899999999995E-07, -2.5033333333333296E-11, 4.4552E-11, 
DataValue, -1.17, -2, 3.3000000000000003, 4.3932E-11, 3.31E-13, 2.613E-11, -6.3716E-07, -1.7316666666666634E-11, 4.3932E-11, 
DataValue, -1.1400000000000001, -2, 3.3000000000000003, 4.3513000000000007E-11, 3.0100000000000003E-13, 2.6173000000000002E-11, -6.38056E-07, -1.3499999999999957E-11, 4.3513000000000007E-11, 
DataValue, -1.11, -2, 3.3000000000000003, 4.3122000000000006E-11, 3.0900000000000005E-13, 2.6118E-11, -6.3612699999999994E-07, -1.67166666666667E-11, 4.3122000000000006E-11, 
DataValue, -1.08, -2, 3.3000000000000003, 4.2510000000000004E-11, 3.04E-13, 2.6202000000000002E-11, -6.3657E-07, -1.5266666666666755E-11, 4.2510000000000004E-11, 
DataValue, -1.05, -2, 3.3000000000000003, 4.2206E-11, 2.85E-13, 2.6198000000000003E-11, -6.34076E-07, -1.0966666666666707E-11, 4.2206E-11, 
DataValue, -1.02, -2, 3.3000000000000003, 4.1852E-11, 4.1400000000000005E-13, 2.6269E-11, -6.28183E-07, -9.34999999999996E-12, 4.1852E-11, 
DataValue, -0.99, -2, 3.3000000000000003, 4.1645E-11, 4.2600000000000005E-13, 2.6196000000000002E-11, -6.2992499999999994E-07, -1.0949999999999898E-11, 4.1645E-11, 
DataValue, -0.96, -2, 3.3000000000000003, 4.1195000000000006E-11, 4.5300000000000004E-13, 2.6190000000000002E-11, -6.3274E-07, -8.9833333333332891E-12, 4.1195000000000006E-11, 
DataValue, -0.93, -2, 3.3000000000000003, 4.1106000000000005E-11, 4.7900000000000008E-13, 2.6216000000000002E-11, -6.34439E-07, -6.866666666666772E-12, 4.1106000000000005E-11, 
DataValue, -0.9, -2, 3.3000000000000003, 4.0783E-11, 4.6000000000000006E-13, 2.6163000000000003E-11, -6.37779E-07, -4.7500000000000313E-12, 4.0783E-11, 
DataValue, -0.87, -2, 3.3000000000000003, 4.0821E-11, 4.35E-13, 2.6154000000000003E-11, -6.37401E-07, -1.73333333333323E-12, 4.0821E-11, 
DataValue, -0.84, -2, 3.3000000000000003, 4.0679000000000006E-11, 4.75E-13, 2.6188E-11, -6.39469E-07, -6.7666666666666679E-12, 4.0679000000000006E-11, 
DataValue, -0.81, -2, 3.3000000000000003, 4.0415000000000003E-11, 5.68E-13, 2.6173000000000002E-11, -6.41387E-07, -6.4666666666666792E-12, 4.0415000000000003E-11, 
DataValue, -0.78, -2, 3.3000000000000003, 4.0291000000000006E-11, 4.8400000000000006E-13, 2.6219000000000002E-11, -6.40668E-07, -2.6500000000000051E-12, 4.0291000000000006E-11, 
DataValue, -0.75, -2, 3.3000000000000003, 4.0256E-11, 6.34E-13, 2.6191E-11, -6.39497E-07, -3.2000000000000914E-12, 4.0256E-11, 
DataValue, -0.72, -2, 3.3000000000000003, 4.0099E-11, 5.22E-13, 2.6234E-11, -6.42211E-07, -3.5499999999999766E-12, 4.0099E-11, 
DataValue, -0.69000000000000006, -2, 3.3000000000000003, 4.0043000000000005E-11, 6.36E-13, 2.6223E-11, -6.3838999999999993E-07, -2.5499999999999057E-12, 4.0043000000000005E-11, 
DataValue, -0.66, -2, 3.3000000000000003, 3.9946000000000006E-11, 6.2400000000000007E-13, 2.6160000000000003E-11, -6.38013E-07, -1.8333333333333339E-12, 3.9946000000000006E-11, 
DataValue, -0.63, -2, 3.3000000000000003, 3.9933000000000004E-11, 6.62E-13, 2.6229E-11, -6.42069E-07, 3.6666666666658062E-13, 3.9933000000000004E-11, 
DataValue, -0.6, -2, 3.3000000000000003, 3.9968E-11, 6.5100000000000005E-13, 2.6097000000000002E-11, -6.39938E-07, -1.4833333333333503E-12, 3.9968E-11, 
DataValue, -0.57000000000000006, -2, 3.3000000000000003, 3.9844000000000003E-11, 6.7400000000000006E-13, 2.6197E-11, -6.41541E-07, -2.7166666666666021E-12, 3.9844000000000003E-11, 
DataValue, -0.54, -2, 3.3000000000000003, 3.9805000000000005E-11, 6.7000000000000007E-13, 2.6137000000000003E-11, -6.37146E-07, 8.8333333333337083E-13, 3.9805000000000005E-11, 
DataValue, -0.51, -2, 3.3000000000000003, 3.9897000000000006E-11, 7.8100000000000011E-13, 2.6209000000000004E-11, -6.37575E-07, 7.4999999999997085E-13, 3.9897000000000006E-11, 
DataValue, -0.48, -2, 3.3000000000000003, 3.9850000000000003E-11, 8.1300000000000007E-13, 2.6129000000000002E-11, -6.36827E-07, -1.8166666666667415E-12, 3.9850000000000003E-11, 
DataValue, -0.45, -2, 3.3000000000000003, 3.9788E-11, 8.0400000000000011E-13, 2.6207000000000003E-11, -6.36877E-07, -1.3500000000000567E-12, 3.9788E-11, 
DataValue, -0.42, -2, 3.3000000000000003, 3.9769E-11, 8.7300000000000012E-13, 2.6174E-11, -6.37961E-07, -8.6666666666666977E-13, 3.9769E-11, 
DataValue, -0.39, -2, 3.3000000000000003, 3.9736E-11, 8.8300000000000007E-13, 2.6237E-11, -6.4074899999999994E-07, -1.2666666666666545E-12, 3.9736E-11, 
DataValue, -0.36, -2, 3.3000000000000003, 3.9693E-11, 8.6000000000000007E-13, 2.6244000000000003E-11, -6.38047E-07, -2.466666666666609E-12, 3.9693E-11, 
DataValue, -0.33, -2, 3.3000000000000003, 3.9588000000000005E-11, 8.65E-13, 2.6280000000000002E-11, -6.39467E-07, 1.3333333333340008E-13, 3.9588000000000005E-11, 
DataValue, -0.3, -2, 3.3000000000000003, 3.9701000000000005E-11, 9.1600000000000014E-13, 2.6174E-11, -6.39613E-07, -9.0000000000007361E-13, 3.9701000000000005E-11, 
DataValue, -0.27, -2, 3.3000000000000003, 3.9534E-11, 9.65E-13, 2.6206000000000004E-11, -6.38247E-07, -1.6833333333333414E-12, 3.9534E-11, 
DataValue, -0.24, -2, 3.3000000000000003, 3.9600000000000004E-11, 9.8700000000000014E-13, 2.6205E-11, -6.38001E-07, 1.6000000000000463E-12, 3.9600000000000004E-11, 
DataValue, -0.21, -2, 3.3000000000000003, 3.963E-11, 1.022E-12, 2.6134000000000003E-11, -6.36253E-07, 3.4999999999998675E-13, 3.963E-11, 
DataValue, -0.18, -2, 3.3000000000000003, 3.9621000000000003E-11, 1.046E-12, 2.613E-11, -6.37983E-07, -2.833333333332867E-13, 3.9621000000000003E-11, 
DataValue, -0.15, -2, 3.3000000000000003, 3.9613000000000006E-11, 1.095E-12, 2.6180000000000004E-11, -6.35514E-07, -1.0166666666666641E-12, 3.9613000000000006E-11, 
DataValue, -0.12, -2, 3.3000000000000003, 3.9560000000000003E-11, 1.105E-12, 2.6151000000000004E-11, -6.32333E-07, -2.3333333333339632E-13, 3.9560000000000003E-11, 
DataValue, -0.09, -2, 3.3000000000000003, 3.9599E-11, 1.1000000000000002E-12, 2.6202000000000002E-11, -6.31753E-07, 8.6666666666666977E-13, 3.9599E-11, 
DataValue, -0.06, -2, 3.3000000000000003, 3.9612000000000004E-11, 1.13E-12, 2.6175000000000003E-11, -6.31669E-07, -3.9999999999998487E-13, 3.9612000000000004E-11, 
DataValue, -0.03, -2, 3.3000000000000003, 3.9575E-11, 1.132E-12, 2.6152000000000002E-11, -6.3300099999999994E-07, -1.4333333333333509E-12, 3.9575E-11, 
DataValue, 0, -2, 3.3000000000000003, 3.9526E-11, 1.1980000000000002E-12, 2.6125000000000003E-11, -6.3236799999999994E-07, -1.2999999999999508E-12, 3.9526E-11, 
DataValue, 0.03, -2, 3.3000000000000003, 3.9497000000000006E-11, 1.1650000000000002E-12, 2.6147E-11, -6.32442E-07, -4.9999999999998111E-13, 3.9497000000000006E-11, 
DataValue, 0.06, -2, 3.3000000000000003, 3.9496000000000004E-11, 1.285E-12, 2.6136E-11, -6.35841E-07, -2.1666666666669435E-13, 3.9496000000000004E-11, 
DataValue, 0.09, -2, 3.3000000000000003, 3.9484000000000004E-11, 1.283E-12, 2.6159E-11, -6.34701E-07, 1.4999999999999431E-12, 3.9484000000000004E-11, 
DataValue, 0.12, -2, 3.3000000000000003, 3.9586E-11, 1.3940000000000001E-12, 2.6177E-11, -6.3618099999999994E-07, -1.1666666666666584E-12, 3.9586E-11, 
DataValue, 0.15, -2, 3.3000000000000003, 3.9414000000000005E-11, 1.339E-12, 2.6137000000000003E-11, -6.3207299999999995E-07, -1.3666666666666509E-12, 3.9414000000000005E-11, 
DataValue, 0.18, -2, 3.3000000000000003, 3.9504E-11, 1.391E-12, 2.6179E-11, -6.35236E-07, 3.3333333333328483E-13, 3.9504E-11, 
DataValue, 0.21, -2, 3.3000000000000003, 3.9434E-11, 1.458E-12, 2.6186000000000003E-11, -6.34439E-07, -8.499999999999678E-13, 3.9434E-11, 
DataValue, 0.24, -2, 3.3000000000000003, 3.9453000000000003E-11, 1.5220000000000002E-12, 2.6129000000000002E-11, -6.3285E-07, 1.6666666666701929E-14, 3.9453000000000003E-11, 
DataValue, 0.27, -2, 3.3000000000000003, 3.9435000000000004E-11, 1.4970000000000002E-12, 2.6175000000000003E-11, -6.33183E-07, 1.0999999999999584E-12, 3.9435000000000004E-11, 
DataValue, 0.3, -2, 3.3000000000000003, 3.9519E-11, 1.5700000000000002E-12, 2.6142E-11, -6.30863E-07, 1.6150000000000036E-11, 3.9519E-11, 
DataValue, 0.33, -2, 3.3000000000000003, 4.0404000000000006E-11, 9.67E-13, 2.6214E-11, -6.3333099999999994E-07, -8.5000000000000013E-12, 4.0404000000000006E-11, 
DataValue, 0.36, -2, 3.3000000000000003, 3.9009E-11, 2.419E-12, 2.6172000000000003E-11, -6.38579E-07, -1.7833333333333375E-11, 3.9009E-11, 
