
SetupTitle, NMOS-id-vd-vgs@vbs=-3.3
PrimitiveTest, I/V Sweep
TestParameter, Context.MainFrame, B1500A
TestParameter, Channel.UnitType, SMU, SMU, SMU, SMU
TestParameter, Channel.Unit, SMU2:HR, SMU1:HR, SMU3:HR, SMU4:HR
TestParameter, Channel.IName, ib, is, ig, id
TestParameter, Channel.VName, vb, vs, vg, vd
TestParameter, Channel.Mode, V, COMMON, V, V
TestParameter, Channel.Func, CONST, CONST, VAR2, VAR1
TestParameter, Channel.Index, 
TestParameter, Channel.Time, 
TestParameter, Measurement.Port.Unit, SMU2:HR, SMU1:HR, SMU3:HR, SMU4:HR
TestParameter, Measurement.Port.SeriesResistor, NONE, NONE, NONE, NONE
TestParameter, Measurement.Port.Filter, ON, ON, ON, ON
TestParameter, Measurement.Port.OutputVoltageComparison, 0, 0, 0, 0
TestParameter, Measurement.Primary.Locus, Single
TestParameter, Measurement.Primary.Scale, LINEAR
TestParameter, Measurement.Primary.Start, 0
TestParameter, Measurement.Primary.Stop, 3.3000000000000003
TestParameter, Measurement.Primary.Step, 0.01
TestParameter, Measurement.Primary.Compliance, 0.1
TestParameter, Measurement.Primary.PowerCompliance, 0
TestParameter, Measurement.Aborting.Condition, SKIP AT ANY ABNORMAL
TestParameter, Measurement.PostOutput.Value, START
TestParameter, Measurement.PostOutput.Retention, OFF
TestParameter, Measurement.Secondary.Start, 0.3
TestParameter, Measurement.Secondary.Count, 6
TestParameter, Measurement.Secondary.Step, 0.6
TestParameter, Measurement.Secondary.Compliance, 0.1
TestParameter, Measurement.Secondary.PowerCompliance, 0
TestParameter, Measurement.Bias.Source, -3.3000000000000003, 0, 0.3, 0
TestParameter, Measurement.Bias.Compliance, 0.1, 0.1, 0.1, 0.1
TestParameter, Measurement.Monitor.Unit, SMU2:HR, SMU1:HR, SMU3:HR, SMU4:HR
TestParameter, Measurement.Monitor.Adc, HR ADC, HR ADC, HR ADC, HR ADC
TestParameter, Measurement.Monitor.Measurement, Compliance Side, Compliance Side, Compliance Side, Compliance Side
TestParameter, Measurement.Monitor.RangingMode, LIMITED, LIMITED, LIMITED, LIMITED
TestParameter, Measurement.Monitor.RangeBoundary, 1nA, 1nA, 1nA, 1nA
TestParameter, Measurement.Monitor.RangeRating, BY FULL RANGE, BY FULL RANGE, BY FULL RANGE, BY FULL RANGE
TestParameter, Measurement.Monitor.RangeRatingCoeff, 50, 50, 50, 50
TestParameter, Measurement.Timing.Hold, 0
TestParameter, Measurement.Timing.Delay, 0
TestParameter, Measurement.Adc.HighSpeed.Mode, AUTO
TestParameter, Measurement.Adc.HighSpeed.Coeff, 1
TestParameter, Measurement.Adc.HighResolution.AutoZero, OFF
TestParameter, Measurement.Adc.HighResolution.Mode, AUTO
TestParameter, Measurement.Adc.HighResolution.Coeff, 6
TestParameter, Measurement.WaitTime.Source.Coeff, 1
TestParameter, Measurement.WaitTime.Source.Offset, 0
TestParameter, Measurement.WaitTime.Monitor.Coeff, 1
TestParameter, Measurement.WaitTime.Monitor.Offset, 0
TestParameter, Output.Graph.Enabled, true
TestParameter, Output.Graph.AutoScaling, false
TestParameter, Output.Graph.XAxis.Data, vd
TestParameter, Output.Graph.XAxis.Scale, Linear
TestParameter, Output.Graph.XAxis.Left, 0
TestParameter, Output.Graph.XAxis.Right, 1
TestParameter, Output.Graph.XAxis.RunTimeAutoScale, true
TestParameter, Output.Graph.YAxis.Data, id
TestParameter, Output.Graph.YAxis.Scale, Linear
TestParameter, Output.Graph.YAxis.Bottom, -0.1
TestParameter, Output.Graph.YAxis.Top, 0.1
TestParameter, Output.Graph.YAxis.Group, 
TestParameter, Output.Graph.YAxis.RunTimeAutoScale, true
TestParameter, AutoAnalysis.Interpolation, false
TestParameter, AutoAnalysis.Var2StepCount, 1
TestParameter, AutoAnalysis.Var2StepScript, 
TestParameter, AutoAnalysis.Line1.Enabled, false
TestParameter, AutoAnalysis.Line1.Type, 1
TestParameter, AutoAnalysis.Line1.Fix, True
TestParameter, AutoAnalysis.Line1.YAxis, 0
TestParameter, AutoAnalysis.Line1.Point1.Type, 0
TestParameter, AutoAnalysis.Line1.Point1.XY.X, 
TestParameter, AutoAnalysis.Line1.Point1.XY.Y, 
TestParameter, AutoAnalysis.Line1.Point1.Data.Var, 
TestParameter, AutoAnalysis.Line1.Point1.Data.Condition, 
TestParameter, AutoAnalysis.Line1.Point1.Data.Start, false
TestParameter, AutoAnalysis.Line1.Point1.Data.StartVar, 
TestParameter, AutoAnalysis.Line1.Point1.Data.StartCondition, 
TestParameter, AutoAnalysis.Line1.Point2.Type, 0
TestParameter, AutoAnalysis.Line1.Point2.XY.X, 
TestParameter, AutoAnalysis.Line1.Point2.XY.Y, 
TestParameter, AutoAnalysis.Line1.Point2.Data.Var, 
TestParameter, AutoAnalysis.Line1.Point2.Data.Condition, 
TestParameter, AutoAnalysis.Line1.Point2.Data.Start, false
TestParameter, AutoAnalysis.Line1.Point2.Data.StartVar, 
TestParameter, AutoAnalysis.Line1.Point2.Data.StartCondition, 
TestParameter, AutoAnalysis.Line1.GradientExpr, 0
TestParameter, AutoAnalysis.Line2.Enabled, false
TestParameter, AutoAnalysis.Line2.Type, 1
TestParameter, AutoAnalysis.Line2.Fix, True
TestParameter, AutoAnalysis.Line2.YAxis, 0
TestParameter, AutoAnalysis.Line2.Point1.Type, 0
TestParameter, AutoAnalysis.Line2.Point1.XY.X, 
TestParameter, AutoAnalysis.Line2.Point1.XY.Y, 
TestParameter, AutoAnalysis.Line2.Point1.Data.Var, 
TestParameter, AutoAnalysis.Line2.Point1.Data.Condition, 
TestParameter, AutoAnalysis.Line2.Point1.Data.Start, false
TestParameter, AutoAnalysis.Line2.Point1.Data.StartVar, 
TestParameter, AutoAnalysis.Line2.Point1.Data.StartCondition, 
TestParameter, AutoAnalysis.Line2.Point2.Type, 0
TestParameter, AutoAnalysis.Line2.Point2.XY.X, 
TestParameter, AutoAnalysis.Line2.Point2.XY.Y, 
TestParameter, AutoAnalysis.Line2.Point2.Data.Var, 
TestParameter, AutoAnalysis.Line2.Point2.Data.Condition, 
TestParameter, AutoAnalysis.Line2.Point2.Data.Start, false
TestParameter, AutoAnalysis.Line2.Point2.Data.StartVar, 
TestParameter, AutoAnalysis.Line2.Point2.Data.StartCondition, 
TestParameter, AutoAnalysis.Line2.GradientExpr, 0
TestParameter, AutoAnalysis.Marker.Enabled, false
TestParameter, AutoAnalysis.Marker.Data.Var, 
TestParameter, AutoAnalysis.Marker.Data.Condition, 
TestParameter, AutoAnalysis.Marker.Data.Start, false
TestParameter, AutoAnalysis.Marker.Data.StartVar, 
TestParameter, AutoAnalysis.Marker.Data.StartCondition, 
MetaData, TestRecord.EntryPoint, true
MetaData, TestRecord.RecordTime, 01/16/2024 15:11:15
MetaData, TestRecord.TestTarget, N-5-0.35-298K
MetaData, TestRecord.IterationIndex, 1
MetaData, TestRecord.Preservation, true
MetaData, TestRecord.Flag, 
MetaData, TestRecord.Remarks, 
MetaData, TestRecord.LinkKey, 24f197c4-a8e4-4f57-9f04-75af420ee938
MetaData, TestRecord.Parameters, 
Dimension1, 331, 331
Dimension2, 6, 6
DataName, vd, id
DataValue, 0, 3.0250000000000005E-11
DataValue, 0.01, 2.8270000000000003E-11
DataValue, 0.02, 3.051E-11
DataValue, 0.03, 2.731E-11
DataValue, 0.04, 3.1450000000000005E-11
DataValue, 0.05, 2.6670000000000003E-11
DataValue, 0.06, 3.2690000000000006E-11
DataValue, 0.07, 2.5030000000000003E-11
DataValue, 0.08, 3.426E-11
DataValue, 0.09, 2.3430000000000003E-11
DataValue, 0.1, 3.5350000000000006E-11
DataValue, 0.11, 2.207E-11
DataValue, 0.12, 3.6110000000000005E-11
DataValue, 0.13, 2.1840000000000002E-11
DataValue, 0.14, 3.7050000000000004E-11
DataValue, 0.15, 2.1930000000000002E-11
DataValue, 0.16, 3.7E-11
DataValue, 0.17, 2.2240000000000002E-11
DataValue, 0.18, 3.6360000000000004E-11
DataValue, 0.19, 2.331E-11
DataValue, 0.2, 3.495E-11
DataValue, 0.21, 2.582E-11
DataValue, 0.22, 3.288E-11
DataValue, 0.23, 2.8300000000000002E-11
DataValue, 0.24, 3.149E-11
DataValue, 0.25, 2.949E-11
DataValue, 0.26, 3.055E-11
DataValue, 0.27, 3.029E-11
DataValue, 0.28, 3.0930000000000003E-11
DataValue, 0.29, 3.033E-11
DataValue, 0.3, 3.038E-11
DataValue, 0.31, 3.004E-11
DataValue, 0.32, 3.015E-11
DataValue, 0.33, 3.089E-11
DataValue, 0.34, 2.938E-11
DataValue, 0.35000000000000003, 3.143E-11
DataValue, 0.36, 2.8710000000000003E-11
DataValue, 0.37, 3.263E-11
DataValue, 0.38, 2.7360000000000003E-11
DataValue, 0.39, 3.4100000000000004E-11
DataValue, 0.4, 2.5260000000000002E-11
DataValue, 0.41000000000000003, 3.5270000000000005E-11
DataValue, 0.42, 2.3990000000000003E-11
DataValue, 0.43, 3.7E-11
DataValue, 0.44, 2.2950000000000002E-11
DataValue, 0.45, 3.777E-11
DataValue, 0.46, 2.2720000000000003E-11
DataValue, 0.47000000000000003, 3.7860000000000005E-11
DataValue, 0.48, 2.318E-11
DataValue, 0.49, 3.7740000000000004E-11
DataValue, 0.5, 2.456E-11
DataValue, 0.51, 3.649E-11
DataValue, 0.52, 2.686E-11
DataValue, 0.53, 3.3560000000000005E-11
DataValue, 0.54, 2.916E-11
DataValue, 0.55, 3.259E-11
DataValue, 0.56, 3.016E-11
DataValue, 0.57000000000000006, 3.1700000000000004E-11
DataValue, 0.58, 3.111E-11
DataValue, 0.59, 3.1840000000000003E-11
DataValue, 0.6, 3.1080000000000004E-11
DataValue, 0.61, 3.1590000000000004E-11
DataValue, 0.62, 3.132E-11
DataValue, 0.63, 3.15E-11
DataValue, 0.64, 3.1770000000000004E-11
DataValue, 0.65, 3.08E-11
DataValue, 0.66, 3.242E-11
DataValue, 0.67, 2.997E-11
DataValue, 0.68, 3.208E-11
DataValue, 0.69000000000000006, 3.038E-11
DataValue, 0.70000000000000007, 3.315E-11
DataValue, 0.71, 2.9020000000000004E-11
DataValue, 0.72, 3.43E-11
DataValue, 0.73, 2.7520000000000002E-11
DataValue, 0.74, 3.532E-11
DataValue, 0.75, 2.664E-11
DataValue, 0.76, 3.7050000000000004E-11
DataValue, 0.77, 2.5060000000000002E-11
DataValue, 0.78, 3.832E-11
DataValue, 0.79, 2.4810000000000003E-11
DataValue, 0.8, 3.893E-11
DataValue, 0.81, 2.3900000000000003E-11
DataValue, 0.82000000000000006, 3.937E-11
DataValue, 0.83000000000000007, 2.4430000000000003E-11
DataValue, 0.84, 3.948E-11
DataValue, 0.85, 2.5470000000000004E-11
DataValue, 0.86, 3.853E-11
DataValue, 0.87, 2.6990000000000002E-11
DataValue, 0.88, 3.703E-11
DataValue, 0.89, 2.9370000000000004E-11
DataValue, 0.9, 3.507E-11
DataValue, 0.91, 3.15E-11
DataValue, 0.92, 3.34E-11
DataValue, 0.93, 3.274E-11
DataValue, 0.94000000000000006, 3.346E-11
DataValue, 0.95000000000000007, 3.245E-11
DataValue, 0.96, 3.3E-11
DataValue, 0.97, 3.3260000000000003E-11
DataValue, 0.98, 3.27E-11
DataValue, 0.99, 3.358E-11
DataValue, 1, 3.289E-11
DataValue, 1.01, 3.3780000000000005E-11
DataValue, 1.02, 3.164E-11
DataValue, 1.03, 3.503E-11
DataValue, 1.04, 3.0500000000000005E-11
DataValue, 1.05, 3.594E-11
DataValue, 1.06, 2.938E-11
DataValue, 1.07, 3.772E-11
DataValue, 1.08, 2.7560000000000003E-11
DataValue, 1.09, 3.883E-11
DataValue, 1.1, 2.6990000000000002E-11
DataValue, 1.11, 4.0180000000000004E-11
DataValue, 1.12, 2.544E-11
DataValue, 1.1300000000000001, 4.0590000000000005E-11
DataValue, 1.1400000000000001, 2.573E-11
DataValue, 1.1500000000000001, 4.071E-11
DataValue, 1.16, 2.629E-11
DataValue, 1.17, 3.8410000000000006E-11
DataValue, 1.18, 2.7540000000000003E-11
DataValue, 1.19, 3.9970000000000005E-11
DataValue, 1.2, 2.64E-11
DataValue, 1.21, 4.0960000000000006E-11
DataValue, 1.22, 2.635E-11
DataValue, 1.23, 4.116E-11
DataValue, 1.24, 2.6670000000000003E-11
DataValue, 1.25, 4.119E-11
DataValue, 1.26, 2.7650000000000003E-11
DataValue, 1.27, 3.9830000000000006E-11
DataValue, 1.28, 2.998E-11
DataValue, 1.29, 3.8410000000000006E-11
DataValue, 1.3, 3.2500000000000004E-11
DataValue, 1.31, 3.6470000000000004E-11
DataValue, 1.32, 3.427E-11
DataValue, 1.33, 3.5380000000000005E-11
DataValue, 1.34, 3.4610000000000004E-11
DataValue, 1.35, 3.5420000000000005E-11
DataValue, 1.36, 3.507E-11
DataValue, 1.37, 3.557E-11
DataValue, 1.3800000000000001, 3.4790000000000003E-11
DataValue, 1.3900000000000001, 3.532E-11
DataValue, 1.4000000000000001, 3.55E-11
DataValue, 1.41, 3.584E-11
DataValue, 1.42, 3.561E-11
DataValue, 1.43, 3.5270000000000005E-11
DataValue, 1.44, 3.558E-11
DataValue, 1.45, 3.5120000000000004E-11
DataValue, 1.46, 3.579E-11
DataValue, 1.47, 3.387E-11
DataValue, 1.48, 3.7130000000000005E-11
DataValue, 1.49, 3.3300000000000004E-11
DataValue, 1.5, 3.8730000000000005E-11
DataValue, 1.51, 3.153E-11
DataValue, 1.52, 3.9960000000000003E-11
DataValue, 1.53, 2.971E-11
DataValue, 1.54, 4.126E-11
DataValue, 1.55, 2.8420000000000004E-11
DataValue, 1.56, 4.286E-11
DataValue, 1.57, 2.8380000000000003E-11
DataValue, 1.58, 4.334E-11
DataValue, 1.59, 2.848E-11
DataValue, 1.6, 4.359E-11
DataValue, 1.61, 2.857E-11
DataValue, 1.62, 4.305E-11
DataValue, 1.6300000000000001, 3.047E-11
DataValue, 1.6400000000000001, 4.1460000000000005E-11
DataValue, 1.6500000000000001, 3.3160000000000005E-11
DataValue, 1.6600000000000001, 3.8800000000000004E-11
DataValue, 1.67, 3.5380000000000005E-11
DataValue, 1.68, 3.7960000000000004E-11
DataValue, 1.69, 3.671E-11
DataValue, 1.7, 3.7420000000000005E-11
DataValue, 1.71, 3.711E-11
DataValue, 1.72, 3.748E-11
DataValue, 1.73, 3.715E-11
DataValue, 1.74, 3.7310000000000005E-11
DataValue, 1.75, 3.74E-11
DataValue, 1.76, 3.7E-11
DataValue, 1.77, 3.758E-11
DataValue, 1.78, 3.667E-11
DataValue, 1.79, 3.923E-11
DataValue, 1.8, 3.561E-11
DataValue, 1.81, 3.9930000000000005E-11
DataValue, 1.82, 3.415E-11
DataValue, 1.83, 4.1030000000000006E-11
DataValue, 1.84, 3.646E-11
DataValue, 1.85, 3.799E-11
DataValue, 1.86, 3.761E-11
DataValue, 1.87, 3.8400000000000004E-11
DataValue, 1.8800000000000001, 3.741E-11
DataValue, 1.8900000000000001, 3.8510000000000005E-11
DataValue, 1.9000000000000001, 3.788E-11
DataValue, 1.9100000000000001, 3.8910000000000004E-11
DataValue, 1.92, 3.863E-11
DataValue, 1.93, 3.882E-11
DataValue, 1.94, 3.8510000000000005E-11
DataValue, 1.95, 3.8950000000000005E-11
DataValue, 1.96, 3.801E-11
DataValue, 1.97, 3.988E-11
DataValue, 1.98, 3.737E-11
DataValue, 1.99, 4.053E-11
DataValue, 2, 3.562E-11
DataValue, 2.0100000000000002, 4.2270000000000006E-11
DataValue, 2.02, 3.4290000000000005E-11
DataValue, 2.0300000000000002, 4.403E-11
DataValue, 2.04, 3.274E-11
DataValue, 2.05, 4.5460000000000004E-11
DataValue, 2.06, 3.2070000000000005E-11
DataValue, 2.07, 4.6520000000000005E-11
DataValue, 2.08, 3.1520000000000005E-11
DataValue, 2.09, 4.6820000000000006E-11
DataValue, 2.1, 3.161E-11
DataValue, 2.11, 4.727E-11
DataValue, 2.12, 3.242E-11
DataValue, 2.13, 4.6190000000000004E-11
DataValue, 2.14, 3.5230000000000004E-11
DataValue, 2.15, 4.373E-11
DataValue, 2.16, 3.7860000000000005E-11
DataValue, 2.17, 4.2260000000000005E-11
DataValue, 2.18, 4.035E-11
DataValue, 2.19, 4.141E-11
DataValue, 2.2, 4.071E-11
DataValue, 2.21, 4.1390000000000005E-11
DataValue, 2.22, 4.083E-11
DataValue, 2.23, 4.105E-11
DataValue, 2.24, 4.133E-11
DataValue, 2.25, 4.071E-11
DataValue, 2.2600000000000002, 4.1540000000000006E-11
DataValue, 2.27, 4.1430000000000006E-11
DataValue, 2.2800000000000002, 4.144E-11
DataValue, 2.29, 4.039E-11
DataValue, 2.3000000000000003, 4.2440000000000004E-11
DataValue, 2.31, 3.94E-11
DataValue, 2.32, 4.362E-11
DataValue, 2.33, 3.7710000000000005E-11
DataValue, 2.34, 4.582E-11
DataValue, 2.35, 3.576E-11
DataValue, 2.36, 4.6950000000000003E-11
DataValue, 2.37, 3.4680000000000003E-11
DataValue, 2.38, 4.8160000000000005E-11
DataValue, 2.39, 3.384E-11
DataValue, 2.4, 4.895E-11
DataValue, 2.41, 3.4220000000000006E-11
DataValue, 2.42, 4.942E-11
DataValue, 2.43, 3.503E-11
DataValue, 2.44, 4.9300000000000007E-11
DataValue, 2.45, 3.635E-11
DataValue, 2.46, 4.8080000000000004E-11
DataValue, 2.47, 3.879E-11
DataValue, 2.48, 4.6310000000000006E-11
DataValue, 2.49, 4.111E-11
DataValue, 2.5, 4.497E-11
DataValue, 2.5100000000000002, 4.268E-11
DataValue, 2.52, 4.4120000000000005E-11
DataValue, 2.5300000000000002, 4.345E-11
DataValue, 2.54, 4.3830000000000005E-11
DataValue, 2.5500000000000003, 4.3650000000000006E-11
DataValue, 2.56, 4.402E-11
DataValue, 2.57, 4.4040000000000004E-11
DataValue, 2.58, 4.381E-11
DataValue, 2.59, 4.44E-11
DataValue, 2.6, 4.297E-11
DataValue, 2.61, 4.486E-11
DataValue, 2.62, 4.2630000000000006E-11
DataValue, 2.63, 4.56E-11
DataValue, 2.64, 4.1020000000000004E-11
DataValue, 2.65, 4.6660000000000004E-11
DataValue, 2.66, 4.038E-11
DataValue, 2.67, 4.8590000000000004E-11
DataValue, 2.68, 3.867E-11
DataValue, 2.69, 4.968E-11
DataValue, 2.7, 3.766E-11
DataValue, 2.71, 4.8450000000000005E-11
DataValue, 2.72, 3.874E-11
DataValue, 2.73, 5.0610000000000007E-11
DataValue, 2.74, 3.809E-11
DataValue, 2.75, 5.175E-11
DataValue, 2.7600000000000002, 3.7390000000000006E-11
DataValue, 2.77, 5.2390000000000006E-11
DataValue, 2.7800000000000002, 3.7270000000000004E-11
DataValue, 2.79, 5.2560000000000004E-11
DataValue, 2.8000000000000003, 3.846E-11
DataValue, 2.81, 5.19E-11
DataValue, 2.82, 3.995E-11
DataValue, 2.83, 5.0390000000000006E-11
DataValue, 2.84, 4.323E-11
DataValue, 2.85, 4.9250000000000004E-11
DataValue, 2.86, 4.487E-11
DataValue, 2.87, 4.7650000000000005E-11
DataValue, 2.88, 4.632E-11
DataValue, 2.89, 4.7620000000000006E-11
DataValue, 2.9, 4.702E-11
DataValue, 2.91, 4.745E-11
DataValue, 2.92, 4.705E-11
DataValue, 2.93, 4.7480000000000007E-11
DataValue, 2.94, 4.7150000000000006E-11
DataValue, 2.95, 4.796E-11
DataValue, 2.96, 4.793E-11
DataValue, 2.97, 4.7070000000000005E-11
DataValue, 2.98, 4.938E-11
DataValue, 2.99, 4.2190000000000005E-11
DataValue, 3, 5.4290000000000007E-11
DataValue, 3.0100000000000002, 3.9970000000000005E-11
DataValue, 3.02, 5.4690000000000007E-11
DataValue, 3.0300000000000002, 4.144E-11
DataValue, 3.04, 5.4240000000000005E-11
DataValue, 3.0500000000000003, 4.293E-11
DataValue, 3.06, 5.291E-11
DataValue, 3.0700000000000003, 4.4810000000000005E-11
DataValue, 3.08, 5.3070000000000004E-11
DataValue, 3.09, 4.556E-11
DataValue, 3.1, 5.1320000000000003E-11
DataValue, 3.11, 4.7650000000000005E-11
DataValue, 3.12, 5.008E-11
DataValue, 3.13, 4.8590000000000004E-11
DataValue, 3.14, 5.054E-11
DataValue, 3.15, 4.934E-11
DataValue, 3.16, 4.974E-11
DataValue, 3.17, 4.9990000000000007E-11
DataValue, 3.18, 4.9950000000000006E-11
DataValue, 3.19, 5.0090000000000005E-11
DataValue, 3.2, 4.953E-11
DataValue, 3.21, 5.048E-11
DataValue, 3.22, 4.9100000000000004E-11
DataValue, 3.23, 5.1120000000000007E-11
DataValue, 3.24, 4.9320000000000004E-11
DataValue, 3.25, 5.1260000000000006E-11
DataValue, 3.2600000000000002, 4.84E-11
DataValue, 3.27, 5.2930000000000005E-11
DataValue, 3.2800000000000002, 4.684E-11
DataValue, 3.29, 5.4280000000000005E-11
DataValue, 3.3000000000000003, 4.7730000000000006E-11
DataValue, 0, 3E-11
DataValue, 0.01, 2.6370000000000002E-11
DataValue, 0.02, 3.1850000000000005E-11
DataValue, 0.03, 2.504E-11
DataValue, 0.04, 3.288E-11
DataValue, 0.05, 2.396E-11
DataValue, 0.06, 3.3810000000000004E-11
DataValue, 0.07, 2.2920000000000003E-11
DataValue, 0.08, 3.561E-11
DataValue, 0.09, 2.236E-11
DataValue, 0.1, 3.62E-11
DataValue, 0.11, 2.183E-11
DataValue, 0.12, 3.641E-11
DataValue, 0.13, 2.1840000000000002E-11
DataValue, 0.14, 3.649E-11
DataValue, 0.15, 2.258E-11
DataValue, 0.16, 3.652E-11
DataValue, 0.17, 2.172E-11
DataValue, 0.18, 3.6870000000000004E-11
DataValue, 0.19, 2.2210000000000003E-11
DataValue, 0.2, 3.6830000000000004E-11
DataValue, 0.21, 2.3020000000000002E-11
DataValue, 0.22, 3.5520000000000004E-11
DataValue, 0.23, 2.562E-11
DataValue, 0.24, 3.3200000000000006E-11
DataValue, 0.25, 2.7520000000000002E-11
DataValue, 0.26, 3.209E-11
DataValue, 0.27, 2.913E-11
DataValue, 0.28, 3.085E-11
DataValue, 0.29, 3.037E-11
DataValue, 0.3, 3.084E-11
DataValue, 0.31, 3.015E-11
DataValue, 0.32, 3.0500000000000005E-11
DataValue, 0.33, 3.033E-11
DataValue, 0.34, 3.085E-11
DataValue, 0.35000000000000003, 3.0430000000000005E-11
DataValue, 0.36, 3.007E-11
DataValue, 0.37, 3.066E-11
DataValue, 0.38, 2.965E-11
DataValue, 0.39, 3.12E-11
DataValue, 0.4, 2.908E-11
DataValue, 0.41000000000000003, 3.2390000000000004E-11
DataValue, 0.42, 2.8200000000000003E-11
DataValue, 0.43, 3.3120000000000004E-11
DataValue, 0.44, 2.684E-11
DataValue, 0.45, 3.409E-11
DataValue, 0.46, 2.562E-11
DataValue, 0.47000000000000003, 3.577E-11
DataValue, 0.48, 2.4080000000000002E-11
DataValue, 0.49, 3.6910000000000005E-11
DataValue, 0.5, 2.3150000000000002E-11
DataValue, 0.51, 3.7860000000000005E-11
DataValue, 0.52, 2.28E-11
DataValue, 0.53, 3.8000000000000004E-11
DataValue, 0.54, 2.349E-11
DataValue, 0.55, 3.7960000000000004E-11
DataValue, 0.56, 2.429E-11
DataValue, 0.57000000000000006, 3.664E-11
DataValue, 0.58, 2.713E-11
DataValue, 0.59, 3.448E-11
DataValue, 0.6, 2.932E-11
DataValue, 0.61, 3.2460000000000003E-11
DataValue, 0.62, 3.107E-11
DataValue, 0.63, 3.209E-11
