
SetupTitle, NMOS-id-vg-vbs@vds=0.05
PrimitiveTest, I/V Sweep
TestParameter, Context.MainFrame, B1500A
TestParameter, Channel.UnitType, SMU, SMU, SMU, SMU
TestParameter, Channel.Unit, SMU2:HR, SMU1:HR, SMU3:HR, SMU4:HR
TestParameter, Channel.IName, ib, is, ig, id
TestParameter, Channel.VName, vb, vs, vg, vd
TestParameter, Channel.Mode, V, COMMON, V, V
TestParameter, Channel.Func, VAR2, CONST, VAR1, CONST
TestParameter, Channel.Index, 
TestParameter, Channel.Time, 
TestParameter, Measurement.Port.Unit, SMU2:HR, SMU1:HR, SMU3:HR, SMU4:HR
TestParameter, Measurement.Port.SeriesResistor, NONE, NONE, NONE, NONE
TestParameter, Measurement.Port.Filter, ON, ON, ON, ON
TestParameter, Measurement.Port.OutputVoltageComparison, 0, 0, 0, 0
TestParameter, Measurement.Primary.Locus, Single
TestParameter, Measurement.Primary.Scale, LINEAR
TestParameter, Measurement.Primary.Start, -0.5
TestParameter, Measurement.Primary.Stop, 3.3000000000000003
TestParameter, Measurement.Primary.Step, 0.01
TestParameter, Measurement.Primary.Compliance, 0.001
TestParameter, Measurement.Primary.PowerCompliance, 0
TestParameter, Measurement.Aborting.Condition, SKIP AT ANY ABNORMAL
TestParameter, Measurement.PostOutput.Value, START
TestParameter, Measurement.PostOutput.Retention, OFF
TestParameter, Measurement.Secondary.Start, 0
TestParameter, Measurement.Secondary.Count, 7
TestParameter, Measurement.Secondary.Step, -0.6
TestParameter, Measurement.Secondary.Compliance, 0.1
TestParameter, Measurement.Secondary.PowerCompliance, 0
TestParameter, Measurement.Bias.Source, 0, 0, -0.5, 0.05
TestParameter, Measurement.Bias.Compliance, 0.1, 0.1, 0.001, 0.1
TestParameter, Measurement.Monitor.Unit, SMU2:HR, SMU1:HR, SMU3:HR, SMU4:HR
TestParameter, Measurement.Monitor.Adc, HR ADC, HR ADC, HR ADC, HR ADC
TestParameter, Measurement.Monitor.Measurement, Compliance Side, Compliance Side, Compliance Side, Compliance Side
TestParameter, Measurement.Monitor.RangingMode, LIMITED, LIMITED, LIMITED, LIMITED
TestParameter, Measurement.Monitor.RangeBoundary, 1nA, 1nA, 1nA, 1nA
TestParameter, Measurement.Monitor.RangeRating, BY FULL RANGE, BY FULL RANGE, BY FULL RANGE, BY FULL RANGE
TestParameter, Measurement.Monitor.RangeRatingCoeff, 50, 50, 50, 50
TestParameter, Measurement.Timing.Hold, 0
TestParameter, Measurement.Timing.Delay, 0
TestParameter, Measurement.Adc.HighSpeed.Mode, AUTO
TestParameter, Measurement.Adc.HighSpeed.Coeff, 1
TestParameter, Measurement.Adc.HighResolution.AutoZero, OFF
TestParameter, Measurement.Adc.HighResolution.Mode, AUTO
TestParameter, Measurement.Adc.HighResolution.Coeff, 6
TestParameter, Measurement.WaitTime.Source.Coeff, 1
TestParameter, Measurement.WaitTime.Source.Offset, 0
TestParameter, Measurement.WaitTime.Monitor.Coeff, 1
TestParameter, Measurement.WaitTime.Monitor.Offset, 0
TestParameter, Output.Graph.Enabled, true
TestParameter, Output.Graph.AutoScaling, false
TestParameter, Output.Graph.XAxis.Data, vg
TestParameter, Output.Graph.XAxis.Scale, Linear
TestParameter, Output.Graph.XAxis.Left, 0
TestParameter, Output.Graph.XAxis.Right, 0.9
TestParameter, Output.Graph.XAxis.RunTimeAutoScale, true
TestParameter, Output.Graph.YAxis.Data, id
TestParameter, Output.Graph.YAxis.Scale, Linear
TestParameter, Output.Graph.YAxis.Bottom, -0.1
TestParameter, Output.Graph.YAxis.Top, 0.1
TestParameter, Output.Graph.YAxis.Group, 
TestParameter, Output.Graph.YAxis.RunTimeAutoScale, true
TestParameter, AutoAnalysis.Interpolation, false
TestParameter, AutoAnalysis.Var2StepCount, 1
TestParameter, AutoAnalysis.Var2StepScript, 
TestParameter, AutoAnalysis.Line1.Enabled, false
TestParameter, AutoAnalysis.Line1.Type, 1
TestParameter, AutoAnalysis.Line1.Fix, True
TestParameter, AutoAnalysis.Line1.YAxis, 0
TestParameter, AutoAnalysis.Line1.Point1.Type, 0
TestParameter, AutoAnalysis.Line1.Point1.XY.X, 
TestParameter, AutoAnalysis.Line1.Point1.XY.Y, 
TestParameter, AutoAnalysis.Line1.Point1.Data.Var, 
TestParameter, AutoAnalysis.Line1.Point1.Data.Condition, 
TestParameter, AutoAnalysis.Line1.Point1.Data.Start, false
TestParameter, AutoAnalysis.Line1.Point1.Data.StartVar, 
TestParameter, AutoAnalysis.Line1.Point1.Data.StartCondition, 
TestParameter, AutoAnalysis.Line1.Point2.Type, 0
TestParameter, AutoAnalysis.Line1.Point2.XY.X, 
TestParameter, AutoAnalysis.Line1.Point2.XY.Y, 
TestParameter, AutoAnalysis.Line1.Point2.Data.Var, 
TestParameter, AutoAnalysis.Line1.Point2.Data.Condition, 
TestParameter, AutoAnalysis.Line1.Point2.Data.Start, false
TestParameter, AutoAnalysis.Line1.Point2.Data.StartVar, 
TestParameter, AutoAnalysis.Line1.Point2.Data.StartCondition, 
TestParameter, AutoAnalysis.Line1.GradientExpr, 0
TestParameter, AutoAnalysis.Line2.Enabled, false
TestParameter, AutoAnalysis.Line2.Type, 1
TestParameter, AutoAnalysis.Line2.Fix, True
TestParameter, AutoAnalysis.Line2.YAxis, 0
TestParameter, AutoAnalysis.Line2.Point1.Type, 0
TestParameter, AutoAnalysis.Line2.Point1.XY.X, 
TestParameter, AutoAnalysis.Line2.Point1.XY.Y, 
TestParameter, AutoAnalysis.Line2.Point1.Data.Var, 
TestParameter, AutoAnalysis.Line2.Point1.Data.Condition, 
TestParameter, AutoAnalysis.Line2.Point1.Data.Start, false
TestParameter, AutoAnalysis.Line2.Point1.Data.StartVar, 
TestParameter, AutoAnalysis.Line2.Point1.Data.StartCondition, 
TestParameter, AutoAnalysis.Line2.Point2.Type, 0
TestParameter, AutoAnalysis.Line2.Point2.XY.X, 
TestParameter, AutoAnalysis.Line2.Point2.XY.Y, 
TestParameter, AutoAnalysis.Line2.Point2.Data.Var, 
TestParameter, AutoAnalysis.Line2.Point2.Data.Condition, 
TestParameter, AutoAnalysis.Line2.Point2.Data.Start, false
TestParameter, AutoAnalysis.Line2.Point2.Data.StartVar, 
TestParameter, AutoAnalysis.Line2.Point2.Data.StartCondition, 
TestParameter, AutoAnalysis.Line2.GradientExpr, 0
TestParameter, AutoAnalysis.Marker.Enabled, false
TestParameter, AutoAnalysis.Marker.Data.Var, 
TestParameter, AutoAnalysis.Marker.Data.Condition, 
TestParameter, AutoAnalysis.Marker.Data.Start, false
TestParameter, AutoAnalysis.Marker.Data.StartVar, 
TestParameter, AutoAnalysis.Marker.Data.StartCondition, 
MetaData, TestRecord.EntryPoint, true
MetaData, TestRecord.RecordTime, 01/16/2024 15:51:23
MetaData, TestRecord.TestTarget, N-1-1-298K
MetaData, TestRecord.IterationIndex, 19
MetaData, TestRecord.Preservation, true
MetaData, TestRecord.Flag, 
MetaData, TestRecord.Remarks, 
MetaData, TestRecord.LinkKey, 8a49512d-218d-4b0e-8bc7-015363e6e5e7
MetaData, TestRecord.Parameters, 
Dimension1, 381, 381
Dimension2, 7, 7
DataName, vg, id
DataValue, -0.5, 1.373E-11
DataValue, -0.49, 7.1900000000000007E-12
DataValue, -0.48, 1.6E-12
DataValue, -0.47000000000000003, 1.5160000000000002E-11
DataValue, -0.46, 7.32E-12
DataValue, -0.45, 3.5400000000000003E-12
DataValue, -0.44, 1.624E-11
DataValue, -0.43, 7.11E-12
DataValue, -0.42, 5.13E-12
DataValue, -0.41000000000000003, 1.6540000000000002E-11
DataValue, -0.4, 6.6700000000000005E-12
DataValue, -0.39, 3.4900000000000003E-12
DataValue, -0.38, 1.475E-11
DataValue, -0.37, 7.55E-12
DataValue, -0.36, 1.4300000000000002E-12
DataValue, -0.35000000000000003, 1.5180000000000003E-11
DataValue, -0.34, 7.63E-12
DataValue, -0.33, 3.51E-12
DataValue, -0.32, 1.65E-11
DataValue, -0.31, 7.1400000000000007E-12
DataValue, -0.3, 5.7200000000000007E-12
DataValue, -0.29, 1.6580000000000002E-11
DataValue, -0.28, 6.3300000000000007E-12
DataValue, -0.27, 7.0000000000000009E-12
DataValue, -0.26, 1.6160000000000002E-11
DataValue, -0.25, 4.12E-12
DataValue, -0.24, 7.3700000000000011E-12
DataValue, -0.23, 1.4670000000000003E-11
DataValue, -0.22, 1.6700000000000002E-12
DataValue, -0.21, 7.85E-12
DataValue, -0.2, 1.332E-11
DataValue, -0.19, -1.8000000000000002E-13
DataValue, -0.18, 7.71E-12
DataValue, -0.17, 1.1560000000000002E-11
DataValue, -0.16, -1.55E-12
DataValue, -0.15, 8.4900000000000012E-12
DataValue, -0.14, 8.25E-12
DataValue, -0.13, -1.55E-12
DataValue, -0.12, 9.47E-12
DataValue, -0.11, 8.74E-12
DataValue, -0.1, -8.4000000000000006E-13
DataValue, -0.09, 1.0940000000000001E-11
DataValue, -0.08, 7.8800000000000012E-12
DataValue, -0.07, -6.6E-13
DataValue, -0.06, 1.249E-11
DataValue, -0.05, 8.45E-12
DataValue, -0.04, -3.9000000000000005E-13
DataValue, -0.03, 1.1850000000000001E-11
DataValue, -0.02, 7.970000000000001E-12
DataValue, -0.01, 4.8000000000000008E-13
DataValue, 0, 1.51E-11
DataValue, 0.01, 7.7600000000000009E-12
DataValue, 0.02, 2.4500000000000003E-12
DataValue, 0.03, 1.59E-11
DataValue, 0.04, 7.74E-12
DataValue, 0.05, 7.2000000000000006E-13
DataValue, 0.06, 1.4650000000000002E-11
DataValue, 0.07, 7.7800000000000012E-12
DataValue, 0.08, 1.93E-12
DataValue, 0.09, 1.157E-11
DataValue, 0.1, 9.36E-12
DataValue, 0.11, -1.4700000000000002E-12
DataValue, 0.12, 7.7800000000000012E-12
DataValue, 0.13, 1.21E-11
DataValue, 0.14, 1.5300000000000001E-12
DataValue, 0.15, 7.360000000000001E-12
DataValue, 0.16, 1.5520000000000002E-11
DataValue, 0.17, 6.7500000000000009E-12
DataValue, 0.18, 7.55E-12
DataValue, 0.19, 1.6600000000000003E-11
DataValue, 0.2, 7.75E-12
DataValue, 0.21, 3.72E-12
DataValue, 0.22, 1.477E-11
DataValue, 0.23, 7.82E-12
DataValue, 0.24, 1.3800000000000002E-12
DataValue, 0.25, 1.1450000000000002E-11
DataValue, 0.26, 1.0400000000000001E-11
DataValue, 0.27, -3.8000000000000005E-13
DataValue, 0.28, 9.7000000000000011E-12
DataValue, 0.29, 1.468E-11
DataValue, 0.3, 5.8200000000000006E-12
DataValue, 0.31, 9.66E-12
DataValue, 0.32, 2.0550000000000003E-11
DataValue, 0.33, 1.1560000000000002E-11
DataValue, 0.34, 1.055E-11
DataValue, 0.35000000000000003, 2.296E-11
DataValue, 0.36, 1.7870000000000002E-11
DataValue, 0.37, 1.1430000000000001E-11
DataValue, 0.38, 2.6520000000000003E-11
DataValue, 0.39, 2.996E-11
DataValue, 0.4, 2.4640000000000002E-11
DataValue, 0.41000000000000003, 4.133E-11
DataValue, 0.42, 5.576E-11
DataValue, 0.43, 5.5290000000000004E-11
DataValue, 0.44, 7.6410000000000011E-11
DataValue, 0.45, 1.0547000000000001E-10
DataValue, 0.46, 1.1951E-10
DataValue, 0.47000000000000003, 1.4983000000000001E-10
DataValue, 0.48, 2.0514000000000003E-10
DataValue, 0.49, 2.4664000000000004E-10
DataValue, 0.5, 3.0448E-10
DataValue, 0.51, 4.1205000000000004E-10
DataValue, 0.52, 5.0992E-10
DataValue, 0.53, 6.5134E-10
DataValue, 0.54, 8.3398E-10
DataValue, 0.55, 1.0701600000000002E-09
DataValue, 0.56, 1.4572E-09
DataValue, 0.57000000000000006, 1.7561E-09
DataValue, 0.58, 2.2663E-09
DataValue, 0.59, 2.9582E-09
DataValue, 0.6, 3.6863E-09
DataValue, 0.61, 4.7357E-09
DataValue, 0.62, 6.0054E-09
DataValue, 0.63, 7.6157E-09
DataValue, 0.64, 9.7019E-09
DataValue, 0.65, 1.29342E-08
DataValue, 0.66, 1.62462E-08
DataValue, 0.67, 2.04978E-08
DataValue, 0.68, 2.589E-08
DataValue, 0.69000000000000006, 3.2004399999999995E-08
DataValue, 0.70000000000000007, 3.9699E-08
DataValue, 0.71, 4.8867799999999994E-08
DataValue, 0.72, 5.9940399999999988E-08
DataValue, 0.73, 7.283939999999999E-08
DataValue, 0.74, 8.8135799999999992E-08
DataValue, 0.75, 1.0590219999999999E-07
DataValue, 0.76, 1.2636E-07
DataValue, 0.77, 1.5E-07
DataValue, 0.78, 1.7587999999999998E-07
DataValue, 0.79, 2.0538E-07
DataValue, 0.8, 2.3862E-07
DataValue, 0.81, 2.7378E-07
DataValue, 0.82000000000000006, 3.1276E-07
DataValue, 0.83000000000000007, 3.5556E-07
DataValue, 0.84, 4.0199999999999997E-07
DataValue, 0.85, 4.512E-07
DataValue, 0.86, 5.0302E-07
DataValue, 0.87, 5.5886E-07
DataValue, 0.88, 6.1676E-07
DataValue, 0.89, 6.7696E-07
DataValue, 0.9, 7.4E-07
DataValue, 0.91, 8.0784E-07
DataValue, 0.92, 8.7584E-07
DataValue, 0.93, 9.4516E-07
DataValue, 0.94000000000000006, 1.0154399999999999E-06
DataValue, 0.95000000000000007, 1.08978E-06
DataValue, 0.96, 1.1632000000000002E-06
DataValue, 0.97, 1.2407E-06
DataValue, 0.98, 1.3191000000000002E-06
DataValue, 0.99, 1.3976000000000002E-06
DataValue, 1, 1.4760000000000001E-06
DataValue, 1.01, 1.5555000000000002E-06
DataValue, 1.02, 1.6378000000000002E-06
DataValue, 1.03, 1.7188000000000002E-06
DataValue, 1.04, 1.8042000000000002E-06
DataValue, 1.05, 1.8863000000000003E-06
DataValue, 1.06, 1.9691000000000003E-06
DataValue, 1.07, 2.0515E-06
DataValue, 1.08, 2.1366E-06
DataValue, 1.09, 2.2203E-06
DataValue, 1.1, 2.3052000000000004E-06
DataValue, 1.11, 2.3889E-06
DataValue, 1.12, 2.4750000000000004E-06
DataValue, 1.1300000000000001, 2.5607000000000003E-06
DataValue, 1.1400000000000001, 2.6431E-06
DataValue, 1.1500000000000001, 2.7281E-06
DataValue, 1.16, 2.8142E-06
DataValue, 1.17, 2.8992E-06
DataValue, 1.18, 2.9829000000000003E-06
DataValue, 1.19, 3.0683000000000003E-06
DataValue, 1.2, 3.1521000000000003E-06
DataValue, 1.21, 3.2321000000000004E-06
DataValue, 1.22, 3.3180000000000003E-06
DataValue, 1.23, 3.4021000000000004E-06
DataValue, 1.24, 3.4892000000000004E-06
DataValue, 1.25, 3.5692000000000005E-06
DataValue, 1.26, 3.6552E-06
DataValue, 1.27, 3.7399000000000004E-06
DataValue, 1.28, 3.8213E-06
DataValue, 1.29, 3.9029E-06
DataValue, 1.3, 3.9893E-06
DataValue, 1.31, 4.072E-06
DataValue, 1.32, 4.1518000000000006E-06
DataValue, 1.33, 4.2365E-06
DataValue, 1.34, 4.3152000000000006E-06
DataValue, 1.35, 4.3971000000000006E-06
DataValue, 1.36, 4.4805000000000006E-06
DataValue, 1.37, 4.5629000000000008E-06
DataValue, 1.3800000000000001, 4.6412000000000006E-06
DataValue, 1.3900000000000001, 4.7244000000000009E-06
DataValue, 1.4000000000000001, 4.8039000000000007E-06
DataValue, 1.41, 4.8797000000000009E-06
DataValue, 1.42, 4.9624E-06
DataValue, 1.43, 5.0446000000000008E-06
DataValue, 1.44, 5.1226000000000007E-06
DataValue, 1.45, 5.1999000000000008E-06
DataValue, 1.46, 5.2809000000000005E-06
DataValue, 1.47, 5.3569E-06
DataValue, 1.48, 5.4357E-06
DataValue, 1.49, 5.5152E-06
DataValue, 1.5, 5.5955000000000009E-06
DataValue, 1.51, 5.6694E-06
DataValue, 1.52, 5.7472000000000006E-06
DataValue, 1.53, 5.8267000000000005E-06
DataValue, 1.54, 5.8985E-06
DataValue, 1.55, 5.9758000000000005E-06
DataValue, 1.56, 6.0563000000000008E-06
DataValue, 1.57, 6.1316000000000007E-06
DataValue, 1.58, 6.2026000000000006E-06
DataValue, 1.59, 6.2776000000000007E-06
DataValue, 1.6, 6.3555E-06
DataValue, 1.61, 6.4281E-06
DataValue, 1.62, 6.5005000000000007E-06
DataValue, 1.6300000000000001, 6.5764E-06
DataValue, 1.6400000000000001, 6.6503000000000005E-06
DataValue, 1.6500000000000001, 6.7197000000000011E-06
DataValue, 1.6600000000000001, 6.791900000000001E-06
DataValue, 1.67, 6.868000000000001E-06
DataValue, 1.68, 6.939100000000001E-06
DataValue, 1.69, 7.0089000000000008E-06
DataValue, 1.7, 7.0850000000000008E-06
DataValue, 1.71, 7.1552000000000005E-06
DataValue, 1.72, 7.2201000000000005E-06
DataValue, 1.73, 7.2917000000000008E-06
DataValue, 1.74, 7.3668E-06
DataValue, 1.75, 7.4344E-06
DataValue, 1.76, 7.5024E-06
DataValue, 1.77, 7.5773000000000011E-06
DataValue, 1.78, 7.6452000000000009E-06
DataValue, 1.79, 7.7080000000000014E-06
DataValue, 1.8, 7.777E-06
DataValue, 1.81, 7.8495E-06
DataValue, 1.82, 7.916E-06
DataValue, 1.83, 7.9796E-06
DataValue, 1.84, 8.0486000000000012E-06
DataValue, 1.85, 8.1161E-06
DataValue, 1.86, 8.179E-06
DataValue, 1.87, 8.2498E-06
DataValue, 1.8800000000000001, 8.308900000000001E-06
DataValue, 1.8900000000000001, 8.3736E-06
DataValue, 1.9000000000000001, 8.4428000000000016E-06
DataValue, 1.9100000000000001, 8.5052000000000012E-06
DataValue, 1.92, 8.5675E-06
DataValue, 1.93, 8.6371E-06
DataValue, 1.94, 8.6985000000000015E-06
DataValue, 1.95, 8.7574E-06
DataValue, 1.96, 8.8241E-06
DataValue, 1.97, 8.8871000000000017E-06
DataValue, 1.98, 8.9449000000000014E-06
DataValue, 1.99, 9.0102E-06
DataValue, 2, 9.0729E-06
DataValue, 2.0100000000000002, 9.1285E-06
DataValue, 2.02, 9.1911E-06
DataValue, 2.0300000000000002, 9.2577000000000012E-06
DataValue, 2.04, 9.312500000000001E-06
DataValue, 2.05, 9.371E-06
DataValue, 2.06, 9.4346000000000011E-06
DataValue, 2.07, 9.4936000000000017E-06
DataValue, 2.08, 9.5485E-06
DataValue, 2.09, 9.6133000000000016E-06
DataValue, 2.1, 9.6695000000000012E-06
DataValue, 2.11, 9.7227000000000009E-06
DataValue, 2.12, 9.7818000000000018E-06
DataValue, 2.13, 9.8436000000000018E-06
DataValue, 2.14, 9.8995E-06
DataValue, 2.15, 9.9503E-06
DataValue, 2.16, 1.0011900000000002E-05
DataValue, 2.17, 1.0068E-05
DataValue, 2.18, 1.0119100000000001E-05
DataValue, 2.19, 1.01729E-05
DataValue, 2.2, 1.0234400000000002E-05
DataValue, 2.21, 1.02912E-05
DataValue, 2.22, 1.0336300000000001E-05
DataValue, 2.23, 1.03971E-05
DataValue, 2.24, 1.0450100000000002E-05
DataValue, 2.25, 1.04975E-05
DataValue, 2.2600000000000002, 1.0553300000000001E-05
DataValue, 2.27, 1.0609600000000001E-05
DataValue, 2.2800000000000002, 1.0661800000000002E-05
DataValue, 2.29, 1.07092E-05
DataValue, 2.3000000000000003, 1.0765000000000001E-05
DataValue, 2.31, 1.0817600000000001E-05
DataValue, 2.32, 1.0866300000000001E-05
DataValue, 2.33, 1.09161E-05
DataValue, 2.34, 1.0969800000000001E-05
DataValue, 2.35, 1.1021600000000001E-05
DataValue, 2.36, 1.1065800000000002E-05
DataValue, 2.37, 1.1111500000000002E-05
DataValue, 2.38, 1.1169100000000001E-05
DataValue, 2.39, 1.1210800000000001E-05
DataValue, 2.4, 1.12576E-05
DataValue, 2.41, 1.1313100000000002E-05
DataValue, 2.42, 1.1359900000000001E-05
DataValue, 2.43, 1.1398700000000002E-05
DataValue, 2.44, 1.1446600000000002E-05
DataValue, 2.45, 1.1499700000000001E-05
DataValue, 2.46, 1.1546000000000001E-05
DataValue, 2.47, 1.1588E-05
DataValue, 2.48, 1.1642E-05
DataValue, 2.49, 1.1686E-05
DataValue, 2.5, 1.172E-05
DataValue, 2.5100000000000002, 1.1774000000000001E-05
DataValue, 2.52, 1.1818000000000001E-05
DataValue, 2.5300000000000002, 1.1858E-05
DataValue, 2.54, 1.1902E-05
DataValue, 2.5500000000000003, 1.1952E-05
DataValue, 2.56, 1.1996E-05
DataValue, 2.57, 1.2032000000000001E-05
DataValue, 2.58, 1.207E-05
DataValue, 2.59, 1.2124000000000001E-05
DataValue, 2.6, 1.2168000000000001E-05
DataValue, 2.61, 1.2194E-05
DataValue, 2.62, 1.2248E-05
DataValue, 2.63, 1.2290000000000001E-05
DataValue, 2.64, 1.2328000000000001E-05
DataValue, 2.65, 1.237E-05
DataValue, 2.66, 1.242E-05
DataValue, 2.67, 1.2458E-05
DataValue, 2.68, 1.2494000000000001E-05
DataValue, 2.69, 1.253E-05
DataValue, 2.7, 1.2576000000000001E-05
DataValue, 2.71, 1.2614E-05
DataValue, 2.72, 1.2648E-05
DataValue, 2.73, 1.2686E-05
DataValue, 2.74, 1.2738E-05
DataValue, 2.75, 1.2764E-05
DataValue, 2.7600000000000002, 1.2800000000000001E-05
DataValue, 2.77, 1.2848E-05
DataValue, 2.7800000000000002, 1.2882E-05
DataValue, 2.79, 1.291E-05
DataValue, 2.8000000000000003, 1.295E-05
DataValue, 2.81, 1.2990000000000001E-05
DataValue, 2.82, 1.3014000000000001E-05
DataValue, 2.83, 1.3062000000000001E-05
DataValue, 2.84, 1.3098E-05
DataValue, 2.85, 1.3136000000000001E-05
DataValue, 2.86, 1.3160000000000001E-05
DataValue, 2.87, 1.32E-05
DataValue, 2.88, 1.3236E-05
DataValue, 2.89, 1.327E-05
DataValue, 2.9, 1.3302E-05
DataValue, 2.91, 1.3342E-05
DataValue, 2.92, 1.3372E-05
DataValue, 2.93, 1.3404E-05
DataValue, 2.94, 1.345E-05
DataValue, 2.95, 1.3476000000000001E-05
DataValue, 2.96, 1.3502E-05
DataValue, 2.97, 1.3536E-05
DataValue, 2.98, 1.3576E-05
DataValue, 2.99, 1.3606E-05
DataValue, 3, 1.3626000000000001E-05
DataValue, 3.0100000000000002, 1.3672E-05
DataValue, 3.02, 1.3710000000000001E-05
DataValue, 3.0300000000000002, 1.373E-05
DataValue, 3.04, 1.3756E-05
DataValue, 3.0500000000000003, 1.3792000000000001E-05
DataValue, 3.06, 1.383E-05
DataValue, 3.0700000000000003, 1.3848E-05
DataValue, 3.08, 1.3878E-05
DataValue, 3.09, 1.3912E-05
DataValue, 3.1, 1.394E-05
DataValue, 3.11, 1.3968E-05
DataValue, 3.12, 1.3994E-05
DataValue, 3.13, 1.4026000000000001E-05
DataValue, 3.14, 1.4056E-05
DataValue, 3.15, 1.4074000000000001E-05
DataValue, 3.16, 1.4106E-05
DataValue, 3.17, 1.4144E-05
DataValue, 3.18, 1.4166000000000001E-05
DataValue, 3.19, 1.4188E-05
DataValue, 3.2, 1.4216E-05
DataValue, 3.21, 1.4248E-05
DataValue, 3.22, 1.4268000000000001E-05
DataValue, 3.23, 1.429E-05
DataValue, 3.24, 1.431E-05
DataValue, 3.25, 1.4348E-05
DataValue, 3.2600000000000002, 1.4372E-05
DataValue, 3.27, 1.4392E-05
DataValue, 3.2800000000000002, 1.4424000000000001E-05
DataValue, 3.29, 1.4454000000000001E-05
DataValue, 3.3000000000000003, 1.448E-05
DataValue, -0.5, 9.15E-12
