
SetupTitle, NMOS-id-vd-vgs@vbs=0
PrimitiveTest, I/V Sweep
TestParameter, Context.MainFrame, B1500A
TestParameter, Channel.UnitType, SMU, SMU, SMU, SMU
TestParameter, Channel.Unit, SMU2:HR, SMU1:HR, SMU3:HR, SMU4:HR
TestParameter, Channel.IName, ib, is, ig, id
TestParameter, Channel.VName, vb, vs, vg, vd
TestParameter, Channel.Mode, V, COMMON, V, V
TestParameter, Channel.Func, CONST, CONST, VAR2, VAR1
TestParameter, Channel.Index, 
TestParameter, Channel.Time, 
TestParameter, Measurement.Port.Unit, SMU2:HR, SMU1:HR, SMU3:HR, SMU4:HR
TestParameter, Measurement.Port.SeriesResistor, NONE, NONE, NONE, NONE
TestParameter, Measurement.Port.Filter, ON, ON, ON, ON
TestParameter, Measurement.Port.OutputVoltageComparison, 0, 0, 0, 0
TestParameter, Measurement.Primary.Locus, Single
TestParameter, Measurement.Primary.Scale, LINEAR
TestParameter, Measurement.Primary.Start, 0
TestParameter, Measurement.Primary.Stop, 3.3000000000000003
TestParameter, Measurement.Primary.Step, 0.01
TestParameter, Measurement.Primary.Compliance, 0.1
TestParameter, Measurement.Primary.PowerCompliance, 0
TestParameter, Measurement.Aborting.Condition, SKIP AT ANY ABNORMAL
TestParameter, Measurement.PostOutput.Value, START
TestParameter, Measurement.PostOutput.Retention, OFF
TestParameter, Measurement.Secondary.Start, 0.3
TestParameter, Measurement.Secondary.Count, 6
TestParameter, Measurement.Secondary.Step, 0.6
TestParameter, Measurement.Secondary.Compliance, 0.1
TestParameter, Measurement.Secondary.PowerCompliance, 0
TestParameter, Measurement.Bias.Source, 0, 0, 0.3, 0
TestParameter, Measurement.Bias.Compliance, 0.1, 0.1, 0.1, 0.1
TestParameter, Measurement.Monitor.Unit, SMU2:HR, SMU1:HR, SMU3:HR, SMU4:HR
TestParameter, Measurement.Monitor.Adc, HR ADC, HR ADC, HR ADC, HR ADC
TestParameter, Measurement.Monitor.Measurement, Compliance Side, Compliance Side, Compliance Side, Compliance Side
TestParameter, Measurement.Monitor.RangingMode, LIMITED, LIMITED, LIMITED, LIMITED
TestParameter, Measurement.Monitor.RangeBoundary, 1nA, 1nA, 1nA, 1nA
TestParameter, Measurement.Monitor.RangeRating, BY FULL RANGE, BY FULL RANGE, BY FULL RANGE, BY FULL RANGE
TestParameter, Measurement.Monitor.RangeRatingCoeff, 50, 50, 50, 50
TestParameter, Measurement.Timing.Hold, 0
TestParameter, Measurement.Timing.Delay, 0
TestParameter, Measurement.Adc.HighSpeed.Mode, AUTO
TestParameter, Measurement.Adc.HighSpeed.Coeff, 1
TestParameter, Measurement.Adc.HighResolution.AutoZero, OFF
TestParameter, Measurement.Adc.HighResolution.Mode, AUTO
TestParameter, Measurement.Adc.HighResolution.Coeff, 6
TestParameter, Measurement.WaitTime.Source.Coeff, 1
TestParameter, Measurement.WaitTime.Source.Offset, 0
TestParameter, Measurement.WaitTime.Monitor.Coeff, 1
TestParameter, Measurement.WaitTime.Monitor.Offset, 0
TestParameter, Output.Graph.Enabled, true
TestParameter, Output.Graph.AutoScaling, false
TestParameter, Output.Graph.XAxis.Data, vd
TestParameter, Output.Graph.XAxis.Scale, Linear
TestParameter, Output.Graph.XAxis.Left, 0
TestParameter, Output.Graph.XAxis.Right, 1
TestParameter, Output.Graph.XAxis.RunTimeAutoScale, true
TestParameter, Output.Graph.YAxis.Data, id
TestParameter, Output.Graph.YAxis.Scale, Linear
TestParameter, Output.Graph.YAxis.Bottom, -0.1
TestParameter, Output.Graph.YAxis.Top, 0.1
TestParameter, Output.Graph.YAxis.Group, 
TestParameter, Output.Graph.YAxis.RunTimeAutoScale, true
TestParameter, AutoAnalysis.Interpolation, false
TestParameter, AutoAnalysis.Var2StepCount, 1
TestParameter, AutoAnalysis.Var2StepScript, 
TestParameter, AutoAnalysis.Line1.Enabled, false
TestParameter, AutoAnalysis.Line1.Type, 1
TestParameter, AutoAnalysis.Line1.Fix, True
TestParameter, AutoAnalysis.Line1.YAxis, 0
TestParameter, AutoAnalysis.Line1.Point1.Type, 0
TestParameter, AutoAnalysis.Line1.Point1.XY.X, 
TestParameter, AutoAnalysis.Line1.Point1.XY.Y, 
TestParameter, AutoAnalysis.Line1.Point1.Data.Var, 
TestParameter, AutoAnalysis.Line1.Point1.Data.Condition, 
TestParameter, AutoAnalysis.Line1.Point1.Data.Start, false
TestParameter, AutoAnalysis.Line1.Point1.Data.StartVar, 
TestParameter, AutoAnalysis.Line1.Point1.Data.StartCondition, 
TestParameter, AutoAnalysis.Line1.Point2.Type, 0
TestParameter, AutoAnalysis.Line1.Point2.XY.X, 
TestParameter, AutoAnalysis.Line1.Point2.XY.Y, 
TestParameter, AutoAnalysis.Line1.Point2.Data.Var, 
TestParameter, AutoAnalysis.Line1.Point2.Data.Condition, 
TestParameter, AutoAnalysis.Line1.Point2.Data.Start, false
TestParameter, AutoAnalysis.Line1.Point2.Data.StartVar, 
TestParameter, AutoAnalysis.Line1.Point2.Data.StartCondition, 
TestParameter, AutoAnalysis.Line1.GradientExpr, 0
TestParameter, AutoAnalysis.Line2.Enabled, false
TestParameter, AutoAnalysis.Line2.Type, 1
TestParameter, AutoAnalysis.Line2.Fix, True
TestParameter, AutoAnalysis.Line2.YAxis, 0
TestParameter, AutoAnalysis.Line2.Point1.Type, 0
TestParameter, AutoAnalysis.Line2.Point1.XY.X, 
TestParameter, AutoAnalysis.Line2.Point1.XY.Y, 
TestParameter, AutoAnalysis.Line2.Point1.Data.Var, 
TestParameter, AutoAnalysis.Line2.Point1.Data.Condition, 
TestParameter, AutoAnalysis.Line2.Point1.Data.Start, false
TestParameter, AutoAnalysis.Line2.Point1.Data.StartVar, 
TestParameter, AutoAnalysis.Line2.Point1.Data.StartCondition, 
TestParameter, AutoAnalysis.Line2.Point2.Type, 0
TestParameter, AutoAnalysis.Line2.Point2.XY.X, 
TestParameter, AutoAnalysis.Line2.Point2.XY.Y, 
TestParameter, AutoAnalysis.Line2.Point2.Data.Var, 
TestParameter, AutoAnalysis.Line2.Point2.Data.Condition, 
TestParameter, AutoAnalysis.Line2.Point2.Data.Start, false
TestParameter, AutoAnalysis.Line2.Point2.Data.StartVar, 
TestParameter, AutoAnalysis.Line2.Point2.Data.StartCondition, 
TestParameter, AutoAnalysis.Line2.GradientExpr, 0
TestParameter, AutoAnalysis.Marker.Enabled, false
TestParameter, AutoAnalysis.Marker.Data.Var, 
TestParameter, AutoAnalysis.Marker.Data.Condition, 
TestParameter, AutoAnalysis.Marker.Data.Start, false
TestParameter, AutoAnalysis.Marker.Data.StartVar, 
TestParameter, AutoAnalysis.Marker.Data.StartCondition, 
MetaData, TestRecord.EntryPoint, true
MetaData, TestRecord.RecordTime, 01/16/2024 15:52:10
MetaData, TestRecord.TestTarget, N-1-1-298K
MetaData, TestRecord.IterationIndex, 19
MetaData, TestRecord.Preservation, true
MetaData, TestRecord.Flag, 
MetaData, TestRecord.Remarks, 
MetaData, TestRecord.LinkKey, a5018f14-f405-4533-85ea-91bbd0ffb1be
MetaData, TestRecord.Parameters, 
Dimension1, 331, 331
Dimension2, 6, 6
DataName, vd, id
DataValue, 0, 1.3690000000000002E-11
DataValue, 0.01, 1.7200000000000001E-12
DataValue, 0.02, 1.746E-11
DataValue, 0.03, 1.18E-12
DataValue, 0.04, 1.901E-11
DataValue, 0.05, 1.12E-12
DataValue, 0.06, 1.967E-11
DataValue, 0.07, 1.5600000000000002E-12
DataValue, 0.08, 1.916E-11
DataValue, 0.09, 3.02E-12
DataValue, 0.1, 1.777E-11
DataValue, 0.11, 5.0600000000000007E-12
DataValue, 0.12, 1.491E-11
DataValue, 0.13, 7.63E-12
DataValue, 0.14, 1.2850000000000001E-11
DataValue, 0.15, 9.74E-12
DataValue, 0.16, 1.1820000000000001E-11
DataValue, 0.17, 1.047E-11
DataValue, 0.18, 1.138E-11
DataValue, 0.19, 1.057E-11
DataValue, 0.2, 1.1330000000000001E-11
DataValue, 0.21, 1.087E-11
DataValue, 0.22, 1.1310000000000001E-11
DataValue, 0.23, 1.099E-11
DataValue, 0.24, 1.139E-11
DataValue, 0.25, 1.0910000000000001E-11
DataValue, 0.26, 1.107E-11
DataValue, 0.27, 1.089E-11
DataValue, 0.28, 1.098E-11
DataValue, 0.29, 1.128E-11
DataValue, 0.3, 1.0330000000000001E-11
DataValue, 0.31, 1.2060000000000002E-11
DataValue, 0.32, 9.290000000000001E-12
DataValue, 0.33, 1.3240000000000001E-11
DataValue, 0.34, 8.06E-12
DataValue, 0.35000000000000003, 1.46E-11
DataValue, 0.36, 6.4400000000000008E-12
DataValue, 0.37, 1.679E-11
DataValue, 0.38, 4.37E-12
DataValue, 0.39, 1.8020000000000003E-11
DataValue, 0.4, 3.1E-12
DataValue, 0.41000000000000003, 1.9800000000000002E-11
DataValue, 0.42, 1.9400000000000002E-12
DataValue, 0.43, 1.926E-11
DataValue, 0.44, 1.93E-12
DataValue, 0.45, 2.016E-11
DataValue, 0.46, 1.85E-12
DataValue, 0.47000000000000003, 1.9180000000000002E-11
DataValue, 0.48, 2.3800000000000004E-12
DataValue, 0.49, 1.8440000000000003E-11
DataValue, 0.5, 1.8100000000000002E-12
DataValue, 0.51, 1.9860000000000003E-11
DataValue, 0.52, 2.0700000000000003E-12
DataValue, 0.53, 2.0130000000000002E-11
DataValue, 0.54, 2.1200000000000003E-12
DataValue, 0.55, 1.8870000000000002E-11
DataValue, 0.56, 4.2900000000000005E-12
DataValue, 0.57000000000000006, 1.683E-11
DataValue, 0.58, 6.2800000000000007E-12
DataValue, 0.59, 1.4390000000000002E-11
DataValue, 0.6, 9.3000000000000012E-12
DataValue, 0.61, 1.2680000000000002E-11
DataValue, 0.62, 5.9200000000000006E-12
DataValue, 0.63, 1.509E-11
DataValue, 0.64, 7.9E-12
DataValue, 0.65, 1.3600000000000002E-11
DataValue, 0.66, 9.95E-12
DataValue, 0.67, 1.1950000000000001E-11
DataValue, 0.68, 1.049E-11
DataValue, 0.69000000000000006, 1.2120000000000001E-11
DataValue, 0.70000000000000007, 1.0820000000000001E-11
DataValue, 0.71, 1.18E-11
DataValue, 0.72, 1.119E-11
DataValue, 0.73, 1.1210000000000001E-11
DataValue, 0.74, 1.199E-11
DataValue, 0.75, 1.046E-11
DataValue, 0.76, 1.2350000000000001E-11
DataValue, 0.77, 9.04E-12
DataValue, 0.78, 1.373E-11
DataValue, 0.79, 8.1000000000000014E-12
DataValue, 0.8, 1.568E-11
DataValue, 0.81, 6.0100000000000004E-12
DataValue, 0.82000000000000006, 1.702E-11
DataValue, 0.83000000000000007, 4.3000000000000007E-12
DataValue, 0.84, 1.9420000000000002E-11
DataValue, 0.85, 2.54E-12
DataValue, 0.86, 2.0330000000000002E-11
DataValue, 0.87, 2.23E-12
DataValue, 0.88, 2.016E-11
DataValue, 0.89, 1.83E-12
DataValue, 0.9, 1.9460000000000003E-11
DataValue, 0.91, 3.8E-12
DataValue, 0.92, 1.753E-11
DataValue, 0.93, 5.9600000000000005E-12
DataValue, 0.94000000000000006, 1.557E-11
DataValue, 0.95000000000000007, 8.44E-12
DataValue, 0.96, 1.352E-11
DataValue, 0.97, 1.0090000000000001E-11
DataValue, 0.98, 1.238E-11
DataValue, 0.99, 1.109E-11
DataValue, 1, 1.2250000000000001E-11
DataValue, 1.01, 1.147E-11
DataValue, 1.02, 1.179E-11
DataValue, 1.03, 1.1550000000000002E-11
DataValue, 1.04, 1.108E-11
DataValue, 1.05, 1.1840000000000001E-11
DataValue, 1.06, 1.0620000000000001E-11
DataValue, 1.07, 1.2630000000000001E-11
DataValue, 1.08, 9.86E-12
DataValue, 1.09, 1.4560000000000003E-11
DataValue, 1.1, 7.84E-12
DataValue, 1.11, 1.6050000000000002E-11
DataValue, 1.12, 6.2900000000000009E-12
DataValue, 1.1300000000000001, 1.77E-11
DataValue, 1.1400000000000001, 4.07E-12
DataValue, 1.1500000000000001, 1.9150000000000003E-11
DataValue, 1.16, 2.8400000000000004E-12
DataValue, 1.17, 2.019E-11
DataValue, 1.18, 2.5000000000000003E-12
DataValue, 1.19, 1.9660000000000003E-11
DataValue, 1.2, 2.75E-12
DataValue, 1.21, 2.059E-11
DataValue, 1.22, 2E-12
DataValue, 1.23, 2.0290000000000002E-11
DataValue, 1.24, 2.09E-12
DataValue, 1.25, 1.9980000000000002E-11
DataValue, 1.26, 3.66E-12
DataValue, 1.27, 1.8690000000000002E-11
DataValue, 1.28, 5.4500000000000004E-12
DataValue, 1.29, 1.63E-11
DataValue, 1.3, 8.51E-12
DataValue, 1.31, 1.391E-11
DataValue, 1.32, 1.016E-11
DataValue, 1.33, 1.2430000000000001E-11
DataValue, 1.34, 1.12E-11
DataValue, 1.35, 1.238E-11
DataValue, 1.36, 1.119E-11
DataValue, 1.37, 1.1560000000000002E-11
DataValue, 1.3800000000000001, 1.1520000000000001E-11
DataValue, 1.3900000000000001, 1.1350000000000002E-11
DataValue, 1.4000000000000001, 1.179E-11
DataValue, 1.41, 1.1340000000000001E-11
DataValue, 1.42, 1.269E-11
DataValue, 1.43, 1.016E-11
DataValue, 1.44, 1.231E-11
DataValue, 1.45, 1.0700000000000001E-11
DataValue, 1.46, 1.292E-11
DataValue, 1.47, 9.5100000000000013E-12
DataValue, 1.48, 1.413E-11
DataValue, 1.49, 7.970000000000001E-12
DataValue, 1.5, 1.5980000000000003E-11
DataValue, 1.51, 6.2800000000000007E-12
DataValue, 1.52, 1.8090000000000002E-11
DataValue, 1.53, 4.6600000000000007E-12
DataValue, 1.54, 1.9510000000000002E-11
DataValue, 1.55, 3.23E-12
DataValue, 1.56, 2.032E-11
DataValue, 1.57, 2.6000000000000002E-12
DataValue, 1.58, 2.0690000000000002E-11
DataValue, 1.59, 2.42E-12
DataValue, 1.6, 2.0310000000000002E-11
DataValue, 1.61, 2.36E-12
DataValue, 1.62, 1.9980000000000002E-11
DataValue, 1.6300000000000001, 3.7900000000000006E-12
DataValue, 1.6400000000000001, 1.8800000000000002E-11
DataValue, 1.6500000000000001, 5.3600000000000006E-12
DataValue, 1.6600000000000001, 1.662E-11
DataValue, 1.67, 4.48E-12
DataValue, 1.68, 1.7600000000000003E-11
DataValue, 1.69, 6.92E-12
DataValue, 1.7, 1.495E-11
DataValue, 1.71, 9.7100000000000012E-12
DataValue, 1.72, 1.31E-11
DataValue, 1.73, 1.0920000000000001E-11
DataValue, 1.74, 1.2350000000000001E-11
DataValue, 1.75, 1.1520000000000001E-11
DataValue, 1.76, 1.2160000000000002E-11
DataValue, 1.77, 1.1930000000000001E-11
DataValue, 1.78, 1.1750000000000001E-11
DataValue, 1.79, 1.2160000000000002E-11
DataValue, 1.8, 1.1920000000000001E-11
DataValue, 1.81, 1.2250000000000001E-11
DataValue, 1.82, 1.1340000000000001E-11
DataValue, 1.83, 1.3350000000000001E-11
DataValue, 1.84, 1.0200000000000001E-11
DataValue, 1.85, 1.4050000000000001E-11
DataValue, 1.86, 8.63E-12
DataValue, 1.87, 1.59E-11
DataValue, 1.8800000000000001, 6.6800000000000006E-12
DataValue, 1.8900000000000001, 1.7000000000000003E-11
DataValue, 1.9000000000000001, 5.09E-12
DataValue, 1.9100000000000001, 1.9000000000000002E-11
DataValue, 1.92, 3.87E-12
DataValue, 1.93, 2.027E-11
DataValue, 1.94, 2.6800000000000003E-12
DataValue, 1.95, 2.081E-11
DataValue, 1.96, 2.5500000000000002E-12
DataValue, 1.97, 2.074E-11
DataValue, 1.98, 3.1600000000000003E-12
DataValue, 1.99, 1.9530000000000003E-11
DataValue, 2, 5.18E-12
DataValue, 2.0100000000000002, 1.722E-11
DataValue, 2.02, 8.04E-12
DataValue, 2.0300000000000002, 1.479E-11
DataValue, 2.04, 1.0610000000000001E-11
DataValue, 2.05, 1.3090000000000002E-11
DataValue, 2.06, 1.14E-11
DataValue, 2.07, 1.2580000000000002E-11
DataValue, 2.08, 1.177E-11
DataValue, 2.09, 1.2340000000000001E-11
DataValue, 2.1, 1.1950000000000001E-11
DataValue, 2.11, 1.218E-11
DataValue, 2.12, 1.2160000000000002E-11
DataValue, 2.13, 1.1450000000000002E-11
DataValue, 2.14, 1.289E-11
DataValue, 2.15, 1.0330000000000001E-11
DataValue, 2.16, 1.343E-11
DataValue, 2.17, 9.53E-12
DataValue, 2.18, 1.5380000000000003E-11
DataValue, 2.19, 1.067E-11
DataValue, 2.2, 1.413E-11
DataValue, 2.21, 9.24E-12
DataValue, 2.22, 1.55E-11
DataValue, 2.23, 7.06E-12
DataValue, 2.24, 1.73E-11
DataValue, 2.25, 5.2500000000000004E-12
DataValue, 2.2600000000000002, 1.93E-11
DataValue, 2.27, 3.2900000000000003E-12
DataValue, 2.2800000000000002, 2.052E-11
DataValue, 2.29, 2.85E-12
DataValue, 2.3000000000000003, 2.101E-11
DataValue, 2.31, 2.85E-12
DataValue, 2.32, 2.0840000000000002E-11
DataValue, 2.33, 2.8900000000000004E-12
DataValue, 2.34, 2.125E-11
DataValue, 2.35, 2.79E-12
DataValue, 2.36, 1.9780000000000002E-11
DataValue, 2.37, 4.79E-12
DataValue, 2.38, 2.081E-11
DataValue, 2.39, 3.4400000000000003E-12
DataValue, 2.4, 2.0350000000000003E-11
DataValue, 2.41, 5.19E-12
DataValue, 2.42, 1.783E-11
DataValue, 2.43, 7.33E-12
DataValue, 2.44, 1.5430000000000002E-11
DataValue, 2.45, 1.038E-11
DataValue, 2.46, 1.3870000000000001E-11
DataValue, 2.47, 1.1510000000000001E-11
DataValue, 2.48, 1.2570000000000002E-11
DataValue, 2.49, 1.1850000000000001E-11
DataValue, 2.5, 1.26E-11
DataValue, 2.5100000000000002, 1.2430000000000001E-11
DataValue, 2.52, 1.2470000000000002E-11
DataValue, 2.5300000000000002, 1.2440000000000001E-11
DataValue, 2.54, 1.208E-11
DataValue, 2.5500000000000003, 1.3270000000000001E-11
DataValue, 2.56, 1.12E-11
DataValue, 2.57, 1.3980000000000001E-11
DataValue, 2.58, 9.8300000000000015E-12
DataValue, 2.59, 1.539E-11
DataValue, 2.6, 8.01E-12
DataValue, 2.61, 1.73E-11
DataValue, 2.62, 6.3900000000000008E-12
DataValue, 2.63, 1.897E-11
DataValue, 2.64, 4.5400000000000004E-12
DataValue, 2.65, 2.072E-11
DataValue, 2.66, 3.2100000000000003E-12
DataValue, 2.67, 2.1090000000000002E-11
DataValue, 2.68, 2.9E-12
DataValue, 2.69, 2.1350000000000003E-11
DataValue, 2.7, 3.3700000000000004E-12
DataValue, 2.71, 2.021E-11
DataValue, 2.72, 4.36E-12
DataValue, 2.73, 1.892E-11
DataValue, 2.74, 7.26E-12
DataValue, 2.75, 1.6050000000000002E-11
DataValue, 2.7600000000000002, 9.87E-12
DataValue, 2.77, 1.4250000000000001E-11
DataValue, 2.7800000000000002, 1.1720000000000001E-11
DataValue, 2.79, 1.3490000000000002E-11
DataValue, 2.8000000000000003, 1.209E-11
DataValue, 2.81, 1.2760000000000001E-11
DataValue, 2.82, 1.2360000000000002E-11
DataValue, 2.83, 1.2760000000000001E-11
DataValue, 2.84, 1.2570000000000002E-11
DataValue, 2.85, 1.2340000000000001E-11
DataValue, 2.86, 1.322E-11
DataValue, 2.87, 1.171E-11
DataValue, 2.88, 1.4280000000000001E-11
DataValue, 2.89, 1.0850000000000002E-11
DataValue, 2.9, 1.47E-11
DataValue, 2.91, 9.0800000000000009E-12
DataValue, 2.92, 1.683E-11
DataValue, 2.93, 6.8900000000000007E-12
DataValue, 2.94, 1.8640000000000003E-11
DataValue, 2.95, 5.6100000000000005E-12
DataValue, 2.96, 2.0290000000000002E-11
DataValue, 2.97, 4E-12
DataValue, 2.98, 2.1790000000000003E-11
DataValue, 2.99, 3.5900000000000003E-12
DataValue, 3, 2.2020000000000002E-11
DataValue, 3.0100000000000002, 3.23E-12
DataValue, 3.02, 2.143E-11
DataValue, 3.0300000000000002, 4.46E-12
DataValue, 3.04, 1.963E-11
DataValue, 3.0500000000000003, 6.97E-12
DataValue, 3.06, 1.7290000000000002E-11
DataValue, 3.0700000000000003, 9.74E-12
DataValue, 3.08, 1.4410000000000002E-11
DataValue, 3.09, 1.2240000000000001E-11
DataValue, 3.1, 1.351E-11
DataValue, 3.11, 1.2240000000000001E-11
DataValue, 3.12, 1.3170000000000001E-11
DataValue, 3.13, 1.2440000000000001E-11
DataValue, 3.14, 1.281E-11
DataValue, 3.15, 1.3140000000000001E-11
DataValue, 3.16, 1.2750000000000001E-11
DataValue, 3.17, 1.342E-11
DataValue, 3.18, 1.23E-11
DataValue, 3.19, 1.402E-11
DataValue, 3.2, 1.088E-11
DataValue, 3.21, 1.495E-11
DataValue, 3.22, 9.6100000000000013E-12
DataValue, 3.23, 1.6960000000000002E-11
DataValue, 3.24, 7.91E-12
DataValue, 3.25, 1.874E-11
DataValue, 3.2600000000000002, 5.8200000000000006E-12
DataValue, 3.27, 2.1150000000000003E-11
DataValue, 3.2800000000000002, 3.7900000000000006E-12
DataValue, 3.29, 2.178E-11
DataValue, 3.3000000000000003, 3.7300000000000005E-12
DataValue, 0, 2.0911E-09
DataValue, 0.01, 1.8726E-07
DataValue, 0.02, 3.5234E-07
DataValue, 0.03, 4.972E-07
DataValue, 0.04, 6.2318E-07
DataValue, 0.05, 7.3328E-07
DataValue, 0.06, 8.2644E-07
DataValue, 0.07, 9.0498E-07
DataValue, 0.08, 9.7078E-07
DataValue, 0.09, 1.02546E-06
DataValue, 0.1, 1.06944E-06
DataValue, 0.11, 1.10534E-06
DataValue, 0.12, 1.1349E-06
DataValue, 0.13, 1.1577000000000002E-06
DataValue, 0.14, 1.1746000000000002E-06
DataValue, 0.15, 1.1891000000000002E-06
DataValue, 0.16, 1.2006000000000002E-06
DataValue, 0.17, 1.2111000000000001E-06
DataValue, 0.18, 1.2175000000000002E-06
DataValue, 0.19, 1.224E-06
DataValue, 0.2, 1.2298E-06
DataValue, 0.21, 1.2333000000000001E-06
DataValue, 0.22, 1.2359E-06
DataValue, 0.23, 1.2395000000000002E-06
DataValue, 0.24, 1.2405E-06
DataValue, 0.25, 1.2437E-06
DataValue, 0.26, 1.2448000000000001E-06
DataValue, 0.27, 1.2456000000000002E-06
DataValue, 0.28, 1.2476000000000001E-06
DataValue, 0.29, 1.2495E-06
DataValue, 0.3, 1.2506000000000002E-06
DataValue, 0.31, 1.2519E-06
DataValue, 0.32, 1.2534000000000002E-06
DataValue, 0.33, 1.2542000000000002E-06
DataValue, 0.34, 1.2551E-06
DataValue, 0.35000000000000003, 1.2564000000000002E-06
DataValue, 0.36, 1.2565000000000002E-06
DataValue, 0.37, 1.2582E-06
DataValue, 0.38, 1.2595000000000002E-06
DataValue, 0.39, 1.2605E-06
DataValue, 0.4, 1.2609E-06
DataValue, 0.41000000000000003, 1.2621000000000002E-06
DataValue, 0.42, 1.264E-06
DataValue, 0.43, 1.2630000000000002E-06
DataValue, 0.44, 1.2637E-06
DataValue, 0.45, 1.2657000000000002E-06
DataValue, 0.46, 1.2657000000000002E-06
DataValue, 0.47000000000000003, 1.2673000000000001E-06
DataValue, 0.48, 1.2684000000000002E-06
DataValue, 0.49, 1.2674000000000001E-06
DataValue, 0.5, 1.2704000000000002E-06
DataValue, 0.51, 1.2730000000000001E-06
DataValue, 0.52, 1.2710000000000002E-06
DataValue, 0.53, 1.2730000000000001E-06
