
SetupTitle, NMOS-id-vd-vgs@vbs=0
PrimitiveTest, I/V Sweep
TestParameter, Context.MainFrame, B1500A
TestParameter, Channel.UnitType, SMU, SMU, SMU, SMU
TestParameter, Channel.Unit, SMU2:HR, SMU1:HR, SMU3:HR, SMU4:HR
TestParameter, Channel.IName, ib, is, ig, id
TestParameter, Channel.VName, vb, vs, vg, vd
TestParameter, Channel.Mode, V, COMMON, V, V
TestParameter, Channel.Func, CONST, CONST, VAR2, VAR1
TestParameter, Channel.Index, 
TestParameter, Channel.Time, 
TestParameter, Measurement.Port.Unit, SMU2:HR, SMU1:HR, SMU3:HR, SMU4:HR
TestParameter, Measurement.Port.SeriesResistor, NONE, NONE, NONE, NONE
TestParameter, Measurement.Port.Filter, ON, ON, ON, ON
TestParameter, Measurement.Port.OutputVoltageComparison, 0, 0, 0, 0
TestParameter, Measurement.Primary.Locus, Single
TestParameter, Measurement.Primary.Scale, LINEAR
TestParameter, Measurement.Primary.Start, 0
TestParameter, Measurement.Primary.Stop, 3.3000000000000003
TestParameter, Measurement.Primary.Step, 0.01
TestParameter, Measurement.Primary.Compliance, 0.1
TestParameter, Measurement.Primary.PowerCompliance, 0
TestParameter, Measurement.Aborting.Condition, SKIP AT ANY ABNORMAL
TestParameter, Measurement.PostOutput.Value, START
TestParameter, Measurement.PostOutput.Retention, OFF
TestParameter, Measurement.Secondary.Start, 0.3
TestParameter, Measurement.Secondary.Count, 6
TestParameter, Measurement.Secondary.Step, 0.6
TestParameter, Measurement.Secondary.Compliance, 0.1
TestParameter, Measurement.Secondary.PowerCompliance, 0
TestParameter, Measurement.Bias.Source, 0, 0, 0.3, 0
TestParameter, Measurement.Bias.Compliance, 0.1, 0.1, 0.1, 0.1
TestParameter, Measurement.Monitor.Unit, SMU2:HR, SMU1:HR, SMU3:HR, SMU4:HR
TestParameter, Measurement.Monitor.Adc, HR ADC, HR ADC, HR ADC, HR ADC
TestParameter, Measurement.Monitor.Measurement, Compliance Side, Compliance Side, Compliance Side, Compliance Side
TestParameter, Measurement.Monitor.RangingMode, LIMITED, LIMITED, LIMITED, LIMITED
TestParameter, Measurement.Monitor.RangeBoundary, 1nA, 1nA, 1nA, 1nA
TestParameter, Measurement.Monitor.RangeRating, BY FULL RANGE, BY FULL RANGE, BY FULL RANGE, BY FULL RANGE
TestParameter, Measurement.Monitor.RangeRatingCoeff, 50, 50, 50, 50
TestParameter, Measurement.Timing.Hold, 0
TestParameter, Measurement.Timing.Delay, 0
TestParameter, Measurement.Adc.HighSpeed.Mode, AUTO
TestParameter, Measurement.Adc.HighSpeed.Coeff, 1
TestParameter, Measurement.Adc.HighResolution.AutoZero, OFF
TestParameter, Measurement.Adc.HighResolution.Mode, AUTO
TestParameter, Measurement.Adc.HighResolution.Coeff, 6
TestParameter, Measurement.WaitTime.Source.Coeff, 1
TestParameter, Measurement.WaitTime.Source.Offset, 0
TestParameter, Measurement.WaitTime.Monitor.Coeff, 1
TestParameter, Measurement.WaitTime.Monitor.Offset, 0
TestParameter, Output.Graph.Enabled, true
TestParameter, Output.Graph.AutoScaling, false
TestParameter, Output.Graph.XAxis.Data, vd
TestParameter, Output.Graph.XAxis.Scale, Linear
TestParameter, Output.Graph.XAxis.Left, 0
TestParameter, Output.Graph.XAxis.Right, 1
TestParameter, Output.Graph.XAxis.RunTimeAutoScale, true
TestParameter, Output.Graph.YAxis.Data, id
TestParameter, Output.Graph.YAxis.Scale, Linear
TestParameter, Output.Graph.YAxis.Bottom, -0.1
TestParameter, Output.Graph.YAxis.Top, 0.1
TestParameter, Output.Graph.YAxis.Group, 
TestParameter, Output.Graph.YAxis.RunTimeAutoScale, true
TestParameter, AutoAnalysis.Interpolation, false
TestParameter, AutoAnalysis.Var2StepCount, 1
TestParameter, AutoAnalysis.Var2StepScript, 
TestParameter, AutoAnalysis.Line1.Enabled, false
TestParameter, AutoAnalysis.Line1.Type, 1
TestParameter, AutoAnalysis.Line1.Fix, True
TestParameter, AutoAnalysis.Line1.YAxis, 0
TestParameter, AutoAnalysis.Line1.Point1.Type, 0
TestParameter, AutoAnalysis.Line1.Point1.XY.X, 
TestParameter, AutoAnalysis.Line1.Point1.XY.Y, 
TestParameter, AutoAnalysis.Line1.Point1.Data.Var, 
TestParameter, AutoAnalysis.Line1.Point1.Data.Condition, 
TestParameter, AutoAnalysis.Line1.Point1.Data.Start, false
TestParameter, AutoAnalysis.Line1.Point1.Data.StartVar, 
TestParameter, AutoAnalysis.Line1.Point1.Data.StartCondition, 
TestParameter, AutoAnalysis.Line1.Point2.Type, 0
TestParameter, AutoAnalysis.Line1.Point2.XY.X, 
TestParameter, AutoAnalysis.Line1.Point2.XY.Y, 
TestParameter, AutoAnalysis.Line1.Point2.Data.Var, 
TestParameter, AutoAnalysis.Line1.Point2.Data.Condition, 
TestParameter, AutoAnalysis.Line1.Point2.Data.Start, false
TestParameter, AutoAnalysis.Line1.Point2.Data.StartVar, 
TestParameter, AutoAnalysis.Line1.Point2.Data.StartCondition, 
TestParameter, AutoAnalysis.Line1.GradientExpr, 0
TestParameter, AutoAnalysis.Line2.Enabled, false
TestParameter, AutoAnalysis.Line2.Type, 1
TestParameter, AutoAnalysis.Line2.Fix, True
TestParameter, AutoAnalysis.Line2.YAxis, 0
TestParameter, AutoAnalysis.Line2.Point1.Type, 0
TestParameter, AutoAnalysis.Line2.Point1.XY.X, 
TestParameter, AutoAnalysis.Line2.Point1.XY.Y, 
TestParameter, AutoAnalysis.Line2.Point1.Data.Var, 
TestParameter, AutoAnalysis.Line2.Point1.Data.Condition, 
TestParameter, AutoAnalysis.Line2.Point1.Data.Start, false
TestParameter, AutoAnalysis.Line2.Point1.Data.StartVar, 
TestParameter, AutoAnalysis.Line2.Point1.Data.StartCondition, 
TestParameter, AutoAnalysis.Line2.Point2.Type, 0
TestParameter, AutoAnalysis.Line2.Point2.XY.X, 
TestParameter, AutoAnalysis.Line2.Point2.XY.Y, 
TestParameter, AutoAnalysis.Line2.Point2.Data.Var, 
TestParameter, AutoAnalysis.Line2.Point2.Data.Condition, 
TestParameter, AutoAnalysis.Line2.Point2.Data.Start, false
TestParameter, AutoAnalysis.Line2.Point2.Data.StartVar, 
TestParameter, AutoAnalysis.Line2.Point2.Data.StartCondition, 
TestParameter, AutoAnalysis.Line2.GradientExpr, 0
TestParameter, AutoAnalysis.Marker.Enabled, false
TestParameter, AutoAnalysis.Marker.Data.Var, 
TestParameter, AutoAnalysis.Marker.Data.Condition, 
TestParameter, AutoAnalysis.Marker.Data.Start, false
TestParameter, AutoAnalysis.Marker.Data.StartVar, 
TestParameter, AutoAnalysis.Marker.Data.StartCondition, 
MetaData, TestRecord.EntryPoint, true
MetaData, TestRecord.RecordTime, 03/08/2024 15:39:59
MetaData, TestRecord.TestTarget, NMOS_0.22_0.35_77K
MetaData, TestRecord.IterationIndex, 36
MetaData, TestRecord.Preservation, true
MetaData, TestRecord.Flag, 
MetaData, TestRecord.Remarks, 
MetaData, TestRecord.LinkKey, 567022a2-285c-4c21-83ef-867ad120545d
MetaData, TestRecord.Parameters, 
Dimension1, 331, 331
Dimension2, 6, 6
DataName, vd, id
DataValue, 0, 9.0000000000000008E-14
DataValue, 0.01, -4.7E-13
DataValue, 0.02, -7.6000000000000009E-13
DataValue, 0.03, -1.1900000000000002E-12
DataValue, 0.04, -8.300000000000001E-13
DataValue, 0.05, -6.3E-13
DataValue, 0.06, 7.9000000000000007E-13
DataValue, 0.07, 1.3300000000000002E-12
DataValue, 0.08, 1.6700000000000002E-12
DataValue, 0.09, 5.3000000000000006E-13
DataValue, 0.1, 6.9000000000000009E-13
DataValue, 0.11, 9.8E-13
DataValue, 0.12, 2.3000000000000003E-12
DataValue, 0.13, 1.5300000000000001E-12
DataValue, 0.14, 1.55E-12
DataValue, 0.15, 9.4E-13
DataValue, 0.16, 1.1100000000000001E-12
DataValue, 0.17, 3.6000000000000003E-13
DataValue, 0.18, 1.32E-12
DataValue, 0.19, 8.300000000000001E-13
DataValue, 0.2, 1.31E-12
DataValue, 0.21, 2.4000000000000004E-13
DataValue, 0.22, 6.6E-13
DataValue, 0.23, -3.0000000000000005E-14
DataValue, 0.24, 1.17E-12
DataValue, 0.25, 5.3000000000000006E-13
DataValue, 0.26, 8.5000000000000011E-13
DataValue, 0.27, 3.1000000000000004E-13
DataValue, 0.28, 7.9000000000000007E-13
DataValue, 0.29, 2E-13
DataValue, 0.3, 7.5E-13
DataValue, 0.31, 9.5E-13
DataValue, 0.32, 1.4300000000000002E-12
DataValue, 0.33, 1.5700000000000002E-12
DataValue, 0.34, 1.03E-12
DataValue, 0.35000000000000003, 9.5E-13
DataValue, 0.36, 1.6100000000000002E-12
DataValue, 0.37, 2.59E-12
DataValue, 0.38, 2.23E-12
DataValue, 0.39, 3.1900000000000003E-12
DataValue, 0.4, 2.97E-12
DataValue, 0.41000000000000003, 1.98E-12
DataValue, 0.42, 8E-13
DataValue, 0.43, 1.02E-12
DataValue, 0.44, 1.26E-12
DataValue, 0.45, 1.8400000000000002E-12
DataValue, 0.46, 1.64E-12
DataValue, 0.47000000000000003, 7.8000000000000011E-13
DataValue, 0.48, -8.0000000000000013E-14
DataValue, 0.49, -1.0000000000000002E-14
DataValue, 0.5, -2.1000000000000001E-13
DataValue, 0.51, 2.6E-13
DataValue, 0.52, 2.0000000000000003E-14
DataValue, 0.53, -9.0000000000000008E-14
DataValue, 0.54, -3.4E-13
DataValue, 0.55, 2.3000000000000003E-13
DataValue, 0.56, 2.2000000000000002E-13
DataValue, 0.57000000000000006, 1.4700000000000002E-12
DataValue, 0.58, 6.6E-13
DataValue, 0.59, 1.4800000000000002E-12
DataValue, 0.6, 2.8E-13
DataValue, 0.61, 1.09E-12
DataValue, 0.62, 9.2000000000000012E-13
DataValue, 0.63, 1.9E-12
DataValue, 0.64, 1.2800000000000002E-12
DataValue, 0.65, 2.26E-12
DataValue, 0.66, 8.1000000000000008E-13
DataValue, 0.67, 1.12E-12
DataValue, 0.68, 1.23E-12
DataValue, 0.69000000000000006, 2.74E-12
DataValue, 0.70000000000000007, 2.8100000000000003E-12
DataValue, 0.71, 2.7100000000000004E-12
DataValue, 0.72, 1.5700000000000002E-12
DataValue, 0.73, 4.6000000000000006E-13
DataValue, 0.74, -3.3E-13
DataValue, 0.75, -1.8000000000000002E-13
DataValue, 0.76, 1.0100000000000001E-12
DataValue, 0.77, 8E-13
DataValue, 0.78, 7.7000000000000005E-13
DataValue, 0.79, -5.9E-13
DataValue, 0.8, -7E-14
DataValue, 0.81, 3.7000000000000004E-13
DataValue, 0.82000000000000006, 8.1000000000000008E-13
DataValue, 0.83000000000000007, 7.6000000000000009E-13
DataValue, 0.84, 1.4300000000000002E-12
DataValue, 0.85, 6.0000000000000007E-13
DataValue, 0.86, 1.08E-12
DataValue, 0.87, 9.2000000000000012E-13
DataValue, 0.88, 7.7000000000000005E-13
DataValue, 0.89, 1.4400000000000001E-12
DataValue, 0.9, 1.74E-12
DataValue, 0.91, 1.03E-12
DataValue, 0.92, 1.1100000000000001E-12
DataValue, 0.93, 1.1000000000000002E-12
DataValue, 0.94000000000000006, 1.5700000000000002E-12
DataValue, 0.95000000000000007, 9.9E-13
DataValue, 0.96, 1.85E-12
DataValue, 0.97, 8.7E-13
DataValue, 0.98, 1.4900000000000001E-12
DataValue, 0.99, 4E-13
DataValue, 1, 9.3E-13
DataValue, 1.01, 7.100000000000001E-13
DataValue, 1.02, 1.65E-12
DataValue, 1.03, 5E-14
DataValue, 1.04, 2E-13
DataValue, 1.05, -8.5000000000000011E-13
DataValue, 1.06, -7.100000000000001E-13
DataValue, 1.07, -1.21E-12
DataValue, 1.08, 1.7E-13
DataValue, 1.09, 2.3000000000000003E-13
DataValue, 1.1, 7.7000000000000005E-13
DataValue, 1.11, 4.3000000000000004E-13
DataValue, 1.12, 2.4000000000000004E-13
DataValue, 1.1300000000000001, 6.6E-13
DataValue, 1.1400000000000001, 1.1600000000000001E-12
DataValue, 1.1500000000000001, 1.6700000000000002E-12
DataValue, 1.16, 1.6800000000000001E-12
DataValue, 1.17, 2.16E-12
DataValue, 1.18, 1.79E-12
DataValue, 1.19, 1.79E-12
DataValue, 1.2, 1.6700000000000002E-12
DataValue, 1.21, 1.73E-12
DataValue, 1.22, 1.65E-12
DataValue, 1.23, 9.2000000000000012E-13
DataValue, 1.24, 8.6000000000000007E-13
DataValue, 1.25, 9.2000000000000012E-13
DataValue, 1.26, 6.5000000000000006E-13
DataValue, 1.27, 1.04E-12
DataValue, 1.28, 4.5000000000000005E-13
DataValue, 1.29, 7.100000000000001E-13
DataValue, 1.3, 1.0000000000000002E-14
DataValue, 1.31, 4.7E-13
DataValue, 1.32, -3.1000000000000004E-13
DataValue, 1.33, 8.4000000000000006E-13
DataValue, 1.34, 3.0000000000000003E-13
DataValue, 1.35, 4.1E-13
DataValue, 1.36, -5.5000000000000008E-13
DataValue, 1.37, 3.6000000000000003E-13
DataValue, 1.3800000000000001, 2.7E-13
DataValue, 1.3900000000000001, 1.9E-12
DataValue, 1.4000000000000001, 2.16E-12
DataValue, 1.41, 2.8300000000000003E-12
DataValue, 1.42, 2E-12
DataValue, 1.43, 1.31E-12
DataValue, 1.44, 9.2000000000000012E-13
DataValue, 1.45, 1.45E-12
DataValue, 1.46, 1.7200000000000001E-12
DataValue, 1.47, 2.09E-12
DataValue, 1.48, 1.26E-12
DataValue, 1.49, 5.5000000000000008E-13
DataValue, 1.5, 6.3E-13
DataValue, 1.51, -7E-14
DataValue, 1.52, 0
DataValue, 1.53, 2.8E-13
DataValue, 1.54, 4.1E-13
DataValue, 1.55, -3.9000000000000005E-13
DataValue, 1.56, -1.8000000000000002E-13
DataValue, 1.57, 5E-14
DataValue, 1.58, 7.9000000000000007E-13
DataValue, 1.59, 4.2000000000000003E-13
DataValue, 1.6, 9.1000000000000016E-13
DataValue, 1.61, 3.8000000000000005E-13
DataValue, 1.62, 1.18E-12
DataValue, 1.6300000000000001, 6.9000000000000009E-13
DataValue, 1.6400000000000001, 1.2900000000000002E-12
DataValue, 1.6500000000000001, 9.000000000000001E-13
DataValue, 1.6600000000000001, 2.1000000000000003E-12
DataValue, 1.67, 9.7000000000000011E-13
DataValue, 1.68, 1.6700000000000002E-12
DataValue, 1.69, 1.5E-12
DataValue, 1.7, 2.8800000000000002E-12
DataValue, 1.71, 2.37E-12
DataValue, 1.72, 3.2100000000000003E-12
DataValue, 1.73, 2.23E-12
DataValue, 1.74, 1.1000000000000002E-12
DataValue, 1.75, 2.1000000000000001E-13
DataValue, 1.76, 1.5000000000000002E-13
DataValue, 1.77, 4.5000000000000005E-13
DataValue, 1.78, 7.9000000000000007E-13
DataValue, 1.79, 6.3E-13
DataValue, 1.8, 4.9E-13
DataValue, 1.81, 5.3000000000000006E-13
DataValue, 1.82, 9.0000000000000008E-14
DataValue, 1.83, 1.7E-13
DataValue, 1.84, -3.6000000000000003E-13
DataValue, 1.85, 3.0000000000000003E-13
DataValue, 1.86, 1.6000000000000003E-13
DataValue, 1.87, 6.8E-13
DataValue, 1.8800000000000001, 8.4000000000000006E-13
DataValue, 1.8900000000000001, 1.6700000000000002E-12
DataValue, 1.9000000000000001, 1.1000000000000002E-12
DataValue, 1.9100000000000001, 1.3500000000000001E-12
DataValue, 1.92, 9.2000000000000012E-13
DataValue, 1.93, 1.31E-12
DataValue, 1.94, 1.27E-12
DataValue, 1.95, 1.7700000000000001E-12
DataValue, 1.96, 1.14E-12
DataValue, 1.97, 1.6700000000000002E-12
DataValue, 1.98, 1.18E-12
DataValue, 1.99, 1.5E-12
DataValue, 2, 6.0000000000000009E-14
DataValue, 2.0100000000000002, 1.31E-12
DataValue, 2.02, 9.6000000000000015E-13
DataValue, 2.0300000000000002, 2.21E-12
DataValue, 2.04, 1.1100000000000001E-12
DataValue, 2.05, 9.1000000000000016E-13
DataValue, 2.06, -5.3000000000000006E-13
DataValue, 2.07, -5.3000000000000006E-13
DataValue, 2.08, -1.79E-12
DataValue, 2.09, 2E-13
DataValue, 2.1, 6.3E-13
DataValue, 2.11, 1.04E-12
DataValue, 2.12, 3.2000000000000005E-13
DataValue, 2.13, 9.0000000000000008E-14
DataValue, 2.14, 7.9000000000000007E-13
DataValue, 2.15, 1.2800000000000002E-12
DataValue, 2.16, 2.2000000000000003E-12
DataValue, 2.17, 2.2700000000000002E-12
DataValue, 2.18, 2.5500000000000002E-12
DataValue, 2.19, 2.01E-12
DataValue, 2.2, 1.7600000000000002E-12
DataValue, 2.21, 1.7200000000000001E-12
DataValue, 2.22, 1.69E-12
DataValue, 2.23, 1.1900000000000002E-12
DataValue, 2.24, 1.2800000000000002E-12
DataValue, 2.25, 6.3E-13
DataValue, 2.2600000000000002, 1.03E-12
DataValue, 2.27, 5.5000000000000008E-13
DataValue, 2.2800000000000002, 1.04E-12
DataValue, 2.29, 9.6000000000000015E-13
DataValue, 2.3000000000000003, 7.2000000000000006E-13
DataValue, 2.31, 6.6E-13
DataValue, 2.32, 8.2E-13
DataValue, 2.33, 8.0000000000000013E-14
DataValue, 2.34, 6.2000000000000008E-13
DataValue, 2.35, 4.5000000000000005E-13
DataValue, 2.36, 5E-14
DataValue, 2.37, -8E-13
DataValue, 2.38, -5.1E-13
DataValue, 2.39, -1.32E-12
DataValue, 2.4, -1.1500000000000002E-12
DataValue, 2.41, -1.3500000000000001E-12
DataValue, 2.42, -8.0000000000000013E-14
DataValue, 2.43, 3.9000000000000005E-13
DataValue, 2.44, 1.7500000000000002E-12
DataValue, 2.45, 2.8E-13
DataValue, 2.46, 7.4000000000000008E-13
DataValue, 2.47, 2.9000000000000003E-13
DataValue, 2.48, 1.65E-12
DataValue, 2.49, 1.4300000000000002E-12
DataValue, 2.5, 2.87E-12
DataValue, 2.5100000000000002, 1.9400000000000002E-12
DataValue, 2.52, 2.7000000000000002E-12
DataValue, 2.5300000000000002, 1.7100000000000002E-12
DataValue, 2.54, 2.04E-12
DataValue, 2.5500000000000003, 1.22E-12
DataValue, 2.56, 1.32E-12
DataValue, 2.57, 7.3E-13
DataValue, 2.58, 1.04E-12
DataValue, 2.59, 8.4000000000000006E-13
DataValue, 2.6, 1.3300000000000002E-12
DataValue, 2.61, 8.4000000000000006E-13
DataValue, 2.62, 2.1000000000000001E-13
DataValue, 2.63, 4.2000000000000003E-13
DataValue, 2.64, 3.6000000000000003E-13
DataValue, 2.65, 5.5000000000000008E-13
DataValue, 2.66, 1.1000000000000001E-13
DataValue, 2.67, 5.3000000000000006E-13
DataValue, 2.68, 5.2E-13
DataValue, 2.69, 1.1100000000000001E-12
DataValue, 2.7, 1.5000000000000002E-13
DataValue, 2.71, 1.9000000000000002E-13
DataValue, 2.72, 1.7E-13
DataValue, 2.73, 1.1900000000000002E-12
DataValue, 2.74, 7E-13
DataValue, 2.75, 1.1100000000000001E-12
DataValue, 2.7600000000000002, 1.21E-12
DataValue, 2.77, 1.73E-12
DataValue, 2.7800000000000002, 1.0500000000000002E-12
DataValue, 2.79, 8E-13
DataValue, 2.8000000000000003, 1.08E-12
DataValue, 2.81, 1.6800000000000001E-12
DataValue, 2.82, 1.9200000000000003E-12
DataValue, 2.83, 1.7100000000000002E-12
DataValue, 2.84, 1.5400000000000001E-12
DataValue, 2.85, 1.7200000000000001E-12
DataValue, 2.86, 1.85E-12
DataValue, 2.87, 1.79E-12
DataValue, 2.88, 1.0500000000000002E-12
DataValue, 2.89, 1.4200000000000002E-12
DataValue, 2.9, 1E-13
DataValue, 2.91, 7.100000000000001E-13
DataValue, 2.92, -4.0000000000000006E-14
DataValue, 2.93, 1.17E-12
DataValue, 2.94, 5.4E-13
DataValue, 2.95, 9.1000000000000016E-13
DataValue, 2.96, 1.4E-13
DataValue, 2.97, 1.21E-12
DataValue, 2.98, 4.0000000000000006E-14
DataValue, 2.99, 9.1000000000000016E-13
DataValue, 3, 2.0000000000000003E-14
DataValue, 3.0100000000000002, 1.2000000000000001E-12
DataValue, 3.02, 9.9E-13
DataValue, 3.0300000000000002, 1.23E-12
DataValue, 3.04, -1.6000000000000003E-13
DataValue, 3.0500000000000003, 1.03E-12
DataValue, 3.06, -1.0000000000000002E-14
DataValue, 3.0700000000000003, 1.2400000000000002E-12
DataValue, 3.08, 1.7200000000000001E-12
DataValue, 3.09, 2.8800000000000002E-12
DataValue, 3.1, 1.7200000000000001E-12
DataValue, 3.11, 1.59E-12
DataValue, 3.12, 1.1000000000000002E-12
DataValue, 3.13, 1.4900000000000001E-12
DataValue, 3.14, 1.9200000000000003E-12
DataValue, 3.15, 2.26E-12
DataValue, 3.16, 1.4700000000000002E-12
DataValue, 3.17, 7.2000000000000006E-13
DataValue, 3.18, 4.2000000000000003E-13
DataValue, 3.19, 8.9E-13
DataValue, 3.2, 1.3000000000000001E-12
DataValue, 3.21, 1.14E-12
DataValue, 3.22, 1.1000000000000002E-12
DataValue, 3.23, 2.1000000000000001E-13
DataValue, 3.24, 1.3E-13
DataValue, 3.25, 3.0000000000000003E-13
DataValue, 3.2600000000000002, 8.9E-13
DataValue, 3.27, 6.0000000000000007E-13
DataValue, 3.2800000000000002, 7.8000000000000011E-13
DataValue, 3.29, 1.1000000000000001E-13
DataValue, 3.3000000000000003, 7.3E-13
DataValue, 0, 2.0942E-10
DataValue, 0.01, 8.8735E-09
DataValue, 0.02, 1.4700199999999999E-08
DataValue, 0.03, 1.8625999999999998E-08
DataValue, 0.04, 2.13254E-08
DataValue, 0.05, 2.3155599999999997E-08
DataValue, 0.06, 2.4524599999999998E-08
DataValue, 0.07, 2.5619199999999997E-08
DataValue, 0.08, 2.6765E-08
DataValue, 0.09, 2.77258E-08
DataValue, 0.1, 2.8281799999999997E-08
DataValue, 0.11, 2.8833799999999998E-08
DataValue, 0.12, 2.9266199999999996E-08
DataValue, 0.13, 2.9753399999999997E-08
DataValue, 0.14, 3.0138599999999994E-08
DataValue, 0.15, 3.05768E-08
DataValue, 0.16, 3.09636E-08
DataValue, 0.17, 3.1745E-08
DataValue, 0.18, 3.1999399999999996E-08
DataValue, 0.19, 3.23154E-08
DataValue, 0.2, 3.2411799999999995E-08
DataValue, 0.21, 3.2583999999999996E-08
DataValue, 0.22, 3.28156E-08
DataValue, 0.23, 3.30908E-08
DataValue, 0.24, 3.331E-08
DataValue, 0.25, 3.3600199999999994E-08
DataValue, 0.26, 3.38246E-08
DataValue, 0.27, 3.4076399999999995E-08
DataValue, 0.28, 3.4292399999999995E-08
DataValue, 0.29, 3.4477199999999996E-08
DataValue, 0.3, 3.4146999999999995E-08
DataValue, 0.31, 3.49358E-08
DataValue, 0.32, 3.5164199999999994E-08
DataValue, 0.33, 3.53486E-08
DataValue, 0.34, 3.5587E-08
DataValue, 0.35000000000000003, 3.5768799999999997E-08
DataValue, 0.36, 3.59972E-08
DataValue, 0.37, 3.6186E-08
DataValue, 0.38, 3.64124E-08
DataValue, 0.39, 3.67454E-08
DataValue, 0.4, 3.6984999999999997E-08
DataValue, 0.41000000000000003, 3.74366E-08
DataValue, 0.42, 3.77052E-08
DataValue, 0.43, 3.78652E-08
DataValue, 0.44, 3.7920799999999995E-08
DataValue, 0.45, 3.7889599999999995E-08
DataValue, 0.46, 3.8084199999999996E-08
