
SetupTitle, NMOS-isub-vg-vds@vbs=0
PrimitiveTest, I/V Sweep
TestParameter, Context.MainFrame, B1500A
TestParameter, Channel.UnitType, SMU, SMU, SMU, SMU
TestParameter, Channel.Unit, SMU2:HR, SMU1:HR, SMU3:HR, SMU4:HR
TestParameter, Channel.IName, ib, is, ig, id
TestParameter, Channel.VName, vb, vs, vg, vd
TestParameter, Channel.Mode, V, COMMON, V, V
TestParameter, Channel.Func, CONST, CONST, VAR1, VAR2
TestParameter, Channel.Index, 
TestParameter, Channel.Time, 
TestParameter, Measurement.Port.Unit, SMU2:HR, SMU1:HR, SMU3:HR, SMU4:HR
TestParameter, Measurement.Port.SeriesResistor, NONE, NONE, NONE, NONE
TestParameter, Measurement.Port.Filter, ON, ON, ON, ON
TestParameter, Measurement.Port.OutputVoltageComparison, 0, 0, 0, 0
TestParameter, Measurement.Primary.Locus, Single
TestParameter, Measurement.Primary.Scale, LINEAR
TestParameter, Measurement.Primary.Start, 0
TestParameter, Measurement.Primary.Stop, 3.3000000000000003
TestParameter, Measurement.Primary.Step, 0.01
TestParameter, Measurement.Primary.Compliance, 0.001
TestParameter, Measurement.Primary.PowerCompliance, 0
TestParameter, Measurement.Aborting.Condition, SKIP AT ANY ABNORMAL
TestParameter, Measurement.PostOutput.Value, START
TestParameter, Measurement.PostOutput.Retention, OFF
TestParameter, Measurement.Secondary.Start, 0.3
TestParameter, Measurement.Secondary.Count, 6
TestParameter, Measurement.Secondary.Step, 0.6
TestParameter, Measurement.Secondary.Compliance, 0.1
TestParameter, Measurement.Secondary.PowerCompliance, 0
TestParameter, Measurement.Bias.Source, 0, 0, 0, 0.3
TestParameter, Measurement.Bias.Compliance, 0.1, 0.1, 0.001, 0.1
TestParameter, Measurement.Monitor.Unit, SMU2:HR, SMU1:HR, SMU3:HR, SMU4:HR
TestParameter, Measurement.Monitor.Adc, HR ADC, HR ADC, HR ADC, HR ADC
TestParameter, Measurement.Monitor.Measurement, Compliance Side, Compliance Side, Compliance Side, Compliance Side
TestParameter, Measurement.Monitor.RangingMode, LIMITED, LIMITED, LIMITED, LIMITED
TestParameter, Measurement.Monitor.RangeBoundary, 1nA, 1nA, 1nA, 1nA
TestParameter, Measurement.Monitor.RangeRating, BY FULL RANGE, BY FULL RANGE, BY FULL RANGE, BY FULL RANGE
TestParameter, Measurement.Monitor.RangeRatingCoeff, 50, 50, 50, 50
TestParameter, Measurement.Timing.Hold, 0
TestParameter, Measurement.Timing.Delay, 0
TestParameter, Measurement.Adc.HighSpeed.Mode, AUTO
TestParameter, Measurement.Adc.HighSpeed.Coeff, 1
TestParameter, Measurement.Adc.HighResolution.AutoZero, OFF
TestParameter, Measurement.Adc.HighResolution.Mode, AUTO
TestParameter, Measurement.Adc.HighResolution.Coeff, 6
TestParameter, Measurement.WaitTime.Source.Coeff, 1
TestParameter, Measurement.WaitTime.Source.Offset, 0
TestParameter, Measurement.WaitTime.Monitor.Coeff, 1
TestParameter, Measurement.WaitTime.Monitor.Offset, 0
TestParameter, Output.Graph.Enabled, true
TestParameter, Output.Graph.AutoScaling, false
TestParameter, Output.Graph.XAxis.Data, vg
TestParameter, Output.Graph.XAxis.Scale, Linear
TestParameter, Output.Graph.XAxis.Left, 0
TestParameter, Output.Graph.XAxis.Right, 0.9
TestParameter, Output.Graph.XAxis.RunTimeAutoScale, true
TestParameter, Output.Graph.YAxis.Data, ib
TestParameter, Output.Graph.YAxis.Scale, Linear
TestParameter, Output.Graph.YAxis.Bottom, -0.1
TestParameter, Output.Graph.YAxis.Top, 0.1
TestParameter, Output.Graph.YAxis.Group, 
TestParameter, Output.Graph.YAxis.RunTimeAutoScale, true
TestParameter, AutoAnalysis.Interpolation, false
TestParameter, AutoAnalysis.Var2StepCount, 1
TestParameter, AutoAnalysis.Var2StepScript, 
TestParameter, AutoAnalysis.Line1.Enabled, false
TestParameter, AutoAnalysis.Line1.Type, 1
TestParameter, AutoAnalysis.Line1.Fix, True
TestParameter, AutoAnalysis.Line1.YAxis, 0
TestParameter, AutoAnalysis.Line1.Point1.Type, 0
TestParameter, AutoAnalysis.Line1.Point1.XY.X, 
TestParameter, AutoAnalysis.Line1.Point1.XY.Y, 
TestParameter, AutoAnalysis.Line1.Point1.Data.Var, 
TestParameter, AutoAnalysis.Line1.Point1.Data.Condition, 
TestParameter, AutoAnalysis.Line1.Point1.Data.Start, false
TestParameter, AutoAnalysis.Line1.Point1.Data.StartVar, 
TestParameter, AutoAnalysis.Line1.Point1.Data.StartCondition, 
TestParameter, AutoAnalysis.Line1.Point2.Type, 0
TestParameter, AutoAnalysis.Line1.Point2.XY.X, 
TestParameter, AutoAnalysis.Line1.Point2.XY.Y, 
TestParameter, AutoAnalysis.Line1.Point2.Data.Var, 
TestParameter, AutoAnalysis.Line1.Point2.Data.Condition, 
TestParameter, AutoAnalysis.Line1.Point2.Data.Start, false
TestParameter, AutoAnalysis.Line1.Point2.Data.StartVar, 
TestParameter, AutoAnalysis.Line1.Point2.Data.StartCondition, 
TestParameter, AutoAnalysis.Line1.GradientExpr, 0
TestParameter, AutoAnalysis.Line2.Enabled, false
TestParameter, AutoAnalysis.Line2.Type, 1
TestParameter, AutoAnalysis.Line2.Fix, True
TestParameter, AutoAnalysis.Line2.YAxis, 0
TestParameter, AutoAnalysis.Line2.Point1.Type, 0
TestParameter, AutoAnalysis.Line2.Point1.XY.X, 
TestParameter, AutoAnalysis.Line2.Point1.XY.Y, 
TestParameter, AutoAnalysis.Line2.Point1.Data.Var, 
TestParameter, AutoAnalysis.Line2.Point1.Data.Condition, 
TestParameter, AutoAnalysis.Line2.Point1.Data.Start, false
TestParameter, AutoAnalysis.Line2.Point1.Data.StartVar, 
TestParameter, AutoAnalysis.Line2.Point1.Data.StartCondition, 
TestParameter, AutoAnalysis.Line2.Point2.Type, 0
TestParameter, AutoAnalysis.Line2.Point2.XY.X, 
TestParameter, AutoAnalysis.Line2.Point2.XY.Y, 
TestParameter, AutoAnalysis.Line2.Point2.Data.Var, 
TestParameter, AutoAnalysis.Line2.Point2.Data.Condition, 
TestParameter, AutoAnalysis.Line2.Point2.Data.Start, false
TestParameter, AutoAnalysis.Line2.Point2.Data.StartVar, 
TestParameter, AutoAnalysis.Line2.Point2.Data.StartCondition, 
TestParameter, AutoAnalysis.Line2.GradientExpr, 0
TestParameter, AutoAnalysis.Marker.Enabled, false
TestParameter, AutoAnalysis.Marker.Data.Var, 
TestParameter, AutoAnalysis.Marker.Data.Condition, 
TestParameter, AutoAnalysis.Marker.Data.Start, false
TestParameter, AutoAnalysis.Marker.Data.StartVar, 
TestParameter, AutoAnalysis.Marker.Data.StartCondition, 
MetaData, TestRecord.EntryPoint, true
MetaData, TestRecord.RecordTime, 03/08/2024 15:40:53
MetaData, TestRecord.TestTarget, NMOS_0.22_0.35_77K
MetaData, TestRecord.IterationIndex, 36
MetaData, TestRecord.Preservation, true
MetaData, TestRecord.Flag, 
MetaData, TestRecord.Remarks, 
MetaData, TestRecord.LinkKey, cd6b182b-25f4-4424-82c8-f2eb89690121
MetaData, TestRecord.Parameters, 
Dimension1, 331, 331
Dimension2, 6, 6
DataName, vg, ib
DataValue, 0, -7.3E-13
DataValue, 0.01, -6.3300000000000007E-12
DataValue, 0.02, -3.7800000000000005E-12
DataValue, 0.03, -8.53E-12
DataValue, 0.04, -1.4900000000000001E-12
DataValue, 0.05, -1.5630000000000002E-11
DataValue, 0.06, 1.3780000000000002E-11
DataValue, 0.07, -2.927E-11
DataValue, 0.08, 1.381E-11
DataValue, 0.09, -2.181E-11
DataValue, 0.1, 6.9300000000000006E-12
DataValue, 0.11, -1.741E-11
DataValue, 0.12, -1.04E-12
DataValue, 0.13, -1.1100000000000001E-12
DataValue, 0.14, -1.241E-11
DataValue, 0.15, 6.7800000000000006E-12
DataValue, 0.16, -2.5720000000000003E-11
DataValue, 0.17, 2.1000000000000002E-11
DataValue, 0.18, -3.0210000000000005E-11
DataValue, 0.19, 1.2320000000000001E-11
DataValue, 0.2, -2.209E-11
DataValue, 0.21, -7.5E-13
DataValue, 0.22, -9.66E-12
DataValue, 0.23, -1.126E-11
DataValue, 0.24, -1.9400000000000002E-12
DataValue, 0.25, -1.382E-11
DataValue, 0.26, 8.43E-12
DataValue, 0.27, -3.103E-11
DataValue, 0.28, 1.4370000000000001E-11
DataValue, 0.29, -1.859E-11
DataValue, 0.3, 4.02E-12
DataValue, 0.31, -2.74E-12
DataValue, 0.32, -1.6490000000000003E-11
DataValue, 0.33, 2.764E-11
DataValue, 0.34, -3.489E-11
DataValue, 0.35000000000000003, 6.8200000000000004E-12
DataValue, 0.36, -1.169E-11
DataValue, 0.37, -2.4230000000000003E-11
DataValue, 0.38, 1.526E-11
DataValue, 0.39, -2.92E-11
DataValue, 0.4, 5.2500000000000004E-12
DataValue, 0.41000000000000003, -1.262E-11
DataValue, 0.42, -1.3390000000000002E-11
DataValue, 0.43, 8.2800000000000011E-12
DataValue, 0.44, -3.0430000000000005E-11
DataValue, 0.45, 1.1440000000000001E-11
DataValue, 0.46, -4.33E-12
DataValue, 0.47000000000000003, -1.2760000000000001E-11
DataValue, 0.48, 3.85E-12
DataValue, 0.49, -1.56E-11
DataValue, 0.5, 1.177E-11
DataValue, 0.51, -2.0570000000000003E-11
DataValue, 0.52, 9.13E-12
DataValue, 0.53, -6.45E-12
DataValue, 0.54, -1.9780000000000002E-11
DataValue, 0.55, 1.8600000000000002E-11
DataValue, 0.56, -2.5480000000000002E-11
DataValue, 0.57000000000000006, 1.3000000000000001E-12
DataValue, 0.58, 3.72E-12
DataValue, 0.59, -2.451E-11
DataValue, 0.6, 1.2370000000000002E-11
DataValue, 0.61, -2.2930000000000002E-11
DataValue, 0.62, 5.9700000000000006E-12
DataValue, 0.63, -6.05E-12
DataValue, 0.64, -2.4950000000000002E-11
DataValue, 0.65, 1.499E-11
DataValue, 0.66, -2.38E-11
DataValue, 0.67, -3.5E-13
DataValue, 0.68, -1.93E-12
DataValue, 0.69000000000000006, -1.4090000000000002E-11
DataValue, 0.70000000000000007, 9.05E-12
DataValue, 0.71, -1.468E-11
DataValue, 0.72, 2.85E-12
DataValue, 0.73, -4.47E-12
DataValue, 0.74, -4.1E-13
DataValue, 0.75, 1.188E-11
DataValue, 0.76, -2.5540000000000003E-11
DataValue, 0.77, 6.2300000000000007E-12
DataValue, 0.78, -1.55E-12
DataValue, 0.79, -5.63E-12
DataValue, 0.8, 1.7200000000000001E-12
DataValue, 0.81, -2.3530000000000002E-11
DataValue, 0.82000000000000006, 1.242E-11
DataValue, 0.83000000000000007, -1.7820000000000003E-11
DataValue, 0.84, -9.1100000000000014E-12
DataValue, 0.85, 8.83E-12
DataValue, 0.86, -2.9850000000000005E-11
DataValue, 0.87, 1.976E-11
DataValue, 0.88, -1.7600000000000003E-11
DataValue, 0.89, -3.28E-12
DataValue, 0.9, -3.4E-13
DataValue, 0.91, -1.291E-11
DataValue, 0.92, 1.3560000000000001E-11
DataValue, 0.93, -2.731E-11
DataValue, 0.94000000000000006, -2.1110000000000002E-11
DataValue, 0.95000000000000007, 1.8400000000000002E-11
DataValue, 0.96, -2.127E-11
DataValue, 0.97, 9.4E-13
DataValue, 0.98, -1.2330000000000001E-11
DataValue, 0.99, -2.1500000000000003E-12
DataValue, 1, -1.3770000000000001E-11
DataValue, 1.01, 1.4800000000000002E-12
DataValue, 1.02, -8.02E-12
DataValue, 1.03, -8.32E-12
DataValue, 1.04, 9.2100000000000013E-12
DataValue, 1.05, -2.436E-11
DataValue, 1.06, 2.03E-12
DataValue, 1.07, -1.363E-11
DataValue, 1.08, 2.09E-12
DataValue, 1.09, -1.602E-11
DataValue, 1.1, 2.5000000000000003E-12
DataValue, 1.11, -1.148E-11
DataValue, 1.12, -5.85E-12
DataValue, 1.1300000000000001, 6.6300000000000006E-12
DataValue, 1.1400000000000001, -1.722E-11
DataValue, 1.1500000000000001, 8.36E-12
DataValue, 1.16, -1.0820000000000001E-11
DataValue, 1.17, 1.4E-12
DataValue, 1.18, -9.7900000000000009E-12
DataValue, 1.19, 6.04E-12
DataValue, 1.2, -1.272E-11
DataValue, 1.21, -7.17E-12
DataValue, 1.22, 5.43E-12
DataValue, 1.23, -1.755E-11
DataValue, 1.24, 7.27E-12
DataValue, 1.25, -2.039E-11
DataValue, 1.26, 2.52E-12
DataValue, 1.27, -1.517E-11
DataValue, 1.28, 8.03E-12
DataValue, 1.29, -1.519E-11
DataValue, 1.3, -4.9E-13
DataValue, 1.31, -8.5900000000000012E-12
DataValue, 1.32, -1.6270000000000002E-11
DataValue, 1.33, 5.75E-12
DataValue, 1.34, -2.1000000000000002E-11
DataValue, 1.35, -2.57E-12
DataValue, 1.36, -5.48E-12
DataValue, 1.37, -2.26E-12
DataValue, 1.3800000000000001, -1.9180000000000002E-11
DataValue, 1.3900000000000001, 1.149E-11
DataValue, 1.4000000000000001, -1.7620000000000003E-11
DataValue, 1.41, 4.36E-12
DataValue, 1.42, -4.1000000000000007E-12
DataValue, 1.43, 4.26E-12
DataValue, 1.44, -1.1870000000000002E-11
DataValue, 1.45, 5.4700000000000007E-12
DataValue, 1.46, -1.089E-11
DataValue, 1.47, -6.65E-12
DataValue, 1.48, 4.67E-12
DataValue, 1.49, -2.7850000000000003E-11
DataValue, 1.5, 8.92E-12
DataValue, 1.51, -1.704E-11
DataValue, 1.52, -7.1300000000000005E-12
DataValue, 1.53, -1.14E-11
DataValue, 1.54, 2.8900000000000004E-12
DataValue, 1.55, -1.1960000000000002E-11
DataValue, 1.56, -1.96E-12
DataValue, 1.57, 5.6E-13
DataValue, 1.58, -1.845E-11
DataValue, 1.59, 1.754E-11
DataValue, 1.6, -2.3240000000000002E-11
DataValue, 1.61, 5.19E-12
DataValue, 1.62, -2.192E-11
DataValue, 1.6300000000000001, 7.43E-12
DataValue, 1.6400000000000001, -2.484E-11
DataValue, 1.6500000000000001, -3.77E-12
DataValue, 1.6600000000000001, -1.1940000000000001E-11
DataValue, 1.67, -1.3570000000000001E-11
DataValue, 1.68, 1.0510000000000001E-11
DataValue, 1.69, -2.949E-11
DataValue, 1.7, 1.2250000000000001E-11
DataValue, 1.71, -1.322E-11
DataValue, 1.72, 7.5800000000000012E-12
DataValue, 1.73, -2.3440000000000002E-11
DataValue, 1.74, 1.7710000000000003E-11
DataValue, 1.75, -2.551E-11
DataValue, 1.76, 8.02E-12
DataValue, 1.77, -9.9100000000000012E-12
DataValue, 1.78, -1.3670000000000001E-11
DataValue, 1.79, 5.6E-12
DataValue, 1.8, -2.0350000000000003E-11
DataValue, 1.81, 1.3260000000000001E-11
DataValue, 1.82, -2.014E-11
DataValue, 1.83, 1.0930000000000001E-11
DataValue, 1.84, 2.1700000000000002E-12
DataValue, 1.85, -2.927E-11
DataValue, 1.86, 1.9400000000000002E-11
DataValue, 1.87, -2.7450000000000003E-11
DataValue, 1.8800000000000001, -1.96E-12
DataValue, 1.8900000000000001, -9.4E-13
DataValue, 1.9000000000000001, -1.211E-11
DataValue, 1.9100000000000001, 2.75E-12
DataValue, 1.92, -2.249E-11
DataValue, 1.93, 1.6780000000000002E-11
DataValue, 1.94, -1.6070000000000002E-11
DataValue, 1.95, -9.84E-12
DataValue, 1.96, 9.9E-13
DataValue, 1.97, -1.6600000000000003E-11
DataValue, 1.98, 1.2020000000000001E-11
DataValue, 1.99, -1.6960000000000002E-11
DataValue, 2, 8.7E-13
DataValue, 2.0100000000000002, -5.4600000000000006E-12
DataValue, 2.02, -8.2700000000000009E-12
DataValue, 2.0300000000000002, 6.7E-12
DataValue, 2.04, -2.8810000000000002E-11
DataValue, 2.05, 1.4190000000000002E-11
DataValue, 2.06, -1.611E-11
DataValue, 2.07, -1.561E-11
DataValue, 2.08, 7.3E-13
DataValue, 2.09, -2.3700000000000003E-11
DataValue, 2.1, 9.1800000000000009E-12
DataValue, 2.11, -2.2E-11
DataValue, 2.12, 6.76E-12
DataValue, 2.13, -1.025E-11
DataValue, 2.14, -1.69E-11
DataValue, 2.15, 1.2740000000000001E-11
DataValue, 2.16, -2.278E-11
DataValue, 2.17, 1.3970000000000001E-11
DataValue, 2.18, -1.089E-11
DataValue, 2.19, -1.209E-11
DataValue, 2.2, 1.2000000000000001E-12
DataValue, 2.21, -1.5920000000000002E-11
DataValue, 2.22, 4.5000000000000006E-12
DataValue, 2.23, -2.1790000000000003E-11
DataValue, 2.24, -4E-13
DataValue, 2.25, 4.9500000000000005E-12
DataValue, 2.2600000000000002, -3.004E-11
DataValue, 2.27, 1.542E-11
DataValue, 2.2800000000000002, -1.9530000000000003E-11
DataValue, 2.29, -1.1900000000000002E-12
DataValue, 2.3000000000000003, -3.3700000000000004E-12
DataValue, 2.31, -2.0490000000000002E-11
DataValue, 2.32, 1.271E-11
DataValue, 2.33, -2.2190000000000003E-11
DataValue, 2.34, 1.241E-11
DataValue, 2.35, -1.7290000000000002E-11
DataValue, 2.36, -8.44E-12
DataValue, 2.37, 1.0830000000000001E-11
DataValue, 2.38, -2.1880000000000003E-11
DataValue, 2.39, 4.99E-12
DataValue, 2.4, -1.0740000000000002E-11
DataValue, 2.41, -2.24E-12
DataValue, 2.42, -7E-14
DataValue, 2.43, -1.9070000000000002E-11
DataValue, 2.44, 1.119E-11
DataValue, 2.45, -1.52E-11
DataValue, 2.46, -6.9900000000000007E-12
DataValue, 2.47, 4.6400000000000004E-12
DataValue, 2.48, -1.939E-11
DataValue, 2.49, 3.9800000000000004E-12
DataValue, 2.5, -8.04E-12
DataValue, 2.5100000000000002, 1.5700000000000002E-12
DataValue, 2.52, -1.1540000000000001E-11
DataValue, 2.5300000000000002, -1.9200000000000003E-12
DataValue, 2.54, 7.72E-12
DataValue, 2.5500000000000003, -2.6700000000000002E-11
DataValue, 2.56, 7.4700000000000011E-12
DataValue, 2.57, -8.02E-12
DataValue, 2.58, -8.8900000000000011E-12
DataValue, 2.59, 7.100000000000001E-13
DataValue, 2.6, -1.118E-11
DataValue, 2.61, 7.12E-12
DataValue, 2.62, -1.8560000000000002E-11
DataValue, 2.63, 1.057E-11
DataValue, 2.64, -1.3280000000000002E-11
DataValue, 2.65, -9.8200000000000014E-12
DataValue, 2.66, 9.6100000000000013E-12
DataValue, 2.67, -2.4500000000000003E-11
DataValue, 2.68, -1.0500000000000002E-12
DataValue, 2.69, -1.065E-11
DataValue, 2.7, -5.1700000000000008E-12
DataValue, 2.71, -1.9000000000000002E-13
DataValue, 2.72, -1.382E-11
DataValue, 2.73, 8.680000000000001E-12
DataValue, 2.74, -2.1020000000000002E-11
DataValue, 2.75, 3.8800000000000004E-12
DataValue, 2.7600000000000002, -4.27E-12
DataValue, 2.77, -1.289E-11
DataValue, 2.7800000000000002, 7.5900000000000014E-12
DataValue, 2.79, -1.622E-11
DataValue, 2.8000000000000003, 1.4800000000000002E-12
DataValue, 2.81, -8.72E-12
DataValue, 2.82, -8.1700000000000009E-12
DataValue, 2.83, -7.4000000000000008E-13
DataValue, 2.84, -2.491E-11
DataValue, 2.85, 1.423E-11
DataValue, 2.86, -1.2780000000000002E-11
DataValue, 2.87, -1.4210000000000002E-11
DataValue, 2.88, 4.9100000000000007E-12
DataValue, 2.89, -2.0530000000000002E-11
DataValue, 2.9, 5.9600000000000005E-12
DataValue, 2.91, -1.381E-11
DataValue, 2.92, -6.0000000000000007E-13
DataValue, 2.93, -4.9500000000000005E-12
DataValue, 2.94, -1.0410000000000001E-11
DataValue, 2.95, 1.0800000000000001E-11
DataValue, 2.96, -1.7070000000000002E-11
DataValue, 2.97, -6.19E-12
DataValue, 2.98, -4.2000000000000003E-13
DataValue, 2.99, -1.599E-11
DataValue, 3, -4.87E-12
DataValue, 3.0100000000000002, -9.98E-12
DataValue, 3.02, -2.2000000000000002E-13
DataValue, 3.0300000000000002, -1.2940000000000001E-11
DataValue, 3.04, -9.8300000000000015E-12
DataValue, 3.0500000000000003, -9.000000000000001E-13
DataValue, 3.06, -1.8220000000000003E-11
DataValue, 3.0700000000000003, 5.2000000000000005E-12
DataValue, 3.08, -1.098E-11
DataValue, 3.09, -5.0000000000000005E-12
DataValue, 3.1, -2.7300000000000003E-12
DataValue, 3.11, -3.5000000000000004E-12
DataValue, 3.12, -1.5200000000000002E-12
DataValue, 3.13, -1.863E-11
DataValue, 3.14, 1.1550000000000002E-11
DataValue, 3.15, -1.9970000000000003E-11
DataValue, 3.16, -4.5500000000000006E-12
DataValue, 3.17, 9.06E-12
DataValue, 3.18, -2.7400000000000004E-11
DataValue, 3.19, 1.229E-11
DataValue, 3.2, -1.952E-11
DataValue, 3.21, 2.82E-12
DataValue, 3.22, 4.1E-13
DataValue, 3.23, 1.631E-11
DataValue, 3.24, -3.645E-11
DataValue, 3.25, 1.6600000000000003E-11
DataValue, 3.2600000000000002, -2.3350000000000002E-11
DataValue, 3.27, 1.037E-11
DataValue, 3.2800000000000002, -1.544E-11
DataValue, 3.29, -3.4E-13
DataValue, 3.3000000000000003, 2.77E-12
DataValue, 0, -1.2050000000000001E-11
DataValue, 0.01, 1.626E-11
DataValue, 0.02, -2.808E-11
DataValue, 0.03, 1.612E-11
DataValue, 0.04, -1.739E-11
DataValue, 0.05, 1.1930000000000001E-11
DataValue, 0.06, -1.4150000000000001E-11
DataValue, 0.07, -4.4000000000000004E-13
DataValue, 0.08, -1.2150000000000001E-11
DataValue, 0.09, 5.1200000000000008E-12
DataValue, 0.1, -1.8950000000000003E-11
DataValue, 0.11, 4.28E-12
DataValue, 0.12, -1.2250000000000001E-11
DataValue, 0.13, -7.6000000000000009E-13
DataValue, 0.14, -4.3000000000000007E-12
DataValue, 0.15, -7.0500000000000009E-12
DataValue, 0.16, 2.36E-12
DataValue, 0.17, -8.83E-12
DataValue, 0.18, -5.8800000000000008E-12
DataValue, 0.19, -2.31E-12
DataValue, 0.2, -1.3440000000000001E-11
DataValue, 0.21, 4.47E-12
DataValue, 0.22, -1.6470000000000002E-11
DataValue, 0.23, 4.83E-12
DataValue, 0.24, -1.3550000000000001E-11
DataValue, 0.25, 9.07E-12
DataValue, 0.26, -2.192E-11
DataValue, 0.27, 1.7140000000000002E-11
DataValue, 0.28, -2.6190000000000002E-11
DataValue, 0.29, 1.413E-11
DataValue, 0.3, -2.542E-11
DataValue, 0.31, 7.61E-12
DataValue, 0.32, -1.3450000000000001E-11
DataValue, 0.33, 1.903E-11
DataValue, 0.34, -2.3220000000000002E-11
DataValue, 0.35000000000000003, 1.814E-11
DataValue, 0.36, -2.2020000000000002E-11
DataValue, 0.37, 1.3600000000000002E-11
DataValue, 0.38, -1.5360000000000002E-11
DataValue, 0.39, 3.33E-12
DataValue, 0.4, -1.19E-11
DataValue, 0.41000000000000003, 8.33E-12
DataValue, 0.42, -6.2200000000000006E-12
DataValue, 0.43, -4.88E-12
DataValue, 0.44, -1.695E-11
DataValue, 0.45, 9.5200000000000014E-12
DataValue, 0.46, -9.33E-12
DataValue, 0.47000000000000003, -6E-12
DataValue, 0.48, -4.7500000000000006E-12
DataValue, 0.49, -1.0700000000000001E-11
DataValue, 0.5, 5.6E-13
DataValue, 0.51, 1.98E-12
DataValue, 0.52, -8.3900000000000012E-12
