
SetupTitle, NMOS-id-vg-vbs@vds=0.05
PrimitiveTest, I/V Sweep
TestParameter, Context.MainFrame, B1500A
TestParameter, Channel.UnitType, SMU, SMU, SMU, SMU
TestParameter, Channel.Unit, SMU2:HR, SMU1:HR, SMU3:HR, SMU4:HR
TestParameter, Channel.IName, ib, is, ig, id
TestParameter, Channel.VName, vb, vs, vg, vd
TestParameter, Channel.Mode, V, COMMON, V, V
TestParameter, Channel.Func, VAR2, CONST, VAR1, CONST
TestParameter, Channel.Index, 
TestParameter, Channel.Time, 
TestParameter, Measurement.Port.Unit, SMU2:HR, SMU1:HR, SMU3:HR, SMU4:HR
TestParameter, Measurement.Port.SeriesResistor, NONE, NONE, NONE, NONE
TestParameter, Measurement.Port.Filter, ON, ON, ON, ON
TestParameter, Measurement.Port.OutputVoltageComparison, 0, 0, 0, 0
TestParameter, Measurement.Primary.Locus, Single
TestParameter, Measurement.Primary.Scale, LINEAR
TestParameter, Measurement.Primary.Start, -0.5
TestParameter, Measurement.Primary.Stop, 3.3000000000000003
TestParameter, Measurement.Primary.Step, 0.01
TestParameter, Measurement.Primary.Compliance, 0.001
TestParameter, Measurement.Primary.PowerCompliance, 0
TestParameter, Measurement.Aborting.Condition, SKIP AT ANY ABNORMAL
TestParameter, Measurement.PostOutput.Value, START
TestParameter, Measurement.PostOutput.Retention, OFF
TestParameter, Measurement.Secondary.Start, 0
TestParameter, Measurement.Secondary.Count, 7
TestParameter, Measurement.Secondary.Step, -0.6
TestParameter, Measurement.Secondary.Compliance, 0.1
TestParameter, Measurement.Secondary.PowerCompliance, 0
TestParameter, Measurement.Bias.Source, 0, 0, -0.5, 0.05
TestParameter, Measurement.Bias.Compliance, 0.1, 0.1, 0.001, 0.1
TestParameter, Measurement.Monitor.Unit, SMU2:HR, SMU1:HR, SMU3:HR, SMU4:HR
TestParameter, Measurement.Monitor.Adc, HR ADC, HR ADC, HR ADC, HR ADC
TestParameter, Measurement.Monitor.Measurement, Compliance Side, Compliance Side, Compliance Side, Compliance Side
TestParameter, Measurement.Monitor.RangingMode, LIMITED, LIMITED, LIMITED, LIMITED
TestParameter, Measurement.Monitor.RangeBoundary, 1nA, 1nA, 1nA, 1nA
TestParameter, Measurement.Monitor.RangeRating, BY FULL RANGE, BY FULL RANGE, BY FULL RANGE, BY FULL RANGE
TestParameter, Measurement.Monitor.RangeRatingCoeff, 50, 50, 50, 50
TestParameter, Measurement.Timing.Hold, 0
TestParameter, Measurement.Timing.Delay, 0
TestParameter, Measurement.Adc.HighSpeed.Mode, AUTO
TestParameter, Measurement.Adc.HighSpeed.Coeff, 1
TestParameter, Measurement.Adc.HighResolution.AutoZero, OFF
TestParameter, Measurement.Adc.HighResolution.Mode, AUTO
TestParameter, Measurement.Adc.HighResolution.Coeff, 6
TestParameter, Measurement.WaitTime.Source.Coeff, 1
TestParameter, Measurement.WaitTime.Source.Offset, 0
TestParameter, Measurement.WaitTime.Monitor.Coeff, 1
TestParameter, Measurement.WaitTime.Monitor.Offset, 0
TestParameter, Output.Graph.Enabled, true
TestParameter, Output.Graph.AutoScaling, false
TestParameter, Output.Graph.XAxis.Data, vg
TestParameter, Output.Graph.XAxis.Scale, Linear
TestParameter, Output.Graph.XAxis.Left, 0
TestParameter, Output.Graph.XAxis.Right, 0.9
TestParameter, Output.Graph.XAxis.RunTimeAutoScale, true
TestParameter, Output.Graph.YAxis.Data, id
TestParameter, Output.Graph.YAxis.Scale, Linear
TestParameter, Output.Graph.YAxis.Bottom, -0.1
TestParameter, Output.Graph.YAxis.Top, 0.1
TestParameter, Output.Graph.YAxis.Group, 
TestParameter, Output.Graph.YAxis.RunTimeAutoScale, true
TestParameter, AutoAnalysis.Interpolation, false
TestParameter, AutoAnalysis.Var2StepCount, 1
TestParameter, AutoAnalysis.Var2StepScript, 
TestParameter, AutoAnalysis.Line1.Enabled, false
TestParameter, AutoAnalysis.Line1.Type, 1
TestParameter, AutoAnalysis.Line1.Fix, True
TestParameter, AutoAnalysis.Line1.YAxis, 0
TestParameter, AutoAnalysis.Line1.Point1.Type, 0
TestParameter, AutoAnalysis.Line1.Point1.XY.X, 
TestParameter, AutoAnalysis.Line1.Point1.XY.Y, 
TestParameter, AutoAnalysis.Line1.Point1.Data.Var, 
TestParameter, AutoAnalysis.Line1.Point1.Data.Condition, 
TestParameter, AutoAnalysis.Line1.Point1.Data.Start, false
TestParameter, AutoAnalysis.Line1.Point1.Data.StartVar, 
TestParameter, AutoAnalysis.Line1.Point1.Data.StartCondition, 
TestParameter, AutoAnalysis.Line1.Point2.Type, 0
TestParameter, AutoAnalysis.Line1.Point2.XY.X, 
TestParameter, AutoAnalysis.Line1.Point2.XY.Y, 
TestParameter, AutoAnalysis.Line1.Point2.Data.Var, 
TestParameter, AutoAnalysis.Line1.Point2.Data.Condition, 
TestParameter, AutoAnalysis.Line1.Point2.Data.Start, false
TestParameter, AutoAnalysis.Line1.Point2.Data.StartVar, 
TestParameter, AutoAnalysis.Line1.Point2.Data.StartCondition, 
TestParameter, AutoAnalysis.Line1.GradientExpr, 0
TestParameter, AutoAnalysis.Line2.Enabled, false
TestParameter, AutoAnalysis.Line2.Type, 1
TestParameter, AutoAnalysis.Line2.Fix, True
TestParameter, AutoAnalysis.Line2.YAxis, 0
TestParameter, AutoAnalysis.Line2.Point1.Type, 0
TestParameter, AutoAnalysis.Line2.Point1.XY.X, 
TestParameter, AutoAnalysis.Line2.Point1.XY.Y, 
TestParameter, AutoAnalysis.Line2.Point1.Data.Var, 
TestParameter, AutoAnalysis.Line2.Point1.Data.Condition, 
TestParameter, AutoAnalysis.Line2.Point1.Data.Start, false
TestParameter, AutoAnalysis.Line2.Point1.Data.StartVar, 
TestParameter, AutoAnalysis.Line2.Point1.Data.StartCondition, 
TestParameter, AutoAnalysis.Line2.Point2.Type, 0
TestParameter, AutoAnalysis.Line2.Point2.XY.X, 
TestParameter, AutoAnalysis.Line2.Point2.XY.Y, 
TestParameter, AutoAnalysis.Line2.Point2.Data.Var, 
TestParameter, AutoAnalysis.Line2.Point2.Data.Condition, 
TestParameter, AutoAnalysis.Line2.Point2.Data.Start, false
TestParameter, AutoAnalysis.Line2.Point2.Data.StartVar, 
TestParameter, AutoAnalysis.Line2.Point2.Data.StartCondition, 
TestParameter, AutoAnalysis.Line2.GradientExpr, 0
TestParameter, AutoAnalysis.Marker.Enabled, false
TestParameter, AutoAnalysis.Marker.Data.Var, 
TestParameter, AutoAnalysis.Marker.Data.Condition, 
TestParameter, AutoAnalysis.Marker.Data.Start, false
TestParameter, AutoAnalysis.Marker.Data.StartVar, 
TestParameter, AutoAnalysis.Marker.Data.StartCondition, 
MetaData, TestRecord.EntryPoint, true
MetaData, TestRecord.RecordTime, 03/08/2024 15:39:12
MetaData, TestRecord.TestTarget, NMOS_0.22_0.35_77K
MetaData, TestRecord.IterationIndex, 36
MetaData, TestRecord.Preservation, true
MetaData, TestRecord.Flag, 
MetaData, TestRecord.Remarks, 
MetaData, TestRecord.LinkKey, 542159e9-964b-40e3-8853-e8e17266fb6b
MetaData, TestRecord.Parameters, 
Dimension1, 381, 381
Dimension2, 7, 7
DataName, vg, id
DataValue, -0.5, -3.6000000000000003E-13
DataValue, -0.49, 1.31E-12
DataValue, -0.48, -3.3E-13
DataValue, -0.47000000000000003, 1.1100000000000001E-12
DataValue, -0.46, -2E-13
DataValue, -0.45, 5.9E-13
DataValue, -0.44, -2.7E-13
DataValue, -0.43, 1.13E-12
DataValue, -0.42, 9.9E-13
DataValue, -0.41000000000000003, -2.2000000000000002E-13
DataValue, -0.4, 1.4300000000000002E-12
DataValue, -0.39, 1.9000000000000002E-13
DataValue, -0.38, 5.4E-13
DataValue, -0.37, 5.5000000000000008E-13
DataValue, -0.36, 6.8E-13
DataValue, -0.35000000000000003, 4.2000000000000003E-13
DataValue, -0.34, 5.3000000000000006E-13
DataValue, -0.33, 6.2000000000000008E-13
DataValue, -0.32, 2.7E-13
DataValue, -0.31, 1.37E-12
DataValue, -0.3, 2.3000000000000003E-13
DataValue, -0.29, 5.3000000000000006E-13
DataValue, -0.28, 1.04E-12
DataValue, -0.27, 1.21E-12
DataValue, -0.26, -2.6E-13
DataValue, -0.25, 1.2800000000000002E-12
DataValue, -0.24, 2.5E-13
DataValue, -0.23, 6.2000000000000008E-13
DataValue, -0.22, 1.09E-12
DataValue, -0.21, 6.8E-13
DataValue, -0.2, 7.5E-13
DataValue, -0.19, 4.8000000000000008E-13
DataValue, -0.18, 4.2000000000000003E-13
DataValue, -0.17, 3.5E-13
DataValue, -0.16, 1.45E-12
DataValue, -0.15, -4.8000000000000008E-13
DataValue, -0.14, 7.3E-13
DataValue, -0.13, 8.7E-13
DataValue, -0.12, 6.6E-13
DataValue, -0.11, 6.8E-13
DataValue, -0.1, 5.1E-13
DataValue, -0.09, 9.9E-13
DataValue, -0.08, -4.3000000000000004E-13
DataValue, -0.07, 1.0100000000000001E-12
DataValue, -0.06, -2.7E-13
DataValue, -0.05, 7.2000000000000006E-13
DataValue, -0.04, 4.3000000000000004E-13
DataValue, -0.03, -1.9000000000000002E-13
DataValue, -0.02, 1.1100000000000001E-12
DataValue, -0.01, 3.8000000000000005E-13
DataValue, 0, 9.8E-13
DataValue, 0.01, 2.6E-13
DataValue, 0.02, 1.32E-12
DataValue, 0.03, 1.5000000000000002E-13
DataValue, 0.04, 6.5000000000000006E-13
DataValue, 0.05, 5.9E-13
DataValue, 0.06, 5.9E-13
DataValue, 0.07, 7.5E-13
DataValue, 0.08, 3.6000000000000003E-13
DataValue, 0.09, 7.5E-13
DataValue, 0.1, -3.0000000000000003E-13
DataValue, 0.11, 2.08E-12
DataValue, 0.12, -1.02E-12
DataValue, 0.13, 5.7E-13
DataValue, 0.14, 1.04E-12
DataValue, 0.15, -4.8000000000000008E-13
DataValue, 0.16, 1.6800000000000001E-12
DataValue, 0.17, -7.6000000000000009E-13
DataValue, 0.18, 1.5600000000000002E-12
DataValue, 0.19, -1E-13
DataValue, 0.2, -1E-13
DataValue, 0.21, 2.47E-12
DataValue, 0.22, -1.96E-12
DataValue, 0.23, 2.14E-12
DataValue, 0.24, -6.7000000000000007E-13
DataValue, 0.25, -1.3E-13
DataValue, 0.26, 2.04E-12
DataValue, 0.27, -1.46E-12
DataValue, 0.28, 1.79E-12
DataValue, 0.29, -1.26E-12
DataValue, 0.3, 9.3E-13
DataValue, 0.31, 1.4900000000000001E-12
DataValue, 0.32, -1.9400000000000002E-12
DataValue, 0.33, 2.6500000000000002E-12
DataValue, 0.34, -1.0100000000000001E-12
DataValue, 0.35000000000000003, 6.5000000000000006E-13
DataValue, 0.36, 1.7100000000000002E-12
DataValue, 0.37, -1.09E-12
DataValue, 0.38, 1.5E-12
DataValue, 0.39, -3.7000000000000004E-13
DataValue, 0.4, 7.100000000000001E-13
DataValue, 0.41000000000000003, 5.3000000000000006E-13
DataValue, 0.42, 2.0000000000000003E-14
DataValue, 0.43, 1.08E-12
DataValue, 0.44, -6.0000000000000009E-14
DataValue, 0.45, 1.9000000000000002E-13
DataValue, 0.46, 9.6000000000000015E-13
DataValue, 0.47000000000000003, 6.9000000000000009E-13
DataValue, 0.48, 2.5E-13
DataValue, 0.49, 1.3400000000000002E-12
DataValue, 0.5, 5.2E-13
DataValue, 0.51, 2.4000000000000004E-13
DataValue, 0.52, 1.3000000000000001E-12
DataValue, 0.53, 1.7E-13
DataValue, 0.54, 1.04E-12
DataValue, 0.55, 1.17E-12
DataValue, 0.56, 6.400000000000001E-13
DataValue, 0.57000000000000006, 1.04E-12
DataValue, 0.58, 4.0000000000000006E-14
DataValue, 0.59, 1.8100000000000002E-12
DataValue, 0.6, 1.27E-12
DataValue, 0.61, 1.09E-12
DataValue, 0.62, 4.01E-12
DataValue, 0.63, 2.6800000000000003E-12
DataValue, 0.64, 5.9100000000000005E-12
DataValue, 0.65, 8.11E-12
DataValue, 0.66, 1.1110000000000001E-11
DataValue, 0.67, 1.803E-11
DataValue, 0.68, 2.5350000000000002E-11
DataValue, 0.69000000000000006, 3.8410000000000006E-11
DataValue, 0.70000000000000007, 5.718E-11
DataValue, 0.71, 8.652E-11
DataValue, 0.72, 1.3147E-10
DataValue, 0.73, 1.9612000000000002E-10
DataValue, 0.74, 2.9271E-10
DataValue, 0.75, 4.3833000000000003E-10
DataValue, 0.76, 6.6312000000000008E-10
DataValue, 0.77, 9.6561000000000014E-10
DataValue, 0.78, 1.5946E-09
DataValue, 0.79, 2.1599E-09
DataValue, 0.8, 3.1969E-09
DataValue, 0.81, 4.7015E-09
DataValue, 0.82000000000000006, 6.8704E-09
DataValue, 0.83000000000000007, 1.00672E-08
DataValue, 0.84, 1.5624599999999998E-08
DataValue, 0.85, 2.2181399999999997E-08
DataValue, 0.86, 3.0918399999999994E-08
DataValue, 0.87, 4.2362399999999994E-08
DataValue, 0.88, 5.7519999999999995E-08
DataValue, 0.89, 7.72642E-08
DataValue, 0.9, 1.0141059999999999E-07
DataValue, 0.91, 1.3086E-07
DataValue, 0.92, 1.657E-07
DataValue, 0.93, 2.0645999999999998E-07
DataValue, 0.94000000000000006, 2.5352E-07
DataValue, 0.95000000000000007, 3.064E-07
DataValue, 0.96, 3.6624E-07
DataValue, 0.97, 4.3107999999999997E-07
DataValue, 0.98, 5.0142E-07
DataValue, 0.99, 5.7578E-07
DataValue, 1, 6.5424E-07
DataValue, 1.01, 7.3822E-07
DataValue, 1.02, 8.2796E-07
DataValue, 1.03, 9.1934E-07
DataValue, 1.04, 1.01358E-06
DataValue, 1.05, 1.11242E-06
DataValue, 1.06, 1.2121000000000002E-06
DataValue, 1.07, 1.3128000000000002E-06
DataValue, 1.08, 1.4188E-06
DataValue, 1.09, 1.5267000000000001E-06
DataValue, 1.1, 1.6322000000000002E-06
DataValue, 1.11, 1.7387000000000002E-06
DataValue, 1.12, 1.8447E-06
DataValue, 1.1300000000000001, 1.9585000000000004E-06
DataValue, 1.1400000000000001, 2.0687E-06
DataValue, 1.1500000000000001, 2.1817000000000002E-06
DataValue, 1.16, 2.2941E-06
DataValue, 1.17, 2.4060000000000003E-06
DataValue, 1.18, 2.5173000000000004E-06
DataValue, 1.19, 2.6304000000000003E-06
DataValue, 1.2, 2.7442000000000003E-06
DataValue, 1.21, 2.8566000000000003E-06
DataValue, 1.22, 2.972E-06
DataValue, 1.23, 3.0870000000000003E-06
DataValue, 1.24, 3.1993000000000004E-06
DataValue, 1.25, 3.3126000000000003E-06
DataValue, 1.26, 3.4254000000000003E-06
DataValue, 1.27, 3.5378000000000002E-06
DataValue, 1.28, 3.6521000000000006E-06
DataValue, 1.29, 3.7641000000000005E-06
DataValue, 1.3, 3.8771000000000005E-06
DataValue, 1.31, 3.9877000000000008E-06
DataValue, 1.32, 4.0970000000000008E-06
DataValue, 1.33, 4.2081E-06
DataValue, 1.34, 4.3177E-06
DataValue, 1.35, 4.4280000000000006E-06
DataValue, 1.36, 4.5350000000000006E-06
DataValue, 1.37, 4.6440000000000008E-06
DataValue, 1.3800000000000001, 4.7510000000000008E-06
DataValue, 1.3900000000000001, 4.8558E-06
DataValue, 1.4000000000000001, 4.9612000000000009E-06
DataValue, 1.41, 5.0682000000000009E-06
DataValue, 1.42, 5.1726E-06
DataValue, 1.43, 5.2757E-06
DataValue, 1.44, 5.3767000000000005E-06
DataValue, 1.45, 5.4792000000000008E-06
DataValue, 1.46, 5.5822000000000005E-06
DataValue, 1.47, 5.6844E-06
DataValue, 1.48, 5.7848000000000009E-06
DataValue, 1.49, 5.8824000000000006E-06
DataValue, 1.5, 5.9785000000000004E-06
DataValue, 1.51, 6.0779000000000007E-06
DataValue, 1.52, 6.1749000000000008E-06
DataValue, 1.53, 6.2723000000000009E-06
DataValue, 1.54, 6.3691000000000006E-06
DataValue, 1.55, 6.4632000000000011E-06
DataValue, 1.56, 6.5604000000000007E-06
DataValue, 1.57, 6.6502E-06
DataValue, 1.58, 6.7442000000000006E-06
DataValue, 1.59, 6.8380000000000004E-06
DataValue, 1.6, 6.9287000000000011E-06
DataValue, 1.61, 7.0173000000000006E-06
DataValue, 1.62, 7.1119000000000005E-06
DataValue, 1.6300000000000001, 7.1992000000000005E-06
DataValue, 1.6400000000000001, 7.2898000000000009E-06
DataValue, 1.6500000000000001, 7.3796000000000005E-06
DataValue, 1.6600000000000001, 7.4682000000000008E-06
DataValue, 1.67, 7.5521000000000009E-06
DataValue, 1.68, 7.6403E-06
DataValue, 1.69, 7.7246E-06
DataValue, 1.7, 7.809000000000001E-06
DataValue, 1.71, 7.8955000000000009E-06
DataValue, 1.72, 7.9796E-06
DataValue, 1.73, 8.0618000000000013E-06
DataValue, 1.74, 8.1464E-06
DataValue, 1.75, 8.2303000000000015E-06
DataValue, 1.76, 8.3095E-06
DataValue, 1.77, 8.3917000000000013E-06
DataValue, 1.78, 8.4717E-06
DataValue, 1.79, 8.5496E-06
DataValue, 1.8, 8.6301E-06
DataValue, 1.81, 8.7111E-06
DataValue, 1.82, 8.7855E-06
DataValue, 1.83, 8.8608000000000016E-06
DataValue, 1.84, 8.939E-06
DataValue, 1.85, 9.0148E-06
DataValue, 1.86, 9.0889E-06
DataValue, 1.87, 9.1645E-06
DataValue, 1.8800000000000001, 9.2398000000000009E-06
DataValue, 1.8900000000000001, 9.3115E-06
DataValue, 1.9000000000000001, 9.3854000000000017E-06
DataValue, 1.9100000000000001, 9.4617000000000012E-06
DataValue, 1.92, 9.5330000000000017E-06
DataValue, 1.93, 9.6023000000000012E-06
DataValue, 1.94, 9.6755E-06
DataValue, 1.95, 9.7445000000000013E-06
DataValue, 1.96, 9.8152E-06
DataValue, 1.97, 9.8827000000000011E-06
DataValue, 1.98, 9.9524000000000015E-06
DataValue, 1.99, 1.0024200000000001E-05
DataValue, 2, 1.0089300000000002E-05
DataValue, 2.0100000000000002, 1.0156900000000001E-05
DataValue, 2.02, 1.0226700000000002E-05
DataValue, 2.0300000000000002, 1.0290600000000001E-05
DataValue, 2.04, 1.0355700000000002E-05
DataValue, 2.05, 1.04225E-05
DataValue, 2.06, 1.04875E-05
DataValue, 2.07, 1.05516E-05
DataValue, 2.08, 1.06155E-05
DataValue, 2.09, 1.06789E-05
DataValue, 2.1, 1.0744500000000002E-05
DataValue, 2.11, 1.0804000000000002E-05
DataValue, 2.12, 1.08674E-05
DataValue, 2.13, 1.0929800000000002E-05
DataValue, 2.14, 1.0990000000000002E-05
DataValue, 2.15, 1.10484E-05
DataValue, 2.16, 1.11102E-05
DataValue, 2.17, 1.11712E-05
DataValue, 2.18, 1.1223800000000001E-05
DataValue, 2.19, 1.1285700000000001E-05
DataValue, 2.2, 1.13472E-05
DataValue, 2.21, 1.1403200000000001E-05
DataValue, 2.22, 1.1459700000000001E-05
DataValue, 2.23, 1.14995E-05
DataValue, 2.24, 1.1570000000000001E-05
DataValue, 2.25, 1.1628000000000001E-05
DataValue, 2.2600000000000002, 1.1686E-05
DataValue, 2.27, 1.1740000000000001E-05
DataValue, 2.2800000000000002, 1.1796E-05
DataValue, 2.29, 1.185E-05
DataValue, 2.3000000000000003, 1.1906000000000001E-05
DataValue, 2.31, 1.1956E-05
DataValue, 2.32, 1.2012000000000001E-05
DataValue, 2.33, 1.206E-05
DataValue, 2.34, 1.2110000000000001E-05
DataValue, 2.35, 1.2166E-05
DataValue, 2.36, 1.222E-05
DataValue, 2.37, 1.2268E-05
DataValue, 2.38, 1.2318E-05
DataValue, 2.39, 1.237E-05
DataValue, 2.4, 1.242E-05
DataValue, 2.41, 1.2470000000000001E-05
DataValue, 2.42, 1.2518000000000001E-05
DataValue, 2.43, 1.2568E-05
DataValue, 2.44, 1.2614E-05
DataValue, 2.45, 1.2658E-05
DataValue, 2.46, 1.2708000000000001E-05
DataValue, 2.47, 1.2756000000000001E-05
DataValue, 2.48, 1.2802E-05
DataValue, 2.49, 1.2844000000000001E-05
DataValue, 2.5, 1.2894E-05
DataValue, 2.5100000000000002, 1.2944E-05
DataValue, 2.52, 1.2986E-05
DataValue, 2.5300000000000002, 1.303E-05
DataValue, 2.54, 1.3078E-05
DataValue, 2.5500000000000003, 1.3116000000000001E-05
DataValue, 2.56, 1.3164E-05
DataValue, 2.57, 1.3202E-05
DataValue, 2.58, 1.325E-05
DataValue, 2.59, 1.3292E-05
DataValue, 2.6, 1.3332E-05
DataValue, 2.61, 1.3376E-05
DataValue, 2.62, 1.3416E-05
DataValue, 2.63, 1.3454E-05
DataValue, 2.64, 1.3496000000000001E-05
DataValue, 2.65, 1.3536E-05
DataValue, 2.66, 1.3576E-05
DataValue, 2.67, 1.3616E-05
DataValue, 2.68, 1.3658E-05
DataValue, 2.69, 1.3698E-05
DataValue, 2.7, 1.3732E-05
DataValue, 2.71, 1.3774E-05
DataValue, 2.72, 1.3814E-05
DataValue, 2.73, 1.3854E-05
DataValue, 2.74, 1.3888E-05
DataValue, 2.75, 1.3926E-05
DataValue, 2.7600000000000002, 1.3968E-05
DataValue, 2.77, 1.4002E-05
DataValue, 2.7800000000000002, 1.4036E-05
DataValue, 2.79, 1.4074000000000001E-05
DataValue, 2.8000000000000003, 1.4112E-05
DataValue, 2.81, 1.4142000000000001E-05
DataValue, 2.82, 1.4178E-05
DataValue, 2.83, 1.4210000000000001E-05
DataValue, 2.84, 1.4252E-05
DataValue, 2.85, 1.4284E-05
DataValue, 2.86, 1.4318E-05
DataValue, 2.87, 1.4352E-05
DataValue, 2.88, 1.4388E-05
DataValue, 2.89, 1.4418E-05
DataValue, 2.9, 1.4452E-05
DataValue, 2.91, 1.4484E-05
DataValue, 2.92, 1.4518E-05
DataValue, 2.93, 1.4544E-05
DataValue, 2.94, 1.4576E-05
DataValue, 2.95, 1.4612E-05
DataValue, 2.96, 1.4646E-05
DataValue, 2.97, 1.4672000000000001E-05
DataValue, 2.98, 1.4702000000000001E-05
DataValue, 2.99, 1.4732E-05
DataValue, 3, 1.4766E-05
DataValue, 3.0100000000000002, 1.4792E-05
DataValue, 3.02, 1.4826E-05
DataValue, 3.0300000000000002, 1.4854E-05
DataValue, 3.04, 1.488E-05
DataValue, 3.0500000000000003, 1.4908E-05
DataValue, 3.06, 1.4930000000000001E-05
DataValue, 3.0700000000000003, 1.496E-05
DataValue, 3.08, 1.4998000000000001E-05
DataValue, 3.09, 1.501E-05
DataValue, 3.1, 1.5044E-05
DataValue, 3.11, 1.5084E-05
DataValue, 3.12, 1.5110000000000001E-05
DataValue, 3.13, 1.5122E-05
DataValue, 3.14, 1.5154000000000001E-05
DataValue, 3.15, 1.5194E-05
DataValue, 3.16, 1.522E-05
DataValue, 3.17, 1.524E-05
DataValue, 3.18, 1.5262E-05
DataValue, 3.19, 1.53E-05
DataValue, 3.2, 1.5322E-05
DataValue, 3.21, 1.5336E-05
DataValue, 3.22, 1.5362E-05
DataValue, 3.23, 1.5402E-05
DataValue, 3.24, 1.542E-05
DataValue, 3.25, 1.5448000000000002E-05
DataValue, 3.2600000000000002, 1.5468E-05
DataValue, 3.27, 1.5494E-05
DataValue, 3.2800000000000002, 1.5498E-05
DataValue, 3.29, 1.5534E-05
DataValue, 3.3000000000000003, 1.5566E-05
DataValue, -0.5, 2.0700000000000003E-12
DataValue, -0.49, -5E-13
DataValue, -0.48, 2.08E-12
DataValue, -0.47000000000000003, -8.5000000000000011E-13
DataValue, -0.46, 2.39E-12
DataValue, -0.45, -4.3000000000000004E-13
DataValue, -0.44, 1.85E-12
DataValue, -0.43, -3.0000000000000005E-14
