
SetupTitle, NMOS-id-vg-vbs@vds=3.3
PrimitiveTest, I/V Sweep
TestParameter, Context.MainFrame, B1500A
TestParameter, Channel.UnitType, SMU, SMU, SMU, SMU
TestParameter, Channel.Unit, SMU2:HR, SMU1:HR, SMU3:HR, SMU4:HR
TestParameter, Channel.IName, ib, is, ig, id
TestParameter, Channel.VName, vb, vs, vg, vd
TestParameter, Channel.Mode, V, COMMON, V, V
TestParameter, Channel.Func, VAR2, CONST, VAR1, CONST
TestParameter, Channel.Index, 
TestParameter, Channel.Time, 
TestParameter, Measurement.Port.Unit, SMU2:HR, SMU1:HR, SMU3:HR, SMU4:HR
TestParameter, Measurement.Port.SeriesResistor, NONE, NONE, NONE, NONE
TestParameter, Measurement.Port.Filter, ON, ON, ON, ON
TestParameter, Measurement.Port.OutputVoltageComparison, 0, 0, 0, 0
TestParameter, Measurement.Primary.Locus, Single
TestParameter, Measurement.Primary.Scale, LINEAR
TestParameter, Measurement.Primary.Start, -0.5
TestParameter, Measurement.Primary.Stop, 3.3000000000000003
TestParameter, Measurement.Primary.Step, 0.01
TestParameter, Measurement.Primary.Compliance, 0.001
TestParameter, Measurement.Primary.PowerCompliance, 0
TestParameter, Measurement.Aborting.Condition, SKIP AT ANY ABNORMAL
TestParameter, Measurement.PostOutput.Value, START
TestParameter, Measurement.PostOutput.Retention, OFF
TestParameter, Measurement.Secondary.Start, 0
TestParameter, Measurement.Secondary.Count, 7
TestParameter, Measurement.Secondary.Step, -0.6
TestParameter, Measurement.Secondary.Compliance, 0.1
TestParameter, Measurement.Secondary.PowerCompliance, 0
TestParameter, Measurement.Bias.Source, 0, 0, -0.5, 3.3000000000000003
TestParameter, Measurement.Bias.Compliance, 0.1, 0.1, 0.001, 0.1
TestParameter, Measurement.Monitor.Unit, SMU2:HR, SMU1:HR, SMU3:HR, SMU4:HR
TestParameter, Measurement.Monitor.Adc, HR ADC, HR ADC, HR ADC, HR ADC
TestParameter, Measurement.Monitor.Measurement, Compliance Side, Compliance Side, Compliance Side, Compliance Side
TestParameter, Measurement.Monitor.RangingMode, LIMITED, LIMITED, LIMITED, LIMITED
TestParameter, Measurement.Monitor.RangeBoundary, 1nA, 1nA, 1nA, 1nA
TestParameter, Measurement.Monitor.RangeRating, BY FULL RANGE, BY FULL RANGE, BY FULL RANGE, BY FULL RANGE
TestParameter, Measurement.Monitor.RangeRatingCoeff, 50, 50, 50, 50
TestParameter, Measurement.Timing.Hold, 0
TestParameter, Measurement.Timing.Delay, 0
TestParameter, Measurement.Adc.HighSpeed.Mode, AUTO
TestParameter, Measurement.Adc.HighSpeed.Coeff, 1
TestParameter, Measurement.Adc.HighResolution.AutoZero, OFF
TestParameter, Measurement.Adc.HighResolution.Mode, AUTO
TestParameter, Measurement.Adc.HighResolution.Coeff, 6
TestParameter, Measurement.WaitTime.Source.Coeff, 1
TestParameter, Measurement.WaitTime.Source.Offset, 0
TestParameter, Measurement.WaitTime.Monitor.Coeff, 1
TestParameter, Measurement.WaitTime.Monitor.Offset, 0
TestParameter, Output.Graph.Enabled, true
TestParameter, Output.Graph.AutoScaling, false
TestParameter, Output.Graph.XAxis.Data, vg
TestParameter, Output.Graph.XAxis.Scale, Linear
TestParameter, Output.Graph.XAxis.Left, 0
TestParameter, Output.Graph.XAxis.Right, 0.9
TestParameter, Output.Graph.XAxis.RunTimeAutoScale, true
TestParameter, Output.Graph.YAxis.Data, id
TestParameter, Output.Graph.YAxis.Scale, Linear
TestParameter, Output.Graph.YAxis.Bottom, -0.1
TestParameter, Output.Graph.YAxis.Top, 0.1
TestParameter, Output.Graph.YAxis.Group, 
TestParameter, Output.Graph.YAxis.RunTimeAutoScale, true
TestParameter, AutoAnalysis.Interpolation, false
TestParameter, AutoAnalysis.Var2StepCount, 1
TestParameter, AutoAnalysis.Var2StepScript, 
TestParameter, AutoAnalysis.Line1.Enabled, false
TestParameter, AutoAnalysis.Line1.Type, 1
TestParameter, AutoAnalysis.Line1.Fix, True
TestParameter, AutoAnalysis.Line1.YAxis, 0
TestParameter, AutoAnalysis.Line1.Point1.Type, 0
TestParameter, AutoAnalysis.Line1.Point1.XY.X, 
TestParameter, AutoAnalysis.Line1.Point1.XY.Y, 
TestParameter, AutoAnalysis.Line1.Point1.Data.Var, 
TestParameter, AutoAnalysis.Line1.Point1.Data.Condition, 
TestParameter, AutoAnalysis.Line1.Point1.Data.Start, false
TestParameter, AutoAnalysis.Line1.Point1.Data.StartVar, 
TestParameter, AutoAnalysis.Line1.Point1.Data.StartCondition, 
TestParameter, AutoAnalysis.Line1.Point2.Type, 0
TestParameter, AutoAnalysis.Line1.Point2.XY.X, 
TestParameter, AutoAnalysis.Line1.Point2.XY.Y, 
TestParameter, AutoAnalysis.Line1.Point2.Data.Var, 
TestParameter, AutoAnalysis.Line1.Point2.Data.Condition, 
TestParameter, AutoAnalysis.Line1.Point2.Data.Start, false
TestParameter, AutoAnalysis.Line1.Point2.Data.StartVar, 
TestParameter, AutoAnalysis.Line1.Point2.Data.StartCondition, 
TestParameter, AutoAnalysis.Line1.GradientExpr, 0
TestParameter, AutoAnalysis.Line2.Enabled, false
TestParameter, AutoAnalysis.Line2.Type, 1
TestParameter, AutoAnalysis.Line2.Fix, True
TestParameter, AutoAnalysis.Line2.YAxis, 0
TestParameter, AutoAnalysis.Line2.Point1.Type, 0
TestParameter, AutoAnalysis.Line2.Point1.XY.X, 
TestParameter, AutoAnalysis.Line2.Point1.XY.Y, 
TestParameter, AutoAnalysis.Line2.Point1.Data.Var, 
TestParameter, AutoAnalysis.Line2.Point1.Data.Condition, 
TestParameter, AutoAnalysis.Line2.Point1.Data.Start, false
TestParameter, AutoAnalysis.Line2.Point1.Data.StartVar, 
TestParameter, AutoAnalysis.Line2.Point1.Data.StartCondition, 
TestParameter, AutoAnalysis.Line2.Point2.Type, 0
TestParameter, AutoAnalysis.Line2.Point2.XY.X, 
TestParameter, AutoAnalysis.Line2.Point2.XY.Y, 
TestParameter, AutoAnalysis.Line2.Point2.Data.Var, 
TestParameter, AutoAnalysis.Line2.Point2.Data.Condition, 
TestParameter, AutoAnalysis.Line2.Point2.Data.Start, false
TestParameter, AutoAnalysis.Line2.Point2.Data.StartVar, 
TestParameter, AutoAnalysis.Line2.Point2.Data.StartCondition, 
TestParameter, AutoAnalysis.Line2.GradientExpr, 0
TestParameter, AutoAnalysis.Marker.Enabled, false
TestParameter, AutoAnalysis.Marker.Data.Var, 
TestParameter, AutoAnalysis.Marker.Data.Condition, 
TestParameter, AutoAnalysis.Marker.Data.Start, false
TestParameter, AutoAnalysis.Marker.Data.StartVar, 
TestParameter, AutoAnalysis.Marker.Data.StartCondition, 
MetaData, TestRecord.EntryPoint, true
MetaData, TestRecord.RecordTime, 03/08/2024 15:39:35
MetaData, TestRecord.TestTarget, NMOS_0.22_0.35_77K
MetaData, TestRecord.IterationIndex, 36
MetaData, TestRecord.Preservation, true
MetaData, TestRecord.Flag, 
MetaData, TestRecord.Remarks, 
MetaData, TestRecord.LinkKey, 0902834f-ea25-4f14-b1d0-fb84a4f37320
MetaData, TestRecord.Parameters, 
Dimension1, 381, 381
Dimension2, 7, 7
DataName, vg, id
DataValue, -0.5, 1.51E-12
DataValue, -0.49, 1.02E-12
DataValue, -0.48, 5.7E-13
DataValue, -0.47000000000000003, 1.1600000000000001E-12
DataValue, -0.46, 6.6E-13
DataValue, -0.45, 1.04E-12
DataValue, -0.44, 4.3000000000000004E-13
DataValue, -0.43, 1.23E-12
DataValue, -0.42, 2.4000000000000004E-13
DataValue, -0.41000000000000003, 2.3500000000000003E-12
DataValue, -0.4, -1.12E-12
DataValue, -0.39, 2.9100000000000003E-12
DataValue, -0.38, -2.2000000000000002E-13
DataValue, -0.37, 1.74E-12
DataValue, -0.36, 2.8E-13
DataValue, -0.35000000000000003, 1.5400000000000001E-12
DataValue, -0.34, 3.5E-13
DataValue, -0.33, 6.0000000000000007E-13
DataValue, -0.32, 2.18E-12
DataValue, -0.31, -7.100000000000001E-13
DataValue, -0.3, 3.1400000000000004E-12
DataValue, -0.29, -1.13E-12
DataValue, -0.28, 2.64E-12
DataValue, -0.27, -5.6E-13
DataValue, -0.26, 1.6800000000000001E-12
DataValue, -0.25, 3.5E-13
DataValue, -0.24, 6.6E-13
DataValue, -0.23, 2.1500000000000003E-12
DataValue, -0.22, -1.5200000000000002E-12
DataValue, -0.21, 3.67E-12
DataValue, -0.2, -1.4800000000000002E-12
DataValue, -0.19, 2.64E-12
DataValue, -0.18, -7.5E-13
DataValue, -0.17, 1.3000000000000001E-12
DataValue, -0.16, 9.9E-13
DataValue, -0.15, -4.0000000000000006E-14
DataValue, -0.14, 1.6E-12
DataValue, -0.13, -2.3000000000000003E-13
DataValue, -0.12, 2.09E-12
DataValue, -0.11, -1.7E-13
DataValue, -0.1, 9.1000000000000016E-13
DataValue, -0.09, 8.2E-13
DataValue, -0.08, 4.4000000000000004E-13
DataValue, -0.07, 1.1100000000000001E-12
DataValue, -0.06, 8.1000000000000008E-13
DataValue, -0.05, 4.8000000000000008E-13
DataValue, -0.04, 9.9E-13
DataValue, -0.03, 7E-13
DataValue, -0.02, 5.8000000000000005E-13
DataValue, -0.01, 9.9E-13
DataValue, 0, 5E-13
DataValue, 0.01, 7E-13
DataValue, 0.02, 6.5000000000000006E-13
DataValue, 0.03, 1.2900000000000002E-12
DataValue, 0.04, -1E-13
DataValue, 0.05, 9.4E-13
DataValue, 0.06, 1.4200000000000002E-12
DataValue, 0.07, -6.0000000000000007E-13
DataValue, 0.08, 1.86E-12
DataValue, 0.09, -5E-14
DataValue, 0.1, 1.2000000000000001E-12
DataValue, 0.11, 5.5000000000000008E-13
DataValue, 0.12, 1.27E-12
DataValue, 0.13, 6.6E-13
DataValue, 0.14, 7.2000000000000006E-13
DataValue, 0.15, 1.6600000000000002E-12
DataValue, 0.16, -4.7E-13
DataValue, 0.17, 1.5800000000000001E-12
DataValue, 0.18, 1.36E-12
DataValue, 0.19, -9.0000000000000008E-14
DataValue, 0.2, 2.1700000000000002E-12
DataValue, 0.21, -5.1E-13
DataValue, 0.22, 2.11E-12
DataValue, 0.23, 1E-13
DataValue, 0.24, 9.5E-13
DataValue, 0.25, 1.6600000000000002E-12
DataValue, 0.26, -6.400000000000001E-13
DataValue, 0.27, 2.97E-12
DataValue, 0.28, 2E-13
DataValue, 0.29, 1.2800000000000002E-12
DataValue, 0.3, 1.2400000000000002E-12
DataValue, 0.31, 3.1000000000000004E-13
DataValue, 0.32, 1.37E-12
DataValue, 0.33, -1.3E-13
DataValue, 0.34, 1.8400000000000002E-12
DataValue, 0.35000000000000003, -2.9000000000000003E-13
DataValue, 0.36, 1.12E-12
DataValue, 0.37, 1.0100000000000001E-12
DataValue, 0.38, 4.2000000000000003E-13
DataValue, 0.39, 1.51E-12
DataValue, 0.4, 2.6E-13
DataValue, 0.41000000000000003, 1.27E-12
DataValue, 0.42, 5.2E-13
DataValue, 0.43, 9.2000000000000012E-13
DataValue, 0.44, 1.5700000000000002E-12
DataValue, 0.45, -3.2000000000000005E-13
DataValue, 0.46, 2.3800000000000004E-12
DataValue, 0.47000000000000003, 7.2000000000000006E-13
DataValue, 0.48, 5E-14
DataValue, 0.49, 2.26E-12
DataValue, 0.5, -3.7000000000000004E-13
DataValue, 0.51, 1.41E-12
DataValue, 0.52, 3.6000000000000003E-13
DataValue, 0.53, 5.3000000000000006E-13
DataValue, 0.54, 1.3300000000000002E-12
DataValue, 0.55, -6.0000000000000009E-14
DataValue, 0.56, 2.6500000000000002E-12
DataValue, 0.57000000000000006, 1.2900000000000002E-12
DataValue, 0.58, 1.5300000000000001E-12
DataValue, 0.59, 3.3200000000000004E-12
DataValue, 0.6, 3.5000000000000004E-12
DataValue, 0.61, 5.89E-12
DataValue, 0.62, 8.2000000000000014E-12
DataValue, 0.63, 1.2130000000000001E-11
DataValue, 0.64, 1.7850000000000002E-11
DataValue, 0.65, 2.7200000000000004E-11
DataValue, 0.66, 4.2340000000000006E-11
DataValue, 0.67, 6.2410000000000007E-11
DataValue, 0.68, 9.5900000000000013E-11
DataValue, 0.69000000000000006, 1.4589E-10
DataValue, 0.70000000000000007, 2.2057000000000002E-10
DataValue, 0.71, 3.4427000000000004E-10
DataValue, 0.72, 5.0258E-10
DataValue, 0.73, 7.2497E-10
DataValue, 0.74, 1.08077E-09
DataValue, 0.75, 1.7599E-09
DataValue, 0.76, 2.4064E-09
DataValue, 0.77, 3.5837E-09
DataValue, 0.78, 5.2497E-09
DataValue, 0.79, 7.7538E-09
DataValue, 0.8, 1.23604E-08
DataValue, 0.81, 1.80128E-08
DataValue, 0.82000000000000006, 2.6285199999999998E-08
DataValue, 0.83000000000000007, 3.8896999999999994E-08
DataValue, 0.84, 5.4584999999999995E-08
DataValue, 0.85, 7.6435599999999989E-08
DataValue, 0.86, 1.0457679999999999E-07
DataValue, 0.87, 1.361E-07
DataValue, 0.88, 1.815E-07
DataValue, 0.89, 2.3722E-07
DataValue, 0.9, 3.0488E-07
DataValue, 0.91, 3.884E-07
DataValue, 0.92, 4.8626E-07
DataValue, 0.93, 5.998E-07
DataValue, 0.94000000000000006, 7.2924E-07
DataValue, 0.95000000000000007, 8.7994E-07
DataValue, 0.96, 1.05332E-06
DataValue, 0.97, 1.238E-06
DataValue, 0.98, 1.4475000000000001E-06
DataValue, 0.99, 1.6664000000000003E-06
DataValue, 1, 1.9140000000000002E-06
DataValue, 1.01, 2.178E-06
DataValue, 1.02, 2.4705000000000003E-06
DataValue, 1.03, 2.7782000000000004E-06
DataValue, 1.04, 3.1048000000000003E-06
DataValue, 1.05, 3.4456000000000005E-06
DataValue, 1.06, 3.8065000000000003E-06
DataValue, 1.07, 4.1826E-06
DataValue, 1.08, 4.5873E-06
DataValue, 1.09, 5.0037000000000009E-06
DataValue, 1.1, 5.4388E-06
DataValue, 1.11, 5.8862000000000005E-06
DataValue, 1.12, 6.3463000000000005E-06
DataValue, 1.1300000000000001, 6.8186000000000011E-06
DataValue, 1.1400000000000001, 7.3081E-06
DataValue, 1.1500000000000001, 7.8303E-06
DataValue, 1.16, 8.3564E-06
DataValue, 1.17, 8.8957E-06
DataValue, 1.18, 9.4205E-06
DataValue, 1.19, 9.993E-06
DataValue, 1.2, 1.05716E-05
DataValue, 1.21, 1.1154300000000001E-05
DataValue, 1.22, 1.1774000000000001E-05
DataValue, 1.23, 1.2368E-05
DataValue, 1.24, 1.2990000000000001E-05
DataValue, 1.25, 1.3636000000000001E-05
DataValue, 1.26, 1.4272E-05
DataValue, 1.27, 1.4904E-05
DataValue, 1.28, 1.5622E-05
DataValue, 1.29, 1.6284000000000002E-05
DataValue, 1.3, 1.7032000000000002E-05
DataValue, 1.31, 1.7734E-05
DataValue, 1.32, 1.8422E-05
DataValue, 1.33, 1.9114E-05
DataValue, 1.34, 1.9848E-05
DataValue, 1.35, 2.0568E-05
DataValue, 1.36, 2.1282E-05
DataValue, 1.37, 2.2044E-05
DataValue, 1.3800000000000001, 2.2752000000000002E-05
DataValue, 1.3900000000000001, 2.3504E-05
DataValue, 1.4000000000000001, 2.4272E-05
DataValue, 1.41, 2.5016000000000002E-05
DataValue, 1.42, 2.5790000000000002E-05
DataValue, 1.43, 2.6596E-05
DataValue, 1.44, 2.7356E-05
DataValue, 1.45, 2.8114000000000002E-05
DataValue, 1.46, 2.8914E-05
DataValue, 1.47, 2.9678E-05
DataValue, 1.48, 3.0484E-05
DataValue, 1.49, 3.1282E-05
DataValue, 1.5, 3.2024000000000004E-05
DataValue, 1.51, 3.2836E-05
DataValue, 1.52, 3.3624E-05
DataValue, 1.53, 3.4444000000000004E-05
DataValue, 1.54, 3.5238000000000004E-05
DataValue, 1.55, 3.605E-05
DataValue, 1.56, 3.6874E-05
DataValue, 1.57, 3.7692000000000004E-05
DataValue, 1.58, 3.8476E-05
DataValue, 1.59, 3.9318E-05
DataValue, 1.6, 4.0156E-05
DataValue, 1.61, 4.0952000000000004E-05
DataValue, 1.62, 4.1790000000000005E-05
DataValue, 1.6300000000000001, 4.2614E-05
DataValue, 1.6400000000000001, 4.345E-05
DataValue, 1.6500000000000001, 4.4304E-05
DataValue, 1.6600000000000001, 4.5084000000000004E-05
DataValue, 1.67, 4.5946000000000004E-05
DataValue, 1.68, 4.6782E-05
DataValue, 1.69, 4.7586E-05
DataValue, 1.7, 4.8440000000000004E-05
DataValue, 1.71, 4.9264E-05
DataValue, 1.72, 5.0142E-05
DataValue, 1.73, 5.0958E-05
DataValue, 1.74, 5.181E-05
DataValue, 1.75, 5.265E-05
DataValue, 1.76, 5.3484000000000005E-05
DataValue, 1.77, 5.4332E-05
DataValue, 1.78, 5.5184E-05
DataValue, 1.79, 5.6034E-05
DataValue, 1.8, 5.6880000000000004E-05
DataValue, 1.81, 5.7732E-05
DataValue, 1.82, 5.8604E-05
DataValue, 1.83, 5.9456E-05
DataValue, 1.84, 6.0264000000000004E-05
DataValue, 1.85, 6.1172E-05
DataValue, 1.86, 6.1982E-05
DataValue, 1.87, 6.2852E-05
DataValue, 1.8800000000000001, 6.3668E-05
DataValue, 1.8900000000000001, 6.4572E-05
DataValue, 1.9000000000000001, 6.5412E-05
DataValue, 1.9100000000000001, 6.6258E-05
DataValue, 1.92, 6.7104E-05
DataValue, 1.93, 6.7964E-05
DataValue, 1.94, 6.8826000000000008E-05
DataValue, 1.95, 6.9692E-05
DataValue, 1.96, 7.0538000000000008E-05
DataValue, 1.97, 7.1396E-05
DataValue, 1.98, 7.223E-05
DataValue, 1.99, 7.3088E-05
DataValue, 2, 7.389E-05
DataValue, 2.0100000000000002, 7.4752E-05
DataValue, 2.02, 7.5614E-05
DataValue, 2.0300000000000002, 7.6488E-05
DataValue, 2.04, 7.7312000000000008E-05
DataValue, 2.05, 7.8166E-05
DataValue, 2.06, 7.9012000000000009E-05
DataValue, 2.07, 7.9840000000000008E-05
DataValue, 2.08, 8.0748000000000007E-05
DataValue, 2.09, 8.159E-05
DataValue, 2.1, 8.242E-05
DataValue, 2.11, 8.331E-05
DataValue, 2.12, 8.419E-05
DataValue, 2.13, 8.5008E-05
DataValue, 2.14, 8.5826E-05
DataValue, 2.15, 8.6728E-05
DataValue, 2.16, 8.7536E-05
DataValue, 2.17, 8.8406000000000007E-05
DataValue, 2.18, 8.9234E-05
DataValue, 2.19, 9.0126E-05
DataValue, 2.2, 9.089800000000001E-05
DataValue, 2.21, 9.1814E-05
DataValue, 2.22, 9.267200000000001E-05
DataValue, 2.23, 9.3526E-05
DataValue, 2.24, 9.437800000000001E-05
DataValue, 2.25, 9.5262E-05
DataValue, 2.2600000000000002, 9.6056E-05
DataValue, 2.27, 9.6936000000000008E-05
DataValue, 2.2800000000000002, 9.78E-05
DataValue, 2.29, 9.8666000000000007E-05
DataValue, 2.3000000000000003, 9.9468E-05
DataValue, 2.31, 0.00010032
DataValue, 2.32, 0.000101204
DataValue, 2.33, 0.000101988
DataValue, 2.34, 0.000102854
DataValue, 2.35, 0.000103674
DataValue, 2.36, 0.000104558
DataValue, 2.37, 0.00010533600000000001
DataValue, 2.38, 0.00010616
DataValue, 2.39, 0.000107082
DataValue, 2.4, 0.000107936
DataValue, 2.41, 0.00010873
DataValue, 2.42, 0.00010955
DataValue, 2.43, 0.000110468
DataValue, 2.44, 0.000111308
DataValue, 2.45, 0.000111958
DataValue, 2.46, 0.00011275800000000001
DataValue, 2.47, 0.00011366800000000001
DataValue, 2.48, 0.000114516
DataValue, 2.49, 0.00011526
DataValue, 2.5, 0.0001161
DataValue, 2.5100000000000002, 0.00011702
DataValue, 2.52, 0.00011776000000000001
DataValue, 2.5300000000000002, 0.00011864
DataValue, 2.54, 0.00011944000000000001
DataValue, 2.5500000000000003, 0.00012026
DataValue, 2.56, 0.0001211
DataValue, 2.57, 0.00012190000000000001
DataValue, 2.58, 0.0001228
DataValue, 2.59, 0.00012366000000000002
DataValue, 2.6, 0.00012450000000000002
DataValue, 2.61, 0.00012528000000000002
DataValue, 2.62, 0.00012616
DataValue, 2.63, 0.00012696000000000002
DataValue, 2.64, 0.00012780000000000002
DataValue, 2.65, 0.00012858000000000002
DataValue, 2.66, 0.00012944
DataValue, 2.67, 0.00013022
DataValue, 2.68, 0.00013108
DataValue, 2.69, 0.00013188000000000002
DataValue, 2.7, 0.00013272000000000002
DataValue, 2.71, 0.0001336
DataValue, 2.72, 0.00013438
DataValue, 2.73, 0.00013516
DataValue, 2.74, 0.00013602000000000002
DataValue, 2.75, 0.00013682
DataValue, 2.7600000000000002, 0.0001376
DataValue, 2.77, 0.00013852
DataValue, 2.7800000000000002, 0.00013934
DataValue, 2.79, 0.00014012
DataValue, 2.8000000000000003, 0.00014086
DataValue, 2.81, 0.00014172000000000002
DataValue, 2.82, 0.00014252
DataValue, 2.83, 0.00014334000000000002
DataValue, 2.84, 0.00014418000000000002
DataValue, 2.85, 0.00014494
DataValue, 2.86, 0.00014578
DataValue, 2.87, 0.00014658
DataValue, 2.88, 0.0001474
DataValue, 2.89, 0.0001482
DataValue, 2.9, 0.00014900000000000002
DataValue, 2.91, 0.0001498
DataValue, 2.92, 0.0001506
DataValue, 2.93, 0.00015146000000000002
DataValue, 2.94, 0.00015222
DataValue, 2.95, 0.00015304
DataValue, 2.96, 0.00015384
DataValue, 2.97, 0.00015468
DataValue, 2.98, 0.00015548000000000002
DataValue, 2.99, 0.00015632000000000002
DataValue, 3, 0.00015706000000000002
DataValue, 3.0100000000000002, 0.00015788
DataValue, 3.02, 0.0001587
DataValue, 3.0300000000000002, 0.00015954
DataValue, 3.04, 0.00016028
DataValue, 3.0500000000000003, 0.00016106
DataValue, 3.06, 0.00016186
DataValue, 3.0700000000000003, 0.00016266000000000002
DataValue, 3.08, 0.00016348
DataValue, 3.09, 0.00016424
DataValue, 3.1, 0.00016524
DataValue, 3.11, 0.00016602
DataValue, 3.12, 0.00016682
DataValue, 3.13, 0.00016758000000000002
DataValue, 3.14, 0.00016824
DataValue, 3.15, 0.00016906
DataValue, 3.16, 0.00016986
DataValue, 3.17, 0.00017062000000000002
DataValue, 3.18, 0.00017146000000000002
DataValue, 3.19, 0.0001722
DataValue, 3.2, 0.00017304
DataValue, 3.21, 0.00017380000000000002
DataValue, 3.22, 0.00017458
DataValue, 3.23, 0.00017536
DataValue, 3.24, 0.00017616000000000002
DataValue, 3.25, 0.00017700000000000002
DataValue, 3.2600000000000002, 0.00017776
DataValue, 3.27, 0.0001785
DataValue, 3.2800000000000002, 0.00017934
DataValue, 3.29, 0.00018008000000000002
DataValue, 3.3000000000000003, 0.0001809
DataValue, -0.5, 2.44E-12
DataValue, -0.49, 1.8000000000000002E-13
DataValue, -0.48, 1.5800000000000001E-12
DataValue, -0.47000000000000003, 9.3E-13
DataValue, -0.46, 1.09E-12
DataValue, -0.45, 6.0000000000000007E-13
DataValue, -0.44, 1.14E-12
DataValue, -0.43, 4E-13
DataValue, -0.42, 1.4300000000000002E-12
DataValue, -0.41000000000000003, 6.400000000000001E-13
DataValue, -0.4, 1E-12
DataValue, -0.39, 1.5300000000000001E-12
DataValue, -0.38, 4.3000000000000004E-13
DataValue, -0.37, 6.8E-13
DataValue, -0.36, 9.5E-13
