
SetupTitle, NMOS-id-vd-vgs@vbs=-3.3
PrimitiveTest, I/V Sweep
TestParameter, Context.MainFrame, B1500A
TestParameter, Channel.UnitType, SMU, SMU, SMU, SMU
TestParameter, Channel.Unit, SMU2:HR, SMU1:HR, SMU3:HR, SMU4:HR
TestParameter, Channel.IName, ib, is, ig, id
TestParameter, Channel.VName, vb, vs, vg, vd
TestParameter, Channel.Mode, V, COMMON, V, V
TestParameter, Channel.Func, CONST, CONST, VAR2, VAR1
TestParameter, Channel.Index, 
TestParameter, Channel.Time, 
TestParameter, Measurement.Port.Unit, SMU2:HR, SMU1:HR, SMU3:HR, SMU4:HR
TestParameter, Measurement.Port.SeriesResistor, NONE, NONE, NONE, NONE
TestParameter, Measurement.Port.Filter, ON, ON, ON, ON
TestParameter, Measurement.Port.OutputVoltageComparison, 0, 0, 0, 0
TestParameter, Measurement.Primary.Locus, Single
TestParameter, Measurement.Primary.Scale, LINEAR
TestParameter, Measurement.Primary.Start, 0
TestParameter, Measurement.Primary.Stop, 3.3000000000000003
TestParameter, Measurement.Primary.Step, 0.01
TestParameter, Measurement.Primary.Compliance, 0.1
TestParameter, Measurement.Primary.PowerCompliance, 0
TestParameter, Measurement.Aborting.Condition, SKIP AT ANY ABNORMAL
TestParameter, Measurement.PostOutput.Value, START
TestParameter, Measurement.PostOutput.Retention, OFF
TestParameter, Measurement.Secondary.Start, 0.3
TestParameter, Measurement.Secondary.Count, 6
TestParameter, Measurement.Secondary.Step, 0.6
TestParameter, Measurement.Secondary.Compliance, 0.1
TestParameter, Measurement.Secondary.PowerCompliance, 0
TestParameter, Measurement.Bias.Source, -3.3000000000000003, 0, 0.3, 0
TestParameter, Measurement.Bias.Compliance, 0.1, 0.1, 0.1, 0.1
TestParameter, Measurement.Monitor.Unit, SMU2:HR, SMU1:HR, SMU3:HR, SMU4:HR
TestParameter, Measurement.Monitor.Adc, HR ADC, HR ADC, HR ADC, HR ADC
TestParameter, Measurement.Monitor.Measurement, Compliance Side, Compliance Side, Compliance Side, Compliance Side
TestParameter, Measurement.Monitor.RangingMode, LIMITED, LIMITED, LIMITED, LIMITED
TestParameter, Measurement.Monitor.RangeBoundary, 1nA, 1nA, 1nA, 1nA
TestParameter, Measurement.Monitor.RangeRating, BY FULL RANGE, BY FULL RANGE, BY FULL RANGE, BY FULL RANGE
TestParameter, Measurement.Monitor.RangeRatingCoeff, 50, 50, 50, 50
TestParameter, Measurement.Timing.Hold, 0
TestParameter, Measurement.Timing.Delay, 0
TestParameter, Measurement.Adc.HighSpeed.Mode, AUTO
TestParameter, Measurement.Adc.HighSpeed.Coeff, 1
TestParameter, Measurement.Adc.HighResolution.AutoZero, OFF
TestParameter, Measurement.Adc.HighResolution.Mode, AUTO
TestParameter, Measurement.Adc.HighResolution.Coeff, 6
TestParameter, Measurement.WaitTime.Source.Coeff, 1
TestParameter, Measurement.WaitTime.Source.Offset, 0
TestParameter, Measurement.WaitTime.Monitor.Coeff, 1
TestParameter, Measurement.WaitTime.Monitor.Offset, 0
TestParameter, Output.Graph.Enabled, true
TestParameter, Output.Graph.AutoScaling, false
TestParameter, Output.Graph.XAxis.Data, vd
TestParameter, Output.Graph.XAxis.Scale, Linear
TestParameter, Output.Graph.XAxis.Left, 0
TestParameter, Output.Graph.XAxis.Right, 1
TestParameter, Output.Graph.XAxis.RunTimeAutoScale, true
TestParameter, Output.Graph.YAxis.Data, id
TestParameter, Output.Graph.YAxis.Scale, Linear
TestParameter, Output.Graph.YAxis.Bottom, -0.1
TestParameter, Output.Graph.YAxis.Top, 0.1
TestParameter, Output.Graph.YAxis.Group, 
TestParameter, Output.Graph.YAxis.RunTimeAutoScale, true
TestParameter, AutoAnalysis.Interpolation, false
TestParameter, AutoAnalysis.Var2StepCount, 1
TestParameter, AutoAnalysis.Var2StepScript, 
TestParameter, AutoAnalysis.Line1.Enabled, false
TestParameter, AutoAnalysis.Line1.Type, 1
TestParameter, AutoAnalysis.Line1.Fix, True
TestParameter, AutoAnalysis.Line1.YAxis, 0
TestParameter, AutoAnalysis.Line1.Point1.Type, 0
TestParameter, AutoAnalysis.Line1.Point1.XY.X, 
TestParameter, AutoAnalysis.Line1.Point1.XY.Y, 
TestParameter, AutoAnalysis.Line1.Point1.Data.Var, 
TestParameter, AutoAnalysis.Line1.Point1.Data.Condition, 
TestParameter, AutoAnalysis.Line1.Point1.Data.Start, false
TestParameter, AutoAnalysis.Line1.Point1.Data.StartVar, 
TestParameter, AutoAnalysis.Line1.Point1.Data.StartCondition, 
TestParameter, AutoAnalysis.Line1.Point2.Type, 0
TestParameter, AutoAnalysis.Line1.Point2.XY.X, 
TestParameter, AutoAnalysis.Line1.Point2.XY.Y, 
TestParameter, AutoAnalysis.Line1.Point2.Data.Var, 
TestParameter, AutoAnalysis.Line1.Point2.Data.Condition, 
TestParameter, AutoAnalysis.Line1.Point2.Data.Start, false
TestParameter, AutoAnalysis.Line1.Point2.Data.StartVar, 
TestParameter, AutoAnalysis.Line1.Point2.Data.StartCondition, 
TestParameter, AutoAnalysis.Line1.GradientExpr, 0
TestParameter, AutoAnalysis.Line2.Enabled, false
TestParameter, AutoAnalysis.Line2.Type, 1
TestParameter, AutoAnalysis.Line2.Fix, True
TestParameter, AutoAnalysis.Line2.YAxis, 0
TestParameter, AutoAnalysis.Line2.Point1.Type, 0
TestParameter, AutoAnalysis.Line2.Point1.XY.X, 
TestParameter, AutoAnalysis.Line2.Point1.XY.Y, 
TestParameter, AutoAnalysis.Line2.Point1.Data.Var, 
TestParameter, AutoAnalysis.Line2.Point1.Data.Condition, 
TestParameter, AutoAnalysis.Line2.Point1.Data.Start, false
TestParameter, AutoAnalysis.Line2.Point1.Data.StartVar, 
TestParameter, AutoAnalysis.Line2.Point1.Data.StartCondition, 
TestParameter, AutoAnalysis.Line2.Point2.Type, 0
TestParameter, AutoAnalysis.Line2.Point2.XY.X, 
TestParameter, AutoAnalysis.Line2.Point2.XY.Y, 
TestParameter, AutoAnalysis.Line2.Point2.Data.Var, 
TestParameter, AutoAnalysis.Line2.Point2.Data.Condition, 
TestParameter, AutoAnalysis.Line2.Point2.Data.Start, false
TestParameter, AutoAnalysis.Line2.Point2.Data.StartVar, 
TestParameter, AutoAnalysis.Line2.Point2.Data.StartCondition, 
TestParameter, AutoAnalysis.Line2.GradientExpr, 0
TestParameter, AutoAnalysis.Marker.Enabled, false
TestParameter, AutoAnalysis.Marker.Data.Var, 
TestParameter, AutoAnalysis.Marker.Data.Condition, 
TestParameter, AutoAnalysis.Marker.Data.Start, false
TestParameter, AutoAnalysis.Marker.Data.StartVar, 
TestParameter, AutoAnalysis.Marker.Data.StartCondition, 
MetaData, TestRecord.EntryPoint, true
MetaData, TestRecord.RecordTime, 03/08/2024 15:40:34
MetaData, TestRecord.TestTarget, NMOS_0.22_0.35_77K
MetaData, TestRecord.IterationIndex, 36
MetaData, TestRecord.Preservation, true
MetaData, TestRecord.Flag, 
MetaData, TestRecord.Remarks, 
MetaData, TestRecord.LinkKey, b2384891-785f-47fb-978d-9ce8c165649a
MetaData, TestRecord.Parameters, 
Dimension1, 331, 331
Dimension2, 6, 6
DataName, vd, id
DataValue, 0, 5.5000000000000008E-13
DataValue, 0.01, 1E-12
DataValue, 0.02, 7.4000000000000008E-13
DataValue, 0.03, 8.9E-13
DataValue, 0.04, 4.3000000000000004E-13
DataValue, 0.05, 3.5E-13
DataValue, 0.06, 4E-13
DataValue, 0.07, 8.7E-13
DataValue, 0.08, 9.7000000000000011E-13
DataValue, 0.09, 3.2000000000000005E-13
DataValue, 0.1, 1.02E-12
DataValue, 0.11, 1.0600000000000001E-12
DataValue, 0.12, 1.0600000000000001E-12
DataValue, 0.13, 5.2E-13
DataValue, 0.14, 1.7E-13
DataValue, 0.15, 4.3000000000000004E-13
DataValue, 0.16, 1.32E-12
DataValue, 0.17, 1.93E-12
DataValue, 0.18, 3.0400000000000004E-12
DataValue, 0.19, 2.9600000000000003E-12
DataValue, 0.2, 2.14E-12
DataValue, 0.21, 7.8000000000000011E-13
DataValue, 0.22, 1.59E-12
DataValue, 0.23, 1.08E-12
DataValue, 0.24, 1.91E-12
DataValue, 0.25, 9.9E-13
DataValue, 0.26, 1.31E-12
DataValue, 0.27, -1.8000000000000002E-13
DataValue, 0.28, 1.8000000000000002E-13
DataValue, 0.29, -3.6000000000000003E-13
DataValue, 0.3, 3.1000000000000004E-13
DataValue, 0.31, 2.5E-13
DataValue, 0.32, 7.8000000000000011E-13
DataValue, 0.33, 2.6E-13
DataValue, 0.34, 8.2E-13
DataValue, 0.35000000000000003, 3.4E-13
DataValue, 0.36, 9.4E-13
DataValue, 0.37, 9.7000000000000011E-13
DataValue, 0.38, 1.12E-12
DataValue, 0.39, 1.18E-12
DataValue, 0.4, 1.12E-12
DataValue, 0.41000000000000003, 1.2000000000000001E-12
DataValue, 0.42, 1.12E-12
DataValue, 0.43, 1.3500000000000001E-12
DataValue, 0.44, 1.7600000000000002E-12
DataValue, 0.45, 1.83E-12
DataValue, 0.46, 1.7700000000000001E-12
DataValue, 0.47000000000000003, 2.3200000000000002E-12
DataValue, 0.48, 2.49E-12
DataValue, 0.49, 3.1400000000000004E-12
DataValue, 0.5, 3.2600000000000002E-12
DataValue, 0.51, 2.9600000000000003E-12
DataValue, 0.52, 1.4400000000000001E-12
DataValue, 0.53, 9.9E-13
DataValue, 0.54, 6.5000000000000006E-13
DataValue, 0.55, 1.1600000000000001E-12
DataValue, 0.56, 1.45E-12
DataValue, 0.57000000000000006, 1.2800000000000002E-12
DataValue, 0.58, 3.1000000000000004E-13
DataValue, 0.59, 3.9000000000000005E-13
DataValue, 0.6, -4.4000000000000004E-13
DataValue, 0.61, 3.2000000000000005E-13
DataValue, 0.62, 5.6E-13
DataValue, 0.63, 1.64E-12
DataValue, 0.64, 3.9000000000000005E-13
DataValue, 0.65, 9.2000000000000012E-13
DataValue, 0.66, 1.1000000000000001E-13
DataValue, 0.67, 1.3400000000000002E-12
DataValue, 0.68, 1.6E-12
DataValue, 0.69000000000000006, 2.16E-12
DataValue, 0.70000000000000007, 1.23E-12
DataValue, 0.71, 1.8100000000000002E-12
DataValue, 0.72, 9.6000000000000015E-13
DataValue, 0.73, 1.8700000000000003E-12
DataValue, 0.74, 1.22E-12
DataValue, 0.75, 1.79E-12
DataValue, 0.76, 1.2900000000000002E-12
DataValue, 0.77, 1.59E-12
DataValue, 0.78, 7.5E-13
DataValue, 0.79, 8E-13
DataValue, 0.8, 1.46E-12
DataValue, 0.81, 2.09E-12
DataValue, 0.82000000000000006, 2.14E-12
DataValue, 0.83000000000000007, 1.6200000000000002E-12
DataValue, 0.84, 8.2E-13
DataValue, 0.85, -4.6000000000000006E-13
DataValue, 0.86, -5.3000000000000006E-13
DataValue, 0.87, 3.7000000000000004E-13
DataValue, 0.88, 1.5700000000000002E-12
DataValue, 0.89, 1.3500000000000001E-12
DataValue, 0.9, 5.1E-13
DataValue, 0.91, -3.0000000000000005E-14
DataValue, 0.92, 4.8000000000000008E-13
DataValue, 0.93, 1.0600000000000001E-12
DataValue, 0.94000000000000006, 1.8900000000000002E-12
DataValue, 0.95000000000000007, 1.8400000000000002E-12
DataValue, 0.96, 2.24E-12
DataValue, 0.97, 1.6800000000000001E-12
DataValue, 0.98, 1.79E-12
DataValue, 0.99, 1.6700000000000002E-12
DataValue, 1, 2.79E-12
DataValue, 1.01, 1.8200000000000003E-12
DataValue, 1.02, 2.01E-12
DataValue, 1.03, 9.9E-13
DataValue, 1.04, 1.4700000000000002E-12
DataValue, 1.05, 1.1000000000000002E-12
DataValue, 1.06, 1.3900000000000001E-12
DataValue, 1.07, 6.3E-13
DataValue, 1.08, 1.5800000000000001E-12
DataValue, 1.09, 2.9000000000000003E-13
DataValue, 1.1, 1.09E-12
DataValue, 1.11, 2.4000000000000004E-13
DataValue, 1.12, 1.03E-12
DataValue, 1.1300000000000001, 8.2E-13
DataValue, 1.1400000000000001, 9.0000000000000008E-14
DataValue, 1.1500000000000001, 4.0000000000000006E-14
DataValue, 1.16, -9.000000000000001E-13
DataValue, 1.17, -5.3000000000000006E-13
DataValue, 1.18, -5E-13
DataValue, 1.19, 1.3300000000000002E-12
DataValue, 1.2, 1.5400000000000001E-12
DataValue, 1.21, 1.8100000000000002E-12
DataValue, 1.22, 1.1900000000000002E-12
DataValue, 1.23, 8.7E-13
DataValue, 1.24, 1.41E-12
DataValue, 1.25, 2.18E-12
DataValue, 1.26, 2.06E-12
DataValue, 1.27, 1.5700000000000002E-12
DataValue, 1.28, 1.59E-12
DataValue, 1.29, 1.9400000000000002E-12
DataValue, 1.3, 2.14E-12
DataValue, 1.31, 1.65E-12
DataValue, 1.32, 1.5400000000000001E-12
DataValue, 1.33, 1.7200000000000001E-12
DataValue, 1.34, 4E-13
DataValue, 1.35, 9.2000000000000012E-13
DataValue, 1.36, 5.9E-13
DataValue, 1.37, 1.3800000000000002E-12
DataValue, 1.3800000000000001, 8.1000000000000008E-13
DataValue, 1.3900000000000001, 9.8E-13
DataValue, 1.4000000000000001, 3.3E-13
DataValue, 1.41, 1.5400000000000001E-12
DataValue, 1.42, 6.400000000000001E-13
DataValue, 1.43, 1.69E-12
DataValue, 1.44, 4.7E-13
DataValue, 1.45, 1.7500000000000002E-12
DataValue, 1.46, 1.41E-12
DataValue, 1.47, 1.6E-12
DataValue, 1.48, 3.3E-13
DataValue, 1.49, 1.4900000000000001E-12
DataValue, 1.5, 1.2900000000000002E-12
DataValue, 1.51, 2.5000000000000003E-12
DataValue, 1.52, 3.4200000000000004E-12
DataValue, 1.53, 3.3700000000000004E-12
DataValue, 1.54, 2.1700000000000002E-12
DataValue, 1.55, 1.5E-12
DataValue, 1.56, 9.4E-13
DataValue, 1.57, 1.85E-12
DataValue, 1.58, 2.8100000000000003E-12
DataValue, 1.59, 2.2000000000000003E-12
DataValue, 1.6, 1.7600000000000002E-12
DataValue, 1.61, 1.09E-12
DataValue, 1.62, 5.5000000000000008E-13
DataValue, 1.6300000000000001, 5.9E-13
DataValue, 1.6400000000000001, 5E-13
DataValue, 1.6500000000000001, 1.46E-12
DataValue, 1.6600000000000001, 9.7000000000000011E-13
DataValue, 1.67, 1.4E-13
DataValue, 1.68, 3.5E-13
DataValue, 1.69, 3.8000000000000005E-13
DataValue, 1.7, 1.23E-12
DataValue, 1.71, 7.2000000000000006E-13
DataValue, 1.72, 1.1900000000000002E-12
DataValue, 1.73, 1.02E-12
DataValue, 1.74, 1.31E-12
DataValue, 1.75, 1.45E-12
DataValue, 1.76, 1.6700000000000002E-12
DataValue, 1.77, 1.2800000000000002E-12
DataValue, 1.78, 2.3800000000000004E-12
DataValue, 1.79, 1.5300000000000001E-12
DataValue, 1.8, 1.79E-12
DataValue, 1.81, 1.74E-12
DataValue, 1.82, 2.8100000000000003E-12
DataValue, 1.83, 3.0300000000000002E-12
DataValue, 1.84, 3.66E-12
DataValue, 1.85, 3.02E-12
DataValue, 1.86, 3.05E-12
DataValue, 1.87, 1.4400000000000001E-12
DataValue, 1.8800000000000001, 1.8100000000000002E-12
DataValue, 1.8900000000000001, 1.17E-12
DataValue, 1.9000000000000001, 2.26E-12
DataValue, 1.9100000000000001, 1.1600000000000001E-12
DataValue, 1.92, 1.4300000000000002E-12
DataValue, 1.93, 7E-13
DataValue, 1.94, 1.04E-12
DataValue, 1.95, 6.9000000000000009E-13
DataValue, 1.96, 5.9E-13
DataValue, 1.97, 7.7000000000000005E-13
DataValue, 1.98, 2.7E-13
DataValue, 1.99, 1.09E-12
DataValue, 2, 1.2400000000000002E-12
DataValue, 2.0100000000000002, 1.8400000000000002E-12
DataValue, 2.02, 2.16E-12
DataValue, 2.0300000000000002, 1.8400000000000002E-12
DataValue, 2.04, 1.7000000000000002E-12
DataValue, 2.05, 1.7200000000000001E-12
DataValue, 2.06, 1.6300000000000001E-12
DataValue, 2.07, 2.5800000000000003E-12
DataValue, 2.08, 1.7500000000000002E-12
DataValue, 2.09, 2.29E-12
DataValue, 2.1, 1.5300000000000001E-12
DataValue, 2.11, 2.09E-12
DataValue, 2.12, 1.3300000000000002E-12
DataValue, 2.13, 1.5600000000000002E-12
DataValue, 2.14, 1.1000000000000002E-12
DataValue, 2.15, 2.14E-12
DataValue, 2.16, 9.2000000000000012E-13
DataValue, 2.17, 1.4200000000000002E-12
DataValue, 2.18, -3.2000000000000005E-13
DataValue, 2.19, 2.7E-13
DataValue, 2.2, -2.6E-13
DataValue, 2.21, 6.8E-13
DataValue, 2.22, 8E-13
DataValue, 2.23, 1.8200000000000003E-12
DataValue, 2.24, 9.7000000000000011E-13
DataValue, 2.25, 1.46E-12
DataValue, 2.2600000000000002, 3.3E-13
DataValue, 2.27, 1.7500000000000002E-12
DataValue, 2.2800000000000002, 1.6700000000000002E-12
DataValue, 2.29, 2.77E-12
DataValue, 2.3000000000000003, 2.3300000000000004E-12
DataValue, 2.31, 2.74E-12
DataValue, 2.32, 2.54E-12
DataValue, 2.33, 2.39E-12
DataValue, 2.34, 2.72E-12
DataValue, 2.35, 2.6000000000000002E-12
DataValue, 2.36, 2.13E-12
DataValue, 2.37, 1.51E-12
DataValue, 2.38, 1.91E-12
DataValue, 2.39, 1.59E-12
DataValue, 2.4, 1.7700000000000001E-12
DataValue, 2.41, 1.5700000000000002E-12
DataValue, 2.42, 1.5300000000000001E-12
DataValue, 2.43, 1.18E-12
DataValue, 2.44, 1.37E-12
DataValue, 2.45, 9.7000000000000011E-13
DataValue, 2.46, 1.4E-12
DataValue, 2.47, 1.5200000000000002E-12
DataValue, 2.48, 1.5300000000000001E-12
DataValue, 2.49, -9.0000000000000008E-14
DataValue, 2.5, -3.5E-13
DataValue, 2.5100000000000002, -1.5000000000000002E-13
DataValue, 2.52, 7.3E-13
DataValue, 2.5300000000000002, -6.0000000000000009E-14
DataValue, 2.54, 1.41E-12
DataValue, 2.5500000000000003, 1.1900000000000002E-12
DataValue, 2.56, 2.31E-12
DataValue, 2.57, 1.2000000000000001E-12
DataValue, 2.58, 2.13E-12
DataValue, 2.59, 1.4800000000000002E-12
DataValue, 2.6, 2.74E-12
DataValue, 2.61, 1.8100000000000002E-12
DataValue, 2.62, 2.92E-12
DataValue, 2.63, 2.47E-12
DataValue, 2.64, 3.0900000000000004E-12
DataValue, 2.65, 2.19E-12
DataValue, 2.66, 2.6000000000000002E-12
DataValue, 2.67, 1.78E-12
DataValue, 2.68, 1.6E-12
DataValue, 2.69, 1.36E-12
DataValue, 2.7, 1.5800000000000001E-12
DataValue, 2.71, 1.4200000000000002E-12
DataValue, 2.72, 1.85E-12
DataValue, 2.73, 1.2500000000000001E-12
DataValue, 2.74, 9.000000000000001E-13
DataValue, 2.75, 1.07E-12
DataValue, 2.7600000000000002, 1.0600000000000001E-12
DataValue, 2.77, 1.5300000000000001E-12
DataValue, 2.7800000000000002, 1.2900000000000002E-12
DataValue, 2.79, 1.2800000000000002E-12
DataValue, 2.8000000000000003, 1.5600000000000002E-12
DataValue, 2.81, 1.7700000000000001E-12
DataValue, 2.82, 9.9E-13
DataValue, 2.83, 7.2000000000000006E-13
DataValue, 2.84, 4.3000000000000004E-13
DataValue, 2.85, 6.3E-13
DataValue, 2.86, 6.7000000000000007E-13
DataValue, 2.87, 2.64E-12
DataValue, 2.88, 2.9800000000000002E-12
DataValue, 2.89, 2.7600000000000004E-12
DataValue, 2.9, 1.7100000000000002E-12
DataValue, 2.91, 1.79E-12
DataValue, 2.92, 2.16E-12
DataValue, 2.93, 2.82E-12
DataValue, 2.94, 2.44E-12
DataValue, 2.95, 2.1700000000000002E-12
DataValue, 2.96, 1.5800000000000001E-12
DataValue, 2.97, 1.7200000000000001E-12
DataValue, 2.98, 6.9000000000000009E-13
DataValue, 2.99, 1.4700000000000002E-12
DataValue, 3, 1.09E-12
DataValue, 3.0100000000000002, 1.65E-12
DataValue, 3.02, 5.6E-13
DataValue, 3.0300000000000002, 1.4400000000000001E-12
DataValue, 3.04, 8.9E-13
DataValue, 3.0500000000000003, 2.14E-12
DataValue, 3.06, 1.6600000000000002E-12
DataValue, 3.0700000000000003, 2.0500000000000004E-12
DataValue, 3.08, 1.69E-12
DataValue, 3.09, 2.19E-12
DataValue, 3.1, 1.7000000000000002E-12
DataValue, 3.11, 1.9400000000000002E-12
DataValue, 3.12, 2.2000000000000003E-12
DataValue, 3.13, 2.8300000000000003E-12
DataValue, 3.14, 2.16E-12
DataValue, 3.15, 2.04E-12
DataValue, 3.16, 2.77E-12
DataValue, 3.17, 2.8900000000000004E-12
DataValue, 3.18, 3.5500000000000004E-12
DataValue, 3.19, 3.77E-12
DataValue, 3.2, 4.37E-12
DataValue, 3.21, 3.61E-12
DataValue, 3.22, 2.8100000000000003E-12
DataValue, 3.23, 2.0700000000000003E-12
DataValue, 3.24, 2.37E-12
DataValue, 3.25, 2.11E-12
DataValue, 3.2600000000000002, 2.57E-12
DataValue, 3.27, 1.74E-12
DataValue, 3.2800000000000002, 1.6700000000000002E-12
DataValue, 3.29, 1.04E-12
DataValue, 3.3000000000000003, 9.6000000000000015E-13
DataValue, 0, 5.4E-13
DataValue, 0.01, 1.26E-12
DataValue, 0.02, 5.6E-13
DataValue, 0.03, 3.2000000000000005E-13
DataValue, 0.04, 5.2E-13
DataValue, 0.05, 4.9E-13
DataValue, 0.06, 7.5E-13
DataValue, 0.07, 1.36E-12
DataValue, 0.08, 1.3E-13
DataValue, 0.09, -4.0000000000000006E-14
DataValue, 0.1, -6.6E-13
DataValue, 0.11, -2.3000000000000003E-13
DataValue, 0.12, 8.0000000000000013E-14
DataValue, 0.13, 1.64E-12
DataValue, 0.14, 1.6600000000000002E-12
DataValue, 0.15, 1.3800000000000002E-12
DataValue, 0.16, 6.8E-13
DataValue, 0.17, 8.4000000000000006E-13
DataValue, 0.18, 1.22E-12
DataValue, 0.19, 2.08E-12
DataValue, 0.2, 1.7100000000000002E-12
DataValue, 0.21, 1.8200000000000003E-12
DataValue, 0.22, 9.9E-13
DataValue, 0.23, 9.8E-13
DataValue, 0.24, 6.7000000000000007E-13
DataValue, 0.25, 1.5200000000000002E-12
DataValue, 0.26, 7.5E-13
DataValue, 0.27, 1.0100000000000001E-12
DataValue, 0.28, -3.1000000000000004E-13
DataValue, 0.29, 1.6000000000000003E-13
DataValue, 0.3, -1.4E-13
DataValue, 0.31, 1.41E-12
DataValue, 0.32, 8.2E-13
DataValue, 0.33, 1.12E-12
DataValue, 0.34, 4.7E-13
DataValue, 0.35000000000000003, 1.12E-12
DataValue, 0.36, 9.1000000000000016E-13
DataValue, 0.37, 1.3400000000000002E-12
DataValue, 0.38, 6.8E-13
DataValue, 0.39, 1.7000000000000002E-12
DataValue, 0.4, 6.8E-13
DataValue, 0.41000000000000003, 8.9E-13
DataValue, 0.42, -7.8000000000000011E-13
DataValue, 0.43, -5E-14
DataValue, 0.44, -3.4E-13
DataValue, 0.45, 1.4400000000000001E-12
DataValue, 0.46, 1.8200000000000003E-12
DataValue, 0.47000000000000003, 2.75E-12
DataValue, 0.48, 1.69E-12
DataValue, 0.49, 1.4E-12
DataValue, 0.5, 5.8000000000000005E-13
DataValue, 0.51, 1.08E-12
DataValue, 0.52, 1.7100000000000002E-12
DataValue, 0.53, 2.03E-12
DataValue, 0.54, 1.7500000000000002E-12
DataValue, 0.55, 1.2000000000000001E-12
DataValue, 0.56, 7.8000000000000011E-13
DataValue, 0.57000000000000006, 5.6E-13
DataValue, 0.58, 5E-13
