
SetupTitle, idvg3.3
PrimitiveTest, I/V Sweep
TestParameter, Context.MainFrame, B1500A
TestParameter, Channel.UnitType, SMU, SMU, SMU, SMU
TestParameter, Channel.Unit, SMU4:HR, SMU3:HR, SMU1:HR, SMU2:HR
TestParameter, Channel.IName, Id, Ig, Is, Ibg
TestParameter, Channel.VName, Vd, Vg, Vs, Vbg
TestParameter, Channel.Mode, V, V, V, V
TestParameter, Channel.Func, CONST, VAR1, CONST, VAR2
TestParameter, Channel.Index, 
TestParameter, Channel.Time, 
TestParameter, Measurement.Port.Unit, SMU4:HR, SMU3:HR, SMU1:HR, SMU2:HR
TestParameter, Measurement.Port.SeriesResistor, NONE, NONE, NONE, NONE
TestParameter, Measurement.Port.Filter, ON, ON, ON, ON
TestParameter, Measurement.Port.OutputVoltageComparison, 0, 0, 0, 0
TestParameter, Measurement.Primary.Locus, Single
TestParameter, Measurement.Primary.Scale, LINEAR
TestParameter, Measurement.Primary.Start, -2.1
TestParameter, Measurement.Primary.Stop, 3.63
TestParameter, Measurement.Primary.Step, 0.03
TestParameter, Measurement.Primary.Compliance, 0.1
TestParameter, Measurement.Primary.PowerCompliance, 0
TestParameter, Measurement.Aborting.Condition, CONTINUE AT ANY
TestParameter, Measurement.PostOutput.Value, START
TestParameter, Measurement.PostOutput.Retention, OFF
TestParameter, Measurement.Secondary.Start, -2
TestParameter, Measurement.Secondary.Count, 5
TestParameter, Measurement.Secondary.Step, 2
TestParameter, Measurement.Secondary.Compliance, 0.1
TestParameter, Measurement.Secondary.PowerCompliance, 0
TestParameter, Measurement.Bias.Source, 3.3000000000000003, -2.1, 0, -2
TestParameter, Measurement.Bias.Compliance, 0.1, 0.1, 0.1, 0.1
TestParameter, Measurement.Monitor.Unit, SMU4:HR, SMU3:HR, SMU1:HR, SMU2:HR
TestParameter, Measurement.Monitor.Adc, HR ADC, HR ADC, HR ADC, HR ADC
TestParameter, Measurement.Monitor.Measurement, Compliance Side, Compliance Side, Compliance Side, Compliance Side
TestParameter, Measurement.Monitor.RangingMode, LIMITED, LIMITED, LIMITED, LIMITED
TestParameter, Measurement.Monitor.RangeBoundary, 1nA, 1nA, 1nA, 1nA
TestParameter, Measurement.Monitor.RangeRating, BY FULL RANGE, BY FULL RANGE, BY FULL RANGE, BY FULL RANGE
TestParameter, Measurement.Monitor.RangeRatingCoeff, 50, 50, 50, 50
TestParameter, Measurement.Timing.Hold, 0
TestParameter, Measurement.Timing.Delay, 0
TestParameter, Measurement.Adc.HighSpeed.Mode, AUTO
TestParameter, Measurement.Adc.HighSpeed.Coeff, 1
TestParameter, Measurement.Adc.HighResolution.AutoZero, OFF
TestParameter, Measurement.Adc.HighResolution.Mode, PLC
TestParameter, Measurement.Adc.HighResolution.Coeff, 1
TestParameter, Measurement.WaitTime.Source.Coeff, 1
TestParameter, Measurement.WaitTime.Source.Offset, 0
TestParameter, Measurement.WaitTime.Monitor.Coeff, 1
TestParameter, Measurement.WaitTime.Monitor.Offset, 0
TestParameter, Function.User.Name, gm, absId
TestParameter, Function.User.Unit, S, A
TestParameter, Function.User.Definition, diff(Id,Vg), abs(Id)
TestParameter, Output.Graph.Enabled, true
TestParameter, Output.Graph.AutoScaling, false
TestParameter, Output.Graph.XAxis.Data, Vg
TestParameter, Output.Graph.XAxis.Scale, Linear
TestParameter, Output.Graph.XAxis.Left, -3
TestParameter, Output.Graph.XAxis.Right, 3.63
TestParameter, Output.Graph.XAxis.RunTimeAutoScale, true
TestParameter, Output.Graph.YAxis.Data, Id, Ig, Ib
TestParameter, Output.Graph.YAxis.Scale, Log, Linear, Linear
TestParameter, Output.Graph.YAxis.Bottom, 0.001, -0.1, -0.1
TestParameter, Output.Graph.YAxis.Top, 0.01, 0.1, 0.1
TestParameter, Output.Graph.YAxis.Group, , , 
TestParameter, Output.Graph.YAxis.RunTimeAutoScale, true, true, true
TestParameter, Output.List.Data, Vg, Vd, Ig, Id, Ibg, Is, gm, Vbg, absId
TestParameter, AutoAnalysis.Interpolation, false
TestParameter, AutoAnalysis.Var2StepCount, 1
TestParameter, AutoAnalysis.Var2StepScript, 
TestParameter, AutoAnalysis.Line1.Enabled, false
TestParameter, AutoAnalysis.Line1.Type, 2
TestParameter, AutoAnalysis.Line1.Fix, True
TestParameter, AutoAnalysis.Line1.YAxis, 0
TestParameter, AutoAnalysis.Line1.Point1.Type, 1
TestParameter, AutoAnalysis.Line1.Point1.XY.X, 
TestParameter, AutoAnalysis.Line1.Point1.XY.Y, 
TestParameter, AutoAnalysis.Line1.Point1.Data.Var, Id
TestParameter, AutoAnalysis.Line1.Point1.Data.Condition, 
TestParameter, AutoAnalysis.Line1.Point1.Data.Start, false
TestParameter, AutoAnalysis.Line1.Point1.Data.StartVar, 
TestParameter, AutoAnalysis.Line1.Point1.Data.StartCondition, 
TestParameter, AutoAnalysis.Line1.Point2.Type, 0
TestParameter, AutoAnalysis.Line1.Point2.XY.X, 
TestParameter, AutoAnalysis.Line1.Point2.XY.Y, 
TestParameter, AutoAnalysis.Line1.Point2.Data.Var, 
TestParameter, AutoAnalysis.Line1.Point2.Data.Condition, 
TestParameter, AutoAnalysis.Line1.Point2.Data.Start, false
TestParameter, AutoAnalysis.Line1.Point2.Data.StartVar, 
TestParameter, AutoAnalysis.Line1.Point2.Data.StartCondition, 
TestParameter, AutoAnalysis.Line1.GradientExpr, 0
TestParameter, AutoAnalysis.Line2.Enabled, false
TestParameter, AutoAnalysis.Line2.Type, 1
TestParameter, AutoAnalysis.Line2.Fix, True
TestParameter, AutoAnalysis.Line2.YAxis, 0
TestParameter, AutoAnalysis.Line2.Point1.Type, 0
TestParameter, AutoAnalysis.Line2.Point1.XY.X, 
TestParameter, AutoAnalysis.Line2.Point1.XY.Y, 
TestParameter, AutoAnalysis.Line2.Point1.Data.Var, 
TestParameter, AutoAnalysis.Line2.Point1.Data.Condition, 
TestParameter, AutoAnalysis.Line2.Point1.Data.Start, false
TestParameter, AutoAnalysis.Line2.Point1.Data.StartVar, 
TestParameter, AutoAnalysis.Line2.Point1.Data.StartCondition, 
TestParameter, AutoAnalysis.Line2.Point2.Type, 0
TestParameter, AutoAnalysis.Line2.Point2.XY.X, 
TestParameter, AutoAnalysis.Line2.Point2.XY.Y, 
TestParameter, AutoAnalysis.Line2.Point2.Data.Var, 
TestParameter, AutoAnalysis.Line2.Point2.Data.Condition, 
TestParameter, AutoAnalysis.Line2.Point2.Data.Start, false
TestParameter, AutoAnalysis.Line2.Point2.Data.StartVar, 
TestParameter, AutoAnalysis.Line2.Point2.Data.StartCondition, 
TestParameter, AutoAnalysis.Line2.GradientExpr, 0
TestParameter, AutoAnalysis.Marker.Enabled, false
TestParameter, AutoAnalysis.Marker.Data.Var, 
TestParameter, AutoAnalysis.Marker.Data.Condition, 
TestParameter, AutoAnalysis.Marker.Data.Start, false
TestParameter, AutoAnalysis.Marker.Data.StartVar, 
TestParameter, AutoAnalysis.Marker.Data.StartCondition, 
MetaData, TestRecord.EntryPoint, true
MetaData, TestRecord.RecordTime, 01/16/2024 17:01:54
MetaData, TestRecord.TestTarget, N-1-1-298K
MetaData, TestRecord.IterationIndex, 5
MetaData, TestRecord.Preservation, true
MetaData, TestRecord.Flag, 
MetaData, TestRecord.Remarks, 
MetaData, TestRecord.LinkKey, 73e76db7-a3cb-41be-b2b3-2da2d097c250
MetaData, TestRecord.Parameters, 
Dimension1, 192, 192, 192, 192, 192, 192, 192, 192, 192, 192
Dimension2, 5, 5, 5, 5, 5, 5, 5, 5, 5, 5
DataName, Vg, Vbg, Vd, Id, Ig, Is, Ibg, gm, absId, Ib
DataValue, -2.1, -2, 3.3000000000000003, 5.0925E-11, 2.6000000000000003E-14, 8.2930000000000011E-12, -4.68506E-07, -1.3316666666666541E-10, 5.0925E-11, 
DataValue, -2.07, -2, 3.3000000000000003, 4.6930000000000006E-11, -2E-15, 8.223E-12, -4.68799E-07, -1.2491666666666649E-10, 4.6930000000000006E-11, 
DataValue, -2.04, -2, 3.3000000000000003, 4.3430000000000005E-11, 4.8000000000000004E-14, 8.25E-12, -4.68238E-07, -1.1020000000000074E-10, 4.3430000000000005E-11, 
DataValue, -2.0100000000000002, -2, 3.3000000000000003, 4.0318000000000005E-11, 7E-14, 8.1800000000000011E-12, -4.67396E-07, -9.6749999999999911E-11, 4.0318000000000005E-11, 
DataValue, -1.98, -2, 3.3000000000000003, 3.7625000000000006E-11, 1.58E-13, 8.143E-12, -4.67975E-07, -8.8533333333332986E-11, 3.7625000000000006E-11, 
DataValue, -1.95, -2, 3.3000000000000003, 3.5006E-11, 7.3E-14, 8.117E-12, -4.68089E-07, -8.2716666666666616E-11, 3.5006E-11, 
DataValue, -1.92, -2, 3.3000000000000003, 3.2662000000000004E-11, 1.36E-13, 8.142E-12, -4.67786E-07, -7.3750000000000211E-11, 3.2662000000000004E-11, 
DataValue, -1.8900000000000001, -2, 3.3000000000000003, 3.0581E-11, 6.2E-14, 8.1480000000000012E-12, -4.67802E-07, -6.6700000000000245E-11, 3.0581E-11, 
DataValue, -1.86, -2, 3.3000000000000003, 2.866E-11, 1.24E-13, 8.136E-12, -4.67304E-07, -5.9399999999999958E-11, 2.866E-11, 
DataValue, -1.83, -2, 3.3000000000000003, 2.7017E-11, 9.6000000000000007E-14, 8.141000000000001E-12, -4.66966E-07, -5.40666666666666E-11, 2.7017E-11, 
DataValue, -1.8, -2, 3.3000000000000003, 2.5416000000000002E-11, 8.5E-14, 8.133E-12, -4.66692E-07, -4.9433333333333265E-11, 2.5416000000000002E-11, 
DataValue, -1.77, -2, 3.3000000000000003, 2.4051000000000002E-11, 1.6100000000000002E-13, 8.155E-12, -4.66613E-07, -4.43333333333333E-11, 2.4051000000000002E-11, 
DataValue, -1.74, -2, 3.3000000000000003, 2.2756000000000002E-11, 1.3900000000000001E-13, 8.16E-12, -4.65693E-07, -4.0799999999999978E-11, 2.2756000000000002E-11, 
DataValue, -1.71, -2, 3.3000000000000003, 2.1603E-11, 1.54E-13, 8.012000000000001E-12, -4.6819E-07, -3.5849999999999952E-11, 2.1603E-11, 
DataValue, -1.68, -2, 3.3000000000000003, 2.0605000000000003E-11, 1.7200000000000002E-13, 8.113E-12, -4.65522E-07, -3.1150000000000094E-11, 2.0605000000000003E-11, 
DataValue, -1.6500000000000001, -2, 3.3000000000000003, 1.9734E-11, 1.93E-13, 8.085E-12, -4.6639699999999996E-07, -3.1516666666666783E-11, 1.9734E-11, 
DataValue, -1.62, -2, 3.3000000000000003, 1.8714E-11, 1.83E-13, 8.085E-12, -4.6619199999999997E-07, -2.8316666666666628E-11, 1.8714E-11, 
DataValue, -1.59, -2, 3.3000000000000003, 1.8035000000000002E-11, 1.9500000000000003E-13, 8.0930000000000012E-12, -4.68679E-07, -2.0983333333333291E-11, 1.8035000000000002E-11, 
DataValue, -1.56, -2, 3.3000000000000003, 1.7455000000000003E-11, 1.71E-13, 8.066E-12, -4.67374E-07, -2.113333333333334E-11, 1.7455000000000003E-11, 
DataValue, -1.53, -2, 3.3000000000000003, 1.6767E-11, 1.6600000000000003E-13, 8.0800000000000011E-12, -4.67574E-07, -2.005000000000003E-11, 1.6767E-11, 
DataValue, -1.5, -2, 3.3000000000000003, 1.6252E-11, 2.69E-13, 8.079E-12, -4.6780299999999997E-07, -1.8466666666666631E-11, 1.6252E-11, 
DataValue, -1.47, -2, 3.3000000000000003, 1.5659000000000002E-11, 2.82E-13, 8.023E-12, -4.6663099999999996E-07, -1.4399999999999979E-11, 1.5659000000000002E-11, 
DataValue, -1.44, -2, 3.3000000000000003, 1.5388E-11, 2.23E-13, 8.108E-12, -4.64644E-07, -1.0866666666666657E-11, 1.5388E-11, 
DataValue, -1.41, -2, 3.3000000000000003, 1.5007000000000002E-11, 1.8500000000000002E-13, 8.0380000000000011E-12, -4.66392E-07, -1.1616666666666672E-11, 1.5007000000000002E-11, 
DataValue, -1.3800000000000001, -2, 3.3000000000000003, 1.4691000000000002E-11, 2.7700000000000003E-13, 8.0150000000000009E-12, -4.66007E-07, -9.6500000000000374E-12, 1.4691000000000002E-11, 
DataValue, -1.35, -2, 3.3000000000000003, 1.4428000000000001E-11, 2.9800000000000004E-13, 8.04E-12, -4.6535399999999997E-07, -1.0266666666666682E-11, 1.4428000000000001E-11, 
DataValue, -1.32, -2, 3.3000000000000003, 1.4075E-11, 2.43E-13, 8.026E-12, -4.65547E-07, -8.916666666666652E-12, 1.4075E-11, 
DataValue, -1.29, -2, 3.3000000000000003, 1.3893000000000002E-11, 3.6100000000000003E-13, 8.004E-12, -4.65347E-07, -5.7666666666666406E-12, 1.3893000000000002E-11, 
DataValue, -1.26, -2, 3.3000000000000003, 1.3729000000000002E-11, 2.84E-13, 8.095E-12, -4.65716E-07, -6.4499999999999921E-12, 1.3729000000000002E-11, 
DataValue, -1.23, -2, 3.3000000000000003, 1.3506000000000002E-11, 3.5800000000000004E-13, 8.121E-12, -4.65481E-07, -7.40000000000001E-12, 1.3506000000000002E-11, 
DataValue, -1.2, -2, 3.3000000000000003, 1.3285000000000001E-11, 3.7300000000000003E-13, 8.1290000000000014E-12, -4.65707E-07, -5.3333333333333327E-12, 1.3285000000000001E-11, 
DataValue, -1.17, -2, 3.3000000000000003, 1.3186000000000001E-11, 3.0000000000000003E-13, 8.072E-12, -4.65264E-07, -4.80000000000002E-12, 1.3186000000000001E-11, 
DataValue, -1.1400000000000001, -2, 3.3000000000000003, 1.2997E-11, 3.98E-13, 8.089E-12, -4.65873E-07, -2.7166666666666881E-12, 1.2997E-11, 
DataValue, -1.11, -2, 3.3000000000000003, 1.3023E-11, 3.8100000000000004E-13, 8.149E-12, -4.65944E-07, -3.1333333333333106E-12, 1.3023E-11, 
DataValue, -1.08, -2, 3.3000000000000003, 1.2809000000000002E-11, 3.8400000000000003E-13, 8.172E-12, -4.65038E-07, -6.2833333333333228E-12, 1.2809000000000002E-11, 
DataValue, -1.05, -2, 3.3000000000000003, 1.2646000000000001E-11, 3.97E-13, 8.014E-12, -4.64917E-07, -1.8333333333333339E-12, 1.2646000000000001E-11, 
DataValue, -1.02, -2, 3.3000000000000003, 1.2699000000000002E-11, 3.97E-13, 8.1290000000000014E-12, -4.65105E-07, 3.1666666666666333E-13, 1.2699000000000002E-11, 
DataValue, -0.99, -2, 3.3000000000000003, 1.2665E-11, 4.2500000000000006E-13, 8.056E-12, -4.64199E-07, -2.3500000000000164E-12, 1.2665E-11, 
DataValue, -0.96, -2, 3.3000000000000003, 1.2558E-11, 4.3200000000000003E-13, 8.0870000000000014E-12, -4.6415699999999997E-07, -3.0999999999999933E-12, 1.2558E-11, 
DataValue, -0.93, -2, 3.3000000000000003, 1.2479000000000001E-11, 4.01E-13, 7.982E-12, -4.65083E-07, -2.0833333333333282E-12, 1.2479000000000001E-11, 
DataValue, -0.9, -2, 3.3000000000000003, 1.2433000000000001E-11, 5.2800000000000007E-13, 8.1320000000000013E-12, -4.64221E-07, -8.66666666666669E-13, 1.2433000000000001E-11, 
DataValue, -0.87, -2, 3.3000000000000003, 1.2427000000000001E-11, 4.77E-13, 8.0610000000000013E-12, -4.58477E-07, 2.6666666666666531E-13, 1.2427000000000001E-11, 
DataValue, -0.84, -2, 3.3000000000000003, 1.2449E-11, 5.7800000000000006E-13, 8.0350000000000012E-12, -4.5904399999999996E-07, -2.0666666666666802E-12, 1.2449E-11, 
DataValue, -0.81, -2, 3.3000000000000003, 1.2303E-11, 6.4200000000000009E-13, 8.008E-12, -4.5820599999999997E-07, -3.3000000000000126E-12, 1.2303E-11, 
DataValue, -0.78, -2, 3.3000000000000003, 1.2251E-11, 5.0800000000000006E-13, 8.0640000000000012E-12, -4.59034E-07, 2.1666666666666724E-13, 1.2251E-11, 
DataValue, -0.75, -2, 3.3000000000000003, 1.2316E-11, 5.9600000000000009E-13, 8.081E-12, -4.5862599999999997E-07, -4.3333333333330752E-13, 1.2316E-11, 
DataValue, -0.72, -2, 3.3000000000000003, 1.2225000000000002E-11, 5.57E-13, 8.081E-12, -4.58668E-07, -1.7499999999999891E-12, 1.2225000000000002E-11, 
DataValue, -0.69000000000000006, -2, 3.3000000000000003, 1.2211000000000001E-11, 6.29E-13, 8.0480000000000012E-12, -4.58617E-07, -8.3333333333334742E-13, 1.2211000000000001E-11, 
DataValue, -0.66, -2, 3.3000000000000003, 1.2175000000000001E-11, 6.12E-13, 8.02E-12, -4.58184E-07, -1.0166666666666631E-12, 1.2175000000000001E-11, 
DataValue, -0.63, -2, 3.3000000000000003, 1.2150000000000001E-11, 6.83E-13, 8.079E-12, -4.58966E-07, 9.9999999999996116E-14, 1.2150000000000001E-11, 
DataValue, -0.6, -2, 3.3000000000000003, 1.2181E-11, 6.7100000000000007E-13, 8.0770000000000012E-12, -4.57993E-07, 7.0000000000000106E-13, 1.2181E-11, 
DataValue, -0.57000000000000006, -2, 3.3000000000000003, 1.2192000000000001E-11, 6.2600000000000006E-13, 8.065E-12, -4.58037E-07, -5.0000000000000847E-13, 1.2192000000000001E-11, 
DataValue, -0.54, -2, 3.3000000000000003, 1.2151E-11, 7.2100000000000006E-13, 8.039E-12, -4.56894E-07, -8.49999999999994E-13, 1.2151E-11, 
DataValue, -0.51, -2, 3.3000000000000003, 1.2141000000000002E-11, 6.640000000000001E-13, 8.098E-12, -4.57417E-07, -8.99999999999992E-13, 1.2141000000000002E-11, 
DataValue, -0.48, -2, 3.3000000000000003, 1.2097E-11, 7.06E-13, 8.054000000000001E-12, -4.5683E-07, 1.1666666666664429E-13, 1.2097E-11, 
DataValue, -0.45, -2, 3.3000000000000003, 1.2148E-11, 7.4500000000000006E-13, 8.065E-12, -4.57833E-07, -1.666666666667501E-14, 1.2148E-11, 
DataValue, -0.42, -2, 3.3000000000000003, 1.2096E-11, 8.060000000000001E-13, 8.041000000000001E-12, -4.57729E-07, -1.7333333333333125E-12, 1.2096E-11, 
DataValue, -0.39, -2, 3.3000000000000003, 1.2044000000000002E-11, 7.8000000000000011E-13, 8.036E-12, -4.57383E-07, -1.483333333333322E-12, 1.2044000000000002E-11, 
DataValue, -0.36, -2, 3.3000000000000003, 1.2007000000000001E-11, 7.96E-13, 8.084E-12, -4.57093E-07, 1.5166666666666452E-12, 1.2007000000000001E-11, 
DataValue, -0.33, -2, 3.3000000000000003, 1.2135E-11, 8.3500000000000008E-13, 8.121E-12, -4.58292E-07, 7.0000000000000045E-13, 1.2135E-11, 
DataValue, -0.3, -2, 3.3000000000000003, 1.2049000000000001E-11, 8.8200000000000008E-13, 8.062E-12, -4.58246E-07, -1.0166666666666641E-12, 1.2049000000000001E-11, 
DataValue, -0.27, -2, 3.3000000000000003, 1.2074E-11, 8.93E-13, 8.0860000000000009E-12, -4.58409E-07, -2.6666666666666556E-13, 1.2074E-11, 
DataValue, -0.24, -2, 3.3000000000000003, 1.2033000000000001E-11, 8.3300000000000009E-13, 8.096000000000001E-12, -4.58108E-07, 5.0000000000000776E-13, 1.2033000000000001E-11, 
DataValue, -0.21, -2, 3.3000000000000003, 1.2104000000000001E-11, 1.0330000000000001E-12, 8.131E-12, -4.58316E-07, -4.0000000000001178E-13, 1.2104000000000001E-11, 
DataValue, -0.18, -2, 3.3000000000000003, 1.2009E-11, 9.19E-13, 8.196000000000001E-12, -4.57562E-07, -2.3166666666666688E-12, 1.2009E-11, 
DataValue, -0.15, -2, 3.3000000000000003, 1.1965000000000001E-11, 1.038E-12, 8.047E-12, -4.57433E-07, -2.6666666666666556E-13, 1.1965000000000001E-11, 
DataValue, -0.12, -2, 3.3000000000000003, 1.1993E-11, 1.0160000000000001E-12, 7.9740000000000014E-12, -4.56585E-07, 2.2499999999999955E-12, 1.1993E-11, 
DataValue, -0.09, -2, 3.3000000000000003, 1.21E-11, 1.093E-12, 8.125000000000001E-12, -4.5663E-07, -2.6666666666666556E-13, 1.21E-11, 
DataValue, -0.06, -2, 3.3000000000000003, 1.1977E-11, 1.067E-12, 8.11E-12, -4.61071E-07, -7.3333333333332351E-13, 1.1977E-11, 
DataValue, -0.03, -2, 3.3000000000000003, 1.2056000000000001E-11, 1.0410000000000001E-12, 8.1280000000000009E-12, -4.56866E-07, -2.9999999999998862E-13, 1.2056000000000001E-11, 
DataValue, 0, -2, 3.3000000000000003, 1.1959000000000001E-11, 1.0350000000000001E-12, 8.1800000000000011E-12, -4.56896E-07, -4.6666666666665795E-13, 1.1959000000000001E-11, 
DataValue, 0.03, -2, 3.3000000000000003, 1.2028000000000002E-11, 1.1310000000000001E-12, 8.1160000000000014E-12, -4.56913E-07, 2.1666666666666744E-13, 1.2028000000000002E-11, 
DataValue, 0.06, -2, 3.3000000000000003, 1.1972000000000001E-11, 1.1040000000000001E-12, 8.1150000000000009E-12, -4.5643199999999997E-07, -1.1666666666666853E-12, 1.1972000000000001E-11, 
DataValue, 0.09, -2, 3.3000000000000003, 1.1958E-11, 1.197E-12, 8.094E-12, -4.56146E-07, -6.5000000000000228E-13, 1.1958E-11, 
DataValue, 0.12, -2, 3.3000000000000003, 1.1933000000000001E-11, 1.205E-12, 8.063E-12, -4.55781E-07, -6.6666666666673118E-14, 1.1933000000000001E-11, 
DataValue, 0.15, -2, 3.3000000000000003, 1.1954E-11, 1.228E-12, 8.178E-12, -4.5697299999999997E-07, 1.0166666666666641E-12, 1.1954E-11, 
DataValue, 0.18, -2, 3.3000000000000003, 1.1994E-11, 1.228E-12, 8.0350000000000012E-12, -4.54693E-07, -9.83333333333314E-13, 1.1994E-11, 
DataValue, 0.21, -2, 3.3000000000000003, 1.1895000000000001E-11, 1.2610000000000002E-12, 8.072E-12, -4.55295E-07, -1.3166666666666527E-12, 1.1895000000000001E-11, 
DataValue, 0.24, -2, 3.3000000000000003, 1.1915000000000002E-11, 1.268E-12, 8.023E-12, -4.55301E-07, 6.50000000000002E-13, 1.1915000000000002E-11, 
DataValue, 0.27, -2, 3.3000000000000003, 1.1934000000000002E-11, 1.3070000000000002E-12, 8.111E-12, -4.53881E-07, 1.1166666666666602E-12, 1.1934000000000002E-11, 
DataValue, 0.3, -2, 3.3000000000000003, 1.1982000000000001E-11, 1.387E-12, 8.1510000000000011E-12, -4.5479E-07, 1.6666666666666932E-13, 1.1982000000000001E-11, 
DataValue, 0.33, -2, 3.3000000000000003, 1.1944000000000002E-11, 1.3940000000000001E-12, 8.082E-12, -4.54467E-07, -5.16666666666683E-13, 1.1944000000000002E-11, 
DataValue, 0.36, -2, 3.3000000000000003, 1.1951E-11, 1.4380000000000001E-12, 8.123E-12, -4.53819E-07, -1.2000000000000084E-12, 1.1951E-11, 
DataValue, 0.39, -2, 3.3000000000000003, 1.1872000000000001E-11, 1.4110000000000002E-12, 8.2480000000000012E-12, -4.55779E-07, -1.2499999999999795E-12, 1.1872000000000001E-11, 
