
SetupTitle, NMOS-id-vg-vbs@vds=3.3
PrimitiveTest, I/V Sweep
TestParameter, Context.MainFrame, B1500A
TestParameter, Channel.UnitType, SMU, SMU, SMU, SMU
TestParameter, Channel.Unit, SMU2:HR, SMU1:HR, SMU3:HR, SMU4:HR
TestParameter, Channel.IName, ib, is, ig, id
TestParameter, Channel.VName, vb, vs, vg, vd
TestParameter, Channel.Mode, V, COMMON, V, V
TestParameter, Channel.Func, VAR2, CONST, VAR1, CONST
TestParameter, Channel.Index, 
TestParameter, Channel.Time, 
TestParameter, Measurement.Port.Unit, SMU2:HR, SMU1:HR, SMU3:HR, SMU4:HR
TestParameter, Measurement.Port.SeriesResistor, NONE, NONE, NONE, NONE
TestParameter, Measurement.Port.Filter, ON, ON, ON, ON
TestParameter, Measurement.Port.OutputVoltageComparison, 0, 0, 0, 0
TestParameter, Measurement.Primary.Locus, Single
TestParameter, Measurement.Primary.Scale, LINEAR
TestParameter, Measurement.Primary.Start, -0.5
TestParameter, Measurement.Primary.Stop, 3.3000000000000003
TestParameter, Measurement.Primary.Step, 0.01
TestParameter, Measurement.Primary.Compliance, 0.001
TestParameter, Measurement.Primary.PowerCompliance, 0
TestParameter, Measurement.Aborting.Condition, SKIP AT ANY ABNORMAL
TestParameter, Measurement.PostOutput.Value, START
TestParameter, Measurement.PostOutput.Retention, OFF
TestParameter, Measurement.Secondary.Start, 0
TestParameter, Measurement.Secondary.Count, 7
TestParameter, Measurement.Secondary.Step, -0.6
TestParameter, Measurement.Secondary.Compliance, 0.1
TestParameter, Measurement.Secondary.PowerCompliance, 0
TestParameter, Measurement.Bias.Source, 0, 0, -0.5, 3.3000000000000003
TestParameter, Measurement.Bias.Compliance, 0.1, 0.1, 0.001, 0.1
TestParameter, Measurement.Monitor.Unit, SMU2:HR, SMU1:HR, SMU3:HR, SMU4:HR
TestParameter, Measurement.Monitor.Adc, HR ADC, HR ADC, HR ADC, HR ADC
TestParameter, Measurement.Monitor.Measurement, Compliance Side, Compliance Side, Compliance Side, Compliance Side
TestParameter, Measurement.Monitor.RangingMode, LIMITED, LIMITED, LIMITED, LIMITED
TestParameter, Measurement.Monitor.RangeBoundary, 1nA, 1nA, 1nA, 1nA
TestParameter, Measurement.Monitor.RangeRating, BY FULL RANGE, BY FULL RANGE, BY FULL RANGE, BY FULL RANGE
TestParameter, Measurement.Monitor.RangeRatingCoeff, 50, 50, 50, 50
TestParameter, Measurement.Timing.Hold, 0
TestParameter, Measurement.Timing.Delay, 0
TestParameter, Measurement.Adc.HighSpeed.Mode, AUTO
TestParameter, Measurement.Adc.HighSpeed.Coeff, 1
TestParameter, Measurement.Adc.HighResolution.AutoZero, OFF
TestParameter, Measurement.Adc.HighResolution.Mode, AUTO
TestParameter, Measurement.Adc.HighResolution.Coeff, 6
TestParameter, Measurement.WaitTime.Source.Coeff, 1
TestParameter, Measurement.WaitTime.Source.Offset, 0
TestParameter, Measurement.WaitTime.Monitor.Coeff, 1
TestParameter, Measurement.WaitTime.Monitor.Offset, 0
TestParameter, Output.Graph.Enabled, true
TestParameter, Output.Graph.AutoScaling, false
TestParameter, Output.Graph.XAxis.Data, vg
TestParameter, Output.Graph.XAxis.Scale, Linear
TestParameter, Output.Graph.XAxis.Left, 0
TestParameter, Output.Graph.XAxis.Right, 0.9
TestParameter, Output.Graph.XAxis.RunTimeAutoScale, true
TestParameter, Output.Graph.YAxis.Data, id
TestParameter, Output.Graph.YAxis.Scale, Linear
TestParameter, Output.Graph.YAxis.Bottom, -0.1
TestParameter, Output.Graph.YAxis.Top, 0.1
TestParameter, Output.Graph.YAxis.Group, 
TestParameter, Output.Graph.YAxis.RunTimeAutoScale, true
TestParameter, AutoAnalysis.Interpolation, false
TestParameter, AutoAnalysis.Var2StepCount, 1
TestParameter, AutoAnalysis.Var2StepScript, 
TestParameter, AutoAnalysis.Line1.Enabled, false
TestParameter, AutoAnalysis.Line1.Type, 1
TestParameter, AutoAnalysis.Line1.Fix, True
TestParameter, AutoAnalysis.Line1.YAxis, 0
TestParameter, AutoAnalysis.Line1.Point1.Type, 0
TestParameter, AutoAnalysis.Line1.Point1.XY.X, 
TestParameter, AutoAnalysis.Line1.Point1.XY.Y, 
TestParameter, AutoAnalysis.Line1.Point1.Data.Var, 
TestParameter, AutoAnalysis.Line1.Point1.Data.Condition, 
TestParameter, AutoAnalysis.Line1.Point1.Data.Start, false
TestParameter, AutoAnalysis.Line1.Point1.Data.StartVar, 
TestParameter, AutoAnalysis.Line1.Point1.Data.StartCondition, 
TestParameter, AutoAnalysis.Line1.Point2.Type, 0
TestParameter, AutoAnalysis.Line1.Point2.XY.X, 
TestParameter, AutoAnalysis.Line1.Point2.XY.Y, 
TestParameter, AutoAnalysis.Line1.Point2.Data.Var, 
TestParameter, AutoAnalysis.Line1.Point2.Data.Condition, 
TestParameter, AutoAnalysis.Line1.Point2.Data.Start, false
TestParameter, AutoAnalysis.Line1.Point2.Data.StartVar, 
TestParameter, AutoAnalysis.Line1.Point2.Data.StartCondition, 
TestParameter, AutoAnalysis.Line1.GradientExpr, 0
TestParameter, AutoAnalysis.Line2.Enabled, false
TestParameter, AutoAnalysis.Line2.Type, 1
TestParameter, AutoAnalysis.Line2.Fix, True
TestParameter, AutoAnalysis.Line2.YAxis, 0
TestParameter, AutoAnalysis.Line2.Point1.Type, 0
TestParameter, AutoAnalysis.Line2.Point1.XY.X, 
TestParameter, AutoAnalysis.Line2.Point1.XY.Y, 
TestParameter, AutoAnalysis.Line2.Point1.Data.Var, 
TestParameter, AutoAnalysis.Line2.Point1.Data.Condition, 
TestParameter, AutoAnalysis.Line2.Point1.Data.Start, false
TestParameter, AutoAnalysis.Line2.Point1.Data.StartVar, 
TestParameter, AutoAnalysis.Line2.Point1.Data.StartCondition, 
TestParameter, AutoAnalysis.Line2.Point2.Type, 0
TestParameter, AutoAnalysis.Line2.Point2.XY.X, 
TestParameter, AutoAnalysis.Line2.Point2.XY.Y, 
TestParameter, AutoAnalysis.Line2.Point2.Data.Var, 
TestParameter, AutoAnalysis.Line2.Point2.Data.Condition, 
TestParameter, AutoAnalysis.Line2.Point2.Data.Start, false
TestParameter, AutoAnalysis.Line2.Point2.Data.StartVar, 
TestParameter, AutoAnalysis.Line2.Point2.Data.StartCondition, 
TestParameter, AutoAnalysis.Line2.GradientExpr, 0
TestParameter, AutoAnalysis.Marker.Enabled, false
TestParameter, AutoAnalysis.Marker.Data.Var, 
TestParameter, AutoAnalysis.Marker.Data.Condition, 
TestParameter, AutoAnalysis.Marker.Data.Start, false
TestParameter, AutoAnalysis.Marker.Data.StartVar, 
TestParameter, AutoAnalysis.Marker.Data.StartCondition, 
MetaData, TestRecord.EntryPoint, true
MetaData, TestRecord.RecordTime, 01/16/2024 16:58:39
MetaData, TestRecord.TestTarget, N-1-1-298K
MetaData, TestRecord.IterationIndex, 5
MetaData, TestRecord.Preservation, true
MetaData, TestRecord.Flag, 
MetaData, TestRecord.Remarks, 
MetaData, TestRecord.LinkKey, a5403f75-7ebe-43e9-a383-20a2786cf7de
MetaData, TestRecord.Parameters, 
Dimension1, 381, 381
Dimension2, 7, 7
DataName, vg, id
DataValue, -0.5, 4.6400000000000004E-12
DataValue, -0.49, 8.9800000000000009E-12
DataValue, -0.48, 1.535E-11
DataValue, -0.47000000000000003, 2.5500000000000002E-12
DataValue, -0.46, 8.86E-12
DataValue, -0.45, 1.3670000000000001E-11
DataValue, -0.44, 6.8E-13
DataValue, -0.43, 9.15E-12
DataValue, -0.42, 1.1860000000000002E-11
DataValue, -0.41000000000000003, 5E-14
DataValue, -0.4, 9.48E-12
DataValue, -0.39, 1.0220000000000001E-11
DataValue, -0.38, 5.3000000000000006E-13
DataValue, -0.37, 1.069E-11
DataValue, -0.36, 9.9200000000000014E-12
DataValue, -0.35000000000000003, 1.3000000000000001E-12
DataValue, -0.34, 1.25E-11
DataValue, -0.33, 9.07E-12
DataValue, -0.32, 2.2500000000000003E-12
DataValue, -0.31, 1.4500000000000002E-11
DataValue, -0.3, 8.63E-12
DataValue, -0.29, 4.21E-12
DataValue, -0.28, 1.648E-11
DataValue, -0.27, 8.64E-12
DataValue, -0.26, 5.63E-12
DataValue, -0.25, 1.733E-11
DataValue, -0.24, 8.3000000000000014E-12
DataValue, -0.23, 6.92E-12
DataValue, -0.22, 1.7050000000000002E-11
DataValue, -0.21, 7.34E-12
DataValue, -0.2, 7.8900000000000013E-12
DataValue, -0.19, 1.5520000000000002E-11
DataValue, -0.18, 3.0400000000000004E-12
DataValue, -0.17, 8.97E-12
DataValue, -0.16, 1.391E-11
DataValue, -0.15, 7.9000000000000007E-13
DataValue, -0.14, 9.34E-12
DataValue, -0.13, 1.2040000000000001E-11
DataValue, -0.12, 3.0000000000000005E-14
DataValue, -0.11, 9.46E-12
DataValue, -0.1, 1.065E-11
DataValue, -0.09, 1.7E-13
DataValue, -0.08, 1.0600000000000001E-11
DataValue, -0.07, 9.56E-12
DataValue, -0.06, 4.1E-13
DataValue, -0.05, 9.64E-12
DataValue, -0.04, 9.6900000000000009E-12
DataValue, -0.03, 7.100000000000001E-13
DataValue, -0.02, 1.0110000000000001E-11
DataValue, -0.01, 1.117E-11
DataValue, 0, 9.3E-13
DataValue, 0.01, 8.74E-12
DataValue, 0.02, 1.69E-11
DataValue, 0.03, 6.41E-12
DataValue, 0.04, 7.5700000000000011E-12
DataValue, 0.05, 1.715E-11
DataValue, 0.06, 8.21E-12
DataValue, 0.07, 5.04E-12
DataValue, 0.08, 1.4410000000000002E-11
DataValue, 0.09, 9.7200000000000014E-12
DataValue, 0.1, 1.27E-12
DataValue, 0.11, 9.98E-12
DataValue, 0.12, 1.2030000000000001E-11
DataValue, 0.13, 1.88E-12
DataValue, 0.14, 8.76E-12
DataValue, 0.15, 1.4280000000000001E-11
DataValue, 0.16, 5.1100000000000006E-12
DataValue, 0.17, 7.8600000000000008E-12
DataValue, 0.18, 1.774E-11
DataValue, 0.19, 9.07E-12
DataValue, 0.2, 4.2900000000000005E-12
DataValue, 0.21, 1.3460000000000001E-11
DataValue, 0.22, 9.07E-12
DataValue, 0.23, 2.69E-12
DataValue, 0.24, 1.147E-11
DataValue, 0.25, 1.1140000000000001E-11
DataValue, 0.26, 1.85E-12
DataValue, 0.27, 1.117E-11
DataValue, 0.28, 1.3670000000000001E-11
DataValue, 0.29, 4.41E-12
DataValue, 0.3, 1.3080000000000002E-11
DataValue, 0.31, 1.9800000000000002E-11
DataValue, 0.32, 1.2660000000000001E-11
DataValue, 0.33, 1.53E-11
DataValue, 0.34, 2.6870000000000003E-11
DataValue, 0.35000000000000003, 2.152E-11
DataValue, 0.36, 2.0510000000000002E-11
DataValue, 0.37, 3.438E-11
DataValue, 0.38, 3.4760000000000005E-11
DataValue, 0.39, 3.249E-11
DataValue, 0.4, 5.0410000000000004E-11
DataValue, 0.41000000000000003, 6.5250000000000007E-11
DataValue, 0.42, 6.874E-11
DataValue, 0.43, 9.4920000000000007E-11
DataValue, 0.44, 1.2554000000000001E-10
DataValue, 0.45, 1.4723000000000002E-10
DataValue, 0.46, 1.9027E-10
DataValue, 0.47000000000000003, 2.461E-10
DataValue, 0.48, 3.0304E-10
DataValue, 0.49, 3.8115E-10
DataValue, 0.5, 4.9591E-10
DataValue, 0.51, 6.3491E-10
DataValue, 0.52, 7.8765000000000007E-10
DataValue, 0.53, 1.0179200000000001E-09
DataValue, 0.54, 1.3871E-09
DataValue, 0.55, 1.6776E-09
DataValue, 0.56, 2.1533E-09
DataValue, 0.57000000000000006, 2.7445E-09
DataValue, 0.58, 3.5333E-09
DataValue, 0.59, 4.5146E-09
DataValue, 0.6, 5.7499E-09
DataValue, 0.61, 7.3748E-09
DataValue, 0.62, 9.5097E-09
DataValue, 0.63, 1.2600999999999998E-08
DataValue, 0.64, 1.5984999999999997E-08
DataValue, 0.65, 2.0305999999999997E-08
DataValue, 0.66, 2.5619199999999997E-08
DataValue, 0.67, 3.2470799999999996E-08
DataValue, 0.68, 4.0678199999999993E-08
DataValue, 0.69000000000000006, 5.0900399999999994E-08
DataValue, 0.70000000000000007, 6.3789999999999991E-08
DataValue, 0.71, 7.84704E-08
DataValue, 0.72, 9.6490999999999987E-08
DataValue, 0.73, 1.1818E-07
DataValue, 0.74, 1.4412E-07
DataValue, 0.75, 1.7475999999999999E-07
DataValue, 0.76, 2.1032E-07
DataValue, 0.77, 2.5156E-07
DataValue, 0.78, 2.9876E-07
DataValue, 0.79, 3.5202E-07
DataValue, 0.8, 4.1356E-07
DataValue, 0.81, 4.821E-07
DataValue, 0.82000000000000006, 5.5746E-07
DataValue, 0.83000000000000007, 6.4314E-07
DataValue, 0.84, 7.3738E-07
DataValue, 0.85, 8.4122E-07
DataValue, 0.86, 9.522E-07
DataValue, 0.87, 1.07442E-06
DataValue, 0.88, 1.2041E-06
DataValue, 0.89, 1.3471000000000002E-06
DataValue, 0.9, 1.5000000000000003E-06
DataValue, 0.91, 1.6673000000000001E-06
DataValue, 0.92, 1.8457000000000002E-06
DataValue, 0.93, 2.0276000000000003E-06
DataValue, 0.94000000000000006, 2.222E-06
DataValue, 0.95000000000000007, 2.4296000000000004E-06
DataValue, 0.96, 2.6493E-06
DataValue, 0.97, 2.8859E-06
DataValue, 0.98, 3.1293000000000003E-06
DataValue, 0.99, 3.3848E-06
DataValue, 1, 3.6501000000000004E-06
DataValue, 1.01, 3.9298E-06
DataValue, 1.02, 4.2177E-06
DataValue, 1.03, 4.5222000000000005E-06
DataValue, 1.04, 4.8415E-06
DataValue, 1.05, 5.1682000000000008E-06
DataValue, 1.06, 5.506300000000001E-06
DataValue, 1.07, 5.856300000000001E-06
DataValue, 1.08, 6.2197000000000008E-06
DataValue, 1.09, 6.5960000000000009E-06
DataValue, 1.1, 6.9934000000000007E-06
DataValue, 1.11, 7.3884000000000011E-06
DataValue, 1.12, 7.8003E-06
DataValue, 1.1300000000000001, 8.2261E-06
DataValue, 1.1400000000000001, 8.6583000000000014E-06
DataValue, 1.1500000000000001, 9.1114E-06
DataValue, 1.16, 9.5615000000000015E-06
DataValue, 1.17, 1.0047300000000001E-05
DataValue, 1.18, 1.05229E-05
DataValue, 1.19, 1.1019400000000002E-05
DataValue, 1.2, 1.1522E-05
DataValue, 1.21, 1.2038E-05
DataValue, 1.22, 1.2562000000000001E-05
DataValue, 1.23, 1.3108E-05
DataValue, 1.24, 1.3668E-05
DataValue, 1.25, 1.4230000000000001E-05
DataValue, 1.26, 1.4808000000000001E-05
DataValue, 1.27, 1.5396E-05
DataValue, 1.28, 1.5994E-05
DataValue, 1.29, 1.6604E-05
DataValue, 1.3, 1.7232E-05
DataValue, 1.31, 1.7858E-05
DataValue, 1.32, 1.849E-05
DataValue, 1.33, 1.9154E-05
DataValue, 1.34, 1.9814E-05
DataValue, 1.35, 2.0484000000000002E-05
DataValue, 1.36, 2.1168E-05
DataValue, 1.37, 2.1878E-05
DataValue, 1.3800000000000001, 2.2576000000000002E-05
DataValue, 1.3900000000000001, 2.3298E-05
DataValue, 1.4000000000000001, 2.402E-05
DataValue, 1.41, 2.4752E-05
DataValue, 1.42, 2.5498000000000002E-05
DataValue, 1.43, 2.6264E-05
DataValue, 1.44, 2.7024E-05
DataValue, 1.45, 2.7806E-05
DataValue, 1.46, 2.8584E-05
DataValue, 1.47, 2.9382E-05
DataValue, 1.48, 3.0188E-05
DataValue, 1.49, 3.1004E-05
DataValue, 1.5, 3.1836E-05
DataValue, 1.51, 3.2670000000000004E-05
DataValue, 1.52, 3.351E-05
DataValue, 1.53, 3.4356E-05
DataValue, 1.54, 3.522E-05
DataValue, 1.55, 3.6078E-05
DataValue, 1.56, 3.6968E-05
DataValue, 1.57, 3.7854E-05
DataValue, 1.58, 3.8748E-05
DataValue, 1.59, 3.965E-05
DataValue, 1.6, 4.055E-05
DataValue, 1.61, 4.1472E-05
DataValue, 1.62, 4.2404E-05
DataValue, 1.6300000000000001, 4.334E-05
DataValue, 1.6400000000000001, 4.4278E-05
DataValue, 1.6500000000000001, 4.5254000000000004E-05
DataValue, 1.6600000000000001, 4.6212000000000004E-05
DataValue, 1.67, 4.7182E-05
DataValue, 1.68, 4.8156000000000004E-05
DataValue, 1.69, 4.9142000000000005E-05
DataValue, 1.7, 5.013E-05
DataValue, 1.71, 5.1124E-05
DataValue, 1.72, 5.2132E-05
DataValue, 1.73, 5.314E-05
DataValue, 1.74, 5.4186E-05
DataValue, 1.75, 5.5212E-05
DataValue, 1.76, 5.6236E-05
DataValue, 1.77, 5.7272E-05
DataValue, 1.78, 5.8322E-05
DataValue, 1.79, 5.9382E-05
DataValue, 1.8, 6.0438E-05
DataValue, 1.81, 6.1516E-05
DataValue, 1.82, 6.257E-05
DataValue, 1.83, 6.3664E-05
DataValue, 1.84, 6.4742E-05
DataValue, 1.85, 6.584E-05
DataValue, 1.86, 6.6936E-05
DataValue, 1.87, 6.804E-05
DataValue, 1.8800000000000001, 6.9152E-05
DataValue, 1.8900000000000001, 7.0264E-05
DataValue, 1.9000000000000001, 7.14E-05
DataValue, 1.9100000000000001, 7.2528000000000008E-05
DataValue, 1.92, 7.3652E-05
DataValue, 1.93, 7.4818E-05
DataValue, 1.94, 7.5946000000000008E-05
DataValue, 1.95, 7.7092E-05
DataValue, 1.96, 7.825E-05
DataValue, 1.97, 7.9428E-05
DataValue, 1.98, 8.059E-05
DataValue, 1.99, 8.1754E-05
DataValue, 2, 8.2936000000000007E-05
DataValue, 2.0100000000000002, 8.4130000000000009E-05
DataValue, 2.02, 8.5336E-05
DataValue, 2.0300000000000002, 8.6518E-05
DataValue, 2.04, 8.773E-05
DataValue, 2.05, 8.8938000000000008E-05
DataValue, 2.06, 9.0114E-05
DataValue, 2.07, 9.1314E-05
DataValue, 2.08, 9.2544E-05
DataValue, 2.09, 9.375E-05
DataValue, 2.1, 9.499E-05
DataValue, 2.11, 9.6246E-05
DataValue, 2.12, 9.746E-05
DataValue, 2.13, 9.869E-05
DataValue, 2.14, 9.9940000000000009E-05
DataValue, 2.15, 0.000101174
DataValue, 2.16, 0.000102444
DataValue, 2.17, 0.000103738
DataValue, 2.18, 0.000105004
DataValue, 2.19, 0.000106254
DataValue, 2.2, 0.00010753000000000001
DataValue, 2.21, 0.00010877800000000001
DataValue, 2.22, 0.000110068
DataValue, 2.23, 0.00011133800000000001
DataValue, 2.24, 0.000112612
DataValue, 2.25, 0.000113906
DataValue, 2.2600000000000002, 0.00011498000000000001
DataValue, 2.27, 0.00011626
DataValue, 2.2800000000000002, 0.00011754
DataValue, 2.29, 0.0001189
DataValue, 2.3000000000000003, 0.00012018
DataValue, 2.31, 0.00012146
DataValue, 2.32, 0.00012276
DataValue, 2.33, 0.0001241
DataValue, 2.34, 0.0001254
DataValue, 2.35, 0.00012674
DataValue, 2.36, 0.00012806000000000002
DataValue, 2.37, 0.00012934
DataValue, 2.38, 0.0001307
DataValue, 2.39, 0.00013204000000000002
DataValue, 2.4, 0.00013336
DataValue, 2.41, 0.00013474
DataValue, 2.42, 0.000136
DataValue, 2.43, 0.00013734
DataValue, 2.44, 0.0001387
DataValue, 2.45, 0.00014006
DataValue, 2.46, 0.00014142
DataValue, 2.47, 0.00014276000000000002
DataValue, 2.48, 0.0001441
DataValue, 2.49, 0.00014544000000000002
DataValue, 2.5, 0.00014678
DataValue, 2.5100000000000002, 0.0001482
DataValue, 2.52, 0.00014952000000000002
DataValue, 2.5300000000000002, 0.00015088000000000002
DataValue, 2.54, 0.00015222
DataValue, 2.5500000000000003, 0.00015360000000000002
DataValue, 2.56, 0.00015498
DataValue, 2.57, 0.0001563
DataValue, 2.58, 0.00015772
DataValue, 2.59, 0.00015910000000000002
DataValue, 2.6, 0.00016044
DataValue, 2.61, 0.0001618
DataValue, 2.62, 0.0001632
DataValue, 2.63, 0.00016458
DataValue, 2.64, 0.00016592
DataValue, 2.65, 0.00016732000000000002
DataValue, 2.66, 0.00016876
DataValue, 2.67, 0.00017010000000000002
DataValue, 2.68, 0.00017146000000000002
DataValue, 2.69, 0.00017288
DataValue, 2.7, 0.00017428000000000002
DataValue, 2.71, 0.00017566
DataValue, 2.72, 0.00017704
DataValue, 2.73, 0.00017846000000000002
DataValue, 2.74, 0.00017978000000000002
DataValue, 2.75, 0.00018116
DataValue, 2.7600000000000002, 0.00018256000000000001
DataValue, 2.77, 0.00018398
DataValue, 2.7800000000000002, 0.00018542000000000002
DataValue, 2.79, 0.00018680000000000001
DataValue, 2.8000000000000003, 0.00018820000000000002
DataValue, 2.81, 0.0001896
DataValue, 2.82, 0.00019096
DataValue, 2.83, 0.00019242
DataValue, 2.84, 0.00019380000000000002
DataValue, 2.85, 0.00019524
DataValue, 2.86, 0.00019662000000000003
DataValue, 2.87, 0.00019808
DataValue, 2.88, 0.00019942
DataValue, 2.89, 0.0002008
DataValue, 2.9, 0.00020226
DataValue, 2.91, 0.00020366
DataValue, 2.92, 0.00020504
DataValue, 2.93, 0.00020644
DataValue, 2.94, 0.00020782000000000003
DataValue, 2.95, 0.00020926
DataValue, 2.96, 0.00021066000000000002
DataValue, 2.97, 0.00021208000000000002
DataValue, 2.98, 0.0002135
DataValue, 2.99, 0.00021490000000000002
DataValue, 3, 0.00021634
DataValue, 3.0100000000000002, 0.00021776
DataValue, 3.02, 0.00021920000000000002
DataValue, 3.0300000000000002, 0.00022058
DataValue, 3.04, 0.00022196000000000002
DataValue, 3.0500000000000003, 0.00022342000000000003
DataValue, 3.06, 0.00022484000000000002
DataValue, 3.0700000000000003, 0.00022622
DataValue, 3.08, 0.00022766000000000003
DataValue, 3.09, 0.00022906
DataValue, 3.1, 0.00023050000000000002
DataValue, 3.11, 0.00023188
DataValue, 3.12, 0.00023334
DataValue, 3.13, 0.00023474000000000002
DataValue, 3.14, 0.00023618
DataValue, 3.15, 0.00023762000000000002
DataValue, 3.16, 0.00023898000000000002
DataValue, 3.17, 0.00024040000000000002
DataValue, 3.18, 0.00024180000000000002
DataValue, 3.19, 0.00024328000000000002
DataValue, 3.2, 0.00024470000000000004
DataValue, 3.21, 0.00024612
DataValue, 3.22, 0.00024754000000000003
DataValue, 3.23, 0.00024894
DataValue, 3.24, 0.00025032
DataValue, 3.25, 0.0002518
DataValue, 3.2600000000000002, 0.00025318000000000004
DataValue, 3.27, 0.0002546
DataValue, 3.2800000000000002, 0.00025604
DataValue, 3.29, 0.0002575
DataValue, 3.3000000000000003, 0.00025888
DataValue, -0.5, 9.8100000000000012E-12
DataValue, -0.49, 1.4470000000000001E-11
DataValue, -0.48, 1.22E-12
DataValue, -0.47000000000000003, 1.3580000000000002E-11
DataValue, -0.46, 9.53E-12
DataValue, -0.45, 7.93E-12
DataValue, -0.44, 1.666E-11
DataValue, -0.43, 9.5E-13
DataValue, -0.42, 1.53E-11
DataValue, -0.41000000000000003, 9.5000000000000011E-12
DataValue, -0.4, 7.7600000000000009E-12
DataValue, -0.39, 1.804E-11
DataValue, -0.38, 7.9E-12
DataValue, -0.37, 9.84E-12
DataValue, -0.36, 1.353E-11
DataValue, -0.35000000000000003, 1.3400000000000002E-12
DataValue, -0.34, 1.016E-11
DataValue, -0.33, 1.0430000000000001E-11
DataValue, -0.32, 6.2E-12
