
SetupTitle, NMOS-isub-vg-vds@vbs=0
PrimitiveTest, I/V Sweep
TestParameter, Context.MainFrame, B1500A
TestParameter, Channel.UnitType, SMU, SMU, SMU, SMU
TestParameter, Channel.Unit, SMU2:HR, SMU1:HR, SMU3:HR, SMU4:HR
TestParameter, Channel.IName, ib, is, ig, id
TestParameter, Channel.VName, vb, vs, vg, vd
TestParameter, Channel.Mode, V, COMMON, V, V
TestParameter, Channel.Func, CONST, CONST, VAR1, VAR2
TestParameter, Channel.Index, 
TestParameter, Channel.Time, 
TestParameter, Measurement.Port.Unit, SMU2:HR, SMU1:HR, SMU3:HR, SMU4:HR
TestParameter, Measurement.Port.SeriesResistor, NONE, NONE, NONE, NONE
TestParameter, Measurement.Port.Filter, ON, ON, ON, ON
TestParameter, Measurement.Port.OutputVoltageComparison, 0, 0, 0, 0
TestParameter, Measurement.Primary.Locus, Single
TestParameter, Measurement.Primary.Scale, LINEAR
TestParameter, Measurement.Primary.Start, 0
TestParameter, Measurement.Primary.Stop, 3.3000000000000003
TestParameter, Measurement.Primary.Step, 0.01
TestParameter, Measurement.Primary.Compliance, 0.001
TestParameter, Measurement.Primary.PowerCompliance, 0
TestParameter, Measurement.Aborting.Condition, SKIP AT ANY ABNORMAL
TestParameter, Measurement.PostOutput.Value, START
TestParameter, Measurement.PostOutput.Retention, OFF
TestParameter, Measurement.Secondary.Start, 0.3
TestParameter, Measurement.Secondary.Count, 6
TestParameter, Measurement.Secondary.Step, 0.6
TestParameter, Measurement.Secondary.Compliance, 0.1
TestParameter, Measurement.Secondary.PowerCompliance, 0
TestParameter, Measurement.Bias.Source, 0, 0, 0, 0.3
TestParameter, Measurement.Bias.Compliance, 0.1, 0.1, 0.001, 0.1
TestParameter, Measurement.Monitor.Unit, SMU2:HR, SMU1:HR, SMU3:HR, SMU4:HR
TestParameter, Measurement.Monitor.Adc, HR ADC, HR ADC, HR ADC, HR ADC
TestParameter, Measurement.Monitor.Measurement, Compliance Side, Compliance Side, Compliance Side, Compliance Side
TestParameter, Measurement.Monitor.RangingMode, LIMITED, LIMITED, LIMITED, LIMITED
TestParameter, Measurement.Monitor.RangeBoundary, 1nA, 1nA, 1nA, 1nA
TestParameter, Measurement.Monitor.RangeRating, BY FULL RANGE, BY FULL RANGE, BY FULL RANGE, BY FULL RANGE
TestParameter, Measurement.Monitor.RangeRatingCoeff, 50, 50, 50, 50
TestParameter, Measurement.Timing.Hold, 0
TestParameter, Measurement.Timing.Delay, 0
TestParameter, Measurement.Adc.HighSpeed.Mode, AUTO
TestParameter, Measurement.Adc.HighSpeed.Coeff, 1
TestParameter, Measurement.Adc.HighResolution.AutoZero, OFF
TestParameter, Measurement.Adc.HighResolution.Mode, AUTO
TestParameter, Measurement.Adc.HighResolution.Coeff, 6
TestParameter, Measurement.WaitTime.Source.Coeff, 1
TestParameter, Measurement.WaitTime.Source.Offset, 0
TestParameter, Measurement.WaitTime.Monitor.Coeff, 1
TestParameter, Measurement.WaitTime.Monitor.Offset, 0
TestParameter, Output.Graph.Enabled, true
TestParameter, Output.Graph.AutoScaling, false
TestParameter, Output.Graph.XAxis.Data, vg
TestParameter, Output.Graph.XAxis.Scale, Linear
TestParameter, Output.Graph.XAxis.Left, 0
TestParameter, Output.Graph.XAxis.Right, 0.9
TestParameter, Output.Graph.XAxis.RunTimeAutoScale, true
TestParameter, Output.Graph.YAxis.Data, ib
TestParameter, Output.Graph.YAxis.Scale, Linear
TestParameter, Output.Graph.YAxis.Bottom, -0.1
TestParameter, Output.Graph.YAxis.Top, 0.1
TestParameter, Output.Graph.YAxis.Group, 
TestParameter, Output.Graph.YAxis.RunTimeAutoScale, true
TestParameter, AutoAnalysis.Interpolation, false
TestParameter, AutoAnalysis.Var2StepCount, 1
TestParameter, AutoAnalysis.Var2StepScript, 
TestParameter, AutoAnalysis.Line1.Enabled, false
TestParameter, AutoAnalysis.Line1.Type, 1
TestParameter, AutoAnalysis.Line1.Fix, True
TestParameter, AutoAnalysis.Line1.YAxis, 0
TestParameter, AutoAnalysis.Line1.Point1.Type, 0
TestParameter, AutoAnalysis.Line1.Point1.XY.X, 
TestParameter, AutoAnalysis.Line1.Point1.XY.Y, 
TestParameter, AutoAnalysis.Line1.Point1.Data.Var, 
TestParameter, AutoAnalysis.Line1.Point1.Data.Condition, 
TestParameter, AutoAnalysis.Line1.Point1.Data.Start, false
TestParameter, AutoAnalysis.Line1.Point1.Data.StartVar, 
TestParameter, AutoAnalysis.Line1.Point1.Data.StartCondition, 
TestParameter, AutoAnalysis.Line1.Point2.Type, 0
TestParameter, AutoAnalysis.Line1.Point2.XY.X, 
TestParameter, AutoAnalysis.Line1.Point2.XY.Y, 
TestParameter, AutoAnalysis.Line1.Point2.Data.Var, 
TestParameter, AutoAnalysis.Line1.Point2.Data.Condition, 
TestParameter, AutoAnalysis.Line1.Point2.Data.Start, false
TestParameter, AutoAnalysis.Line1.Point2.Data.StartVar, 
TestParameter, AutoAnalysis.Line1.Point2.Data.StartCondition, 
TestParameter, AutoAnalysis.Line1.GradientExpr, 0
TestParameter, AutoAnalysis.Line2.Enabled, false
TestParameter, AutoAnalysis.Line2.Type, 1
TestParameter, AutoAnalysis.Line2.Fix, True
TestParameter, AutoAnalysis.Line2.YAxis, 0
TestParameter, AutoAnalysis.Line2.Point1.Type, 0
TestParameter, AutoAnalysis.Line2.Point1.XY.X, 
TestParameter, AutoAnalysis.Line2.Point1.XY.Y, 
TestParameter, AutoAnalysis.Line2.Point1.Data.Var, 
TestParameter, AutoAnalysis.Line2.Point1.Data.Condition, 
TestParameter, AutoAnalysis.Line2.Point1.Data.Start, false
TestParameter, AutoAnalysis.Line2.Point1.Data.StartVar, 
TestParameter, AutoAnalysis.Line2.Point1.Data.StartCondition, 
TestParameter, AutoAnalysis.Line2.Point2.Type, 0
TestParameter, AutoAnalysis.Line2.Point2.XY.X, 
TestParameter, AutoAnalysis.Line2.Point2.XY.Y, 
TestParameter, AutoAnalysis.Line2.Point2.Data.Var, 
TestParameter, AutoAnalysis.Line2.Point2.Data.Condition, 
TestParameter, AutoAnalysis.Line2.Point2.Data.Start, false
TestParameter, AutoAnalysis.Line2.Point2.Data.StartVar, 
TestParameter, AutoAnalysis.Line2.Point2.Data.StartCondition, 
TestParameter, AutoAnalysis.Line2.GradientExpr, 0
TestParameter, AutoAnalysis.Marker.Enabled, false
TestParameter, AutoAnalysis.Marker.Data.Var, 
TestParameter, AutoAnalysis.Marker.Data.Condition, 
TestParameter, AutoAnalysis.Marker.Data.Start, false
TestParameter, AutoAnalysis.Marker.Data.StartVar, 
TestParameter, AutoAnalysis.Marker.Data.StartCondition, 
MetaData, TestRecord.EntryPoint, true
MetaData, TestRecord.RecordTime, 01/16/2024 17:00:02
MetaData, TestRecord.TestTarget, N-1-1-298K
MetaData, TestRecord.IterationIndex, 5
MetaData, TestRecord.Preservation, true
MetaData, TestRecord.Flag, 
MetaData, TestRecord.Remarks, 
MetaData, TestRecord.LinkKey, 0fb13373-e303-43f6-beae-7c94058da843
MetaData, TestRecord.Parameters, 
Dimension1, 331, 331
Dimension2, 6, 6
DataName, vg, ib
DataValue, 0, -1.5684000000000002E-10
DataValue, 0.01, -3.339E-11
DataValue, 0.02, -4.967E-11
DataValue, 0.03, -1.1465000000000001E-10
DataValue, 0.04, -3.6730000000000005E-11
DataValue, 0.05, -6.0280000000000011E-11
DataValue, 0.06, -1.3605E-10
DataValue, 0.07, -7.65E-12
DataValue, 0.08, -6.632000000000001E-11
DataValue, 0.09, -1.2674000000000002E-10
DataValue, 0.1, 2.347E-11
DataValue, 0.11, -9.5930000000000011E-11
DataValue, 0.12, -1.1812E-10
DataValue, 0.13, 9.44E-12
DataValue, 0.14, -1.0907E-10
DataValue, 0.15, -6.815E-11
DataValue, 0.16, -8.2700000000000009E-12
DataValue, 0.17, -1.2415E-10
DataValue, 0.18, -7.9450000000000007E-11
DataValue, 0.19, -2.105E-11
DataValue, 0.2, -1.1204000000000001E-10
DataValue, 0.21, -7.5420000000000009E-11
DataValue, 0.22, -1.3180000000000002E-11
DataValue, 0.23, -1.4813E-10
DataValue, 0.24, -6.876E-11
DataValue, 0.25, 1.3570000000000001E-11
DataValue, 0.26, -1.1503000000000002E-10
DataValue, 0.27, -1.2022E-10
DataValue, 0.28, 1.824E-11
DataValue, 0.29, -9.302E-11
DataValue, 0.3, -9.697E-11
DataValue, 0.31, -7.9000000000000007E-13
DataValue, 0.32, -1.1295000000000001E-10
DataValue, 0.33, -9.5270000000000011E-11
DataValue, 0.34, -1.3950000000000001E-11
DataValue, 0.35000000000000003, -7.204E-11
DataValue, 0.36, -1.1986000000000001E-10
DataValue, 0.37, -9.04E-12
DataValue, 0.38, -7.3740000000000009E-11
DataValue, 0.39, -1.3508000000000001E-10
DataValue, 0.4, 5.18E-12
DataValue, 0.41000000000000003, -5.967E-11
DataValue, 0.42, -1.5291000000000002E-10
DataValue, 0.43, 5.74E-12
DataValue, 0.44, -4.5690000000000006E-11
DataValue, 0.45, -1.5284E-10
DataValue, 0.46, -3.973E-11
DataValue, 0.47000000000000003, -2.993E-11
DataValue, 0.48, -1.377E-10
DataValue, 0.49, -9.3780000000000011E-11
DataValue, 0.5, -1.896E-11
DataValue, 0.51, -8.191E-11
DataValue, 0.52, -1.1687E-10
DataValue, 0.53, -6.9500000000000009E-12
DataValue, 0.54, -5.1250000000000004E-11
DataValue, 0.55, -1.3823000000000002E-10
DataValue, 0.56, -3.23E-11
DataValue, 0.57000000000000006, -3.741E-11
DataValue, 0.58, -1.5731000000000002E-10
DataValue, 0.59, -3.4790000000000003E-11
DataValue, 0.6, -3.6400000000000005E-11
DataValue, 0.61, -1.5725E-10
DataValue, 0.62, -5.3580000000000004E-11
DataValue, 0.63, -1.34E-11
DataValue, 0.64, -1.2293E-10
DataValue, 0.65, -9.9620000000000014E-11
DataValue, 0.66, -6.215E-11
DataValue, 0.67, -1.3134E-10
DataValue, 0.68, -2.007E-11
DataValue, 0.69000000000000006, -5.3730000000000005E-11
DataValue, 0.70000000000000007, -1.3115E-10
DataValue, 0.71, 1.2230000000000001E-11
DataValue, 0.72, -8.984000000000001E-11
DataValue, 0.73, -1.2096000000000001E-10
DataValue, 0.74, 1.231E-11
DataValue, 0.75, -1.0163E-10
DataValue, 0.76, -7.562E-11
DataValue, 0.77, -2.06E-12
DataValue, 0.78, -9.0880000000000013E-11
DataValue, 0.79, -1.102E-10
DataValue, 0.8, -3.2790000000000004E-11
DataValue, 0.81, -4.5500000000000004E-11
DataValue, 0.82000000000000006, -1.3832000000000002E-10
DataValue, 0.83000000000000007, -7.191E-11
DataValue, 0.84, -1.471E-11
DataValue, 0.85, -1.3888000000000002E-10
DataValue, 0.86, -9.756000000000001E-11
DataValue, 0.87, 2.1390000000000003E-11
DataValue, 0.88, -1.0569000000000001E-10
DataValue, 0.89, -8.2620000000000008E-11
DataValue, 0.9, -1.2730000000000001E-11
DataValue, 0.91, -1.4208000000000002E-10
DataValue, 0.92, -4.6410000000000004E-11
DataValue, 0.93, -2.6590000000000002E-11
DataValue, 0.94000000000000006, -1.3713000000000002E-10
DataValue, 0.95000000000000007, -5.9240000000000007E-11
DataValue, 0.96, -3.2100000000000004E-11
DataValue, 0.97, -1.468E-10
DataValue, 0.98, -5.1770000000000006E-11
DataValue, 0.99, -5.79E-12
DataValue, 1, -1.5456E-10
DataValue, 1.01, -3.9680000000000005E-11
DataValue, 1.02, -4.4340000000000005E-11
DataValue, 1.03, -1.4668E-10
DataValue, 1.04, 5.4600000000000006E-12
DataValue, 1.05, -6.796E-11
DataValue, 1.06, -1.3161E-10
DataValue, 1.07, -7.72E-12
DataValue, 1.08, -8.087E-11
DataValue, 1.09, -1.115E-10
DataValue, 1.1, -2.3330000000000002E-11
DataValue, 1.11, -6.2770000000000007E-11
DataValue, 1.12, -1.1462000000000001E-10
DataValue, 1.1300000000000001, -7.02E-12
DataValue, 1.1400000000000001, -9.6370000000000012E-11
DataValue, 1.1500000000000001, -1.0111000000000001E-10
DataValue, 1.16, 2.283E-11
DataValue, 1.17, -1.249E-10
DataValue, 1.18, -9.101E-11
DataValue, 1.19, -8.1900000000000013E-12
DataValue, 1.2, -1.3647000000000002E-10
DataValue, 1.21, -5.0960000000000004E-11
DataValue, 1.22, -2.28E-11
DataValue, 1.23, -1.3273000000000002E-10
DataValue, 1.24, -6.3760000000000008E-11
DataValue, 1.25, -3.226E-11
DataValue, 1.26, -1.3718E-10
DataValue, 1.27, -5.4140000000000006E-11
DataValue, 1.28, -7.21E-12
DataValue, 1.29, -1.5258E-10
DataValue, 1.3, -4.7140000000000005E-11
DataValue, 1.31, -4.297E-11
DataValue, 1.32, -1.4907E-10
DataValue, 1.33, 2.9300000000000002E-12
DataValue, 1.34, -6.3290000000000008E-11
DataValue, 1.35, -1.4174000000000002E-10
DataValue, 1.36, -3.4680000000000003E-11
DataValue, 1.37, -3.234E-11
DataValue, 1.3800000000000001, -1.3247E-10
DataValue, 1.3900000000000001, -8.3330000000000011E-11
DataValue, 1.4000000000000001, -4.72E-12
DataValue, 1.41, -6.5490000000000011E-11
DataValue, 1.42, -1.2756000000000002E-10
DataValue, 1.43, -1.8200000000000003E-12
DataValue, 1.44, -6.713E-11
DataValue, 1.45, -1.2971E-10
DataValue, 1.46, -1.506E-11
DataValue, 1.47, -4.33E-11
DataValue, 1.48, -1.4236000000000001E-10
DataValue, 1.49, -8.6000000000000013E-12
DataValue, 1.5, -6.4470000000000011E-11
DataValue, 1.51, -1.5411000000000002E-10
DataValue, 1.52, -4.184E-11
DataValue, 1.53, -2.132E-11
DataValue, 1.54, -1.2890000000000002E-10
DataValue, 1.55, -6.895E-11
DataValue, 1.56, -1.57E-11
DataValue, 1.57, -1.2428E-10
DataValue, 1.58, -9.1600000000000012E-11
DataValue, 1.59, -5.6600000000000005E-12
DataValue, 1.6, -1.1268E-10
DataValue, 1.61, -1.1584000000000001E-10
DataValue, 1.62, 3.2580000000000005E-11
DataValue, 1.6300000000000001, -9.038E-11
DataValue, 1.6400000000000001, -1.3800000000000002E-10
DataValue, 1.6500000000000001, 1.059E-11
DataValue, 1.6600000000000001, -6.678E-11
DataValue, 1.67, -1.2126E-10
DataValue, 1.68, -2.354E-11
DataValue, 1.69, -4.8890000000000005E-11
DataValue, 1.7, -1.2945E-10
DataValue, 1.71, -6.541000000000001E-11
DataValue, 1.72, -2.2480000000000003E-11
DataValue, 1.73, -1.0155000000000001E-10
DataValue, 1.74, -8.1960000000000007E-11
DataValue, 1.75, -1.25E-11
DataValue, 1.76, -9.109E-11
DataValue, 1.77, -1.1609000000000001E-10
DataValue, 1.78, 1.2270000000000002E-11
DataValue, 1.79, -7.971E-11
DataValue, 1.8, -1.4464E-10
DataValue, 1.81, -9.98E-12
DataValue, 1.82, -5.8060000000000004E-11
DataValue, 1.83, -1.5634E-10
DataValue, 1.84, -4.0000000000000004E-11
DataValue, 1.85, -3.222E-11
DataValue, 1.86, -1.3244E-10
DataValue, 1.87, -6.55E-11
DataValue, 1.8800000000000001, -2.098E-11
DataValue, 1.8900000000000001, -1.0764E-10
DataValue, 1.9000000000000001, -1.0297000000000001E-10
DataValue, 1.9100000000000001, -5.58E-12
DataValue, 1.92, -9.448E-11
DataValue, 1.93, -1.2395000000000002E-10
DataValue, 1.94, 2.7800000000000004E-11
DataValue, 1.95, -8.0160000000000011E-11
DataValue, 1.96, -1.4176E-10
DataValue, 1.97, 1.4900000000000001E-12
DataValue, 1.98, -4.5530000000000003E-11
DataValue, 1.99, -1.5685E-10
DataValue, 2, -4.6550000000000003E-11
DataValue, 2.0100000000000002, -3.263E-11
DataValue, 2.02, -1.3149E-10
DataValue, 2.0300000000000002, -6.813E-11
DataValue, 2.04, -1.6090000000000003E-11
DataValue, 2.05, -7.7600000000000009E-11
DataValue, 2.06, -1.115E-10
DataValue, 2.07, -4.3400000000000005E-12
DataValue, 2.08, -8.759E-11
DataValue, 2.09, -1.3316E-10
DataValue, 2.1, -4.42E-12
DataValue, 2.11, -6.424E-11
DataValue, 2.12, -3.336E-11
DataValue, 2.13, -1.5627000000000002E-10
DataValue, 2.14, -3.907E-11
DataValue, 2.15, -3.9390000000000006E-11
DataValue, 2.16, -1.1933000000000002E-10
DataValue, 2.17, -3.7390000000000006E-11
DataValue, 2.18, -5.3000000000000004E-11
DataValue, 2.19, -1.4144E-10
DataValue, 2.2, -2.3370000000000002E-11
DataValue, 2.21, -3.922E-11
DataValue, 2.22, -1.3854000000000002E-10
DataValue, 2.23, -4.31E-12
DataValue, 2.24, -7.9440000000000012E-11
DataValue, 2.25, -1.3075000000000001E-10
DataValue, 2.2600000000000002, 1.414E-11
DataValue, 2.27, -8.5890000000000013E-11
DataValue, 2.2800000000000002, -9.210000000000001E-11
DataValue, 2.29, -4E-13
DataValue, 2.3000000000000003, -1.0317E-10
DataValue, 2.31, -9.901E-11
DataValue, 2.32, -3.77E-12
DataValue, 2.33, -8.787E-11
DataValue, 2.34, -9.244E-11
DataValue, 2.35, -9.46E-12
DataValue, 2.36, -1.2896E-10
DataValue, 2.37, -8.0490000000000011E-11
DataValue, 2.38, 2.1800000000000002E-11
DataValue, 2.39, -1.2833E-10
DataValue, 2.4, -7.868E-11
DataValue, 2.41, -1.498E-11
DataValue, 2.42, -1.4343000000000002E-10
DataValue, 2.43, -5.1650000000000004E-11
DataValue, 2.44, -2.396E-11
DataValue, 2.45, -1.3007000000000002E-10
DataValue, 2.46, -6.066E-11
DataValue, 2.47, -3.499E-11
DataValue, 2.48, -1.4074000000000002E-10
DataValue, 2.49, -5.332E-11
DataValue, 2.5, -5.2600000000000006E-12
DataValue, 2.5100000000000002, -1.3524000000000002E-10
DataValue, 2.52, -5.5880000000000005E-11
DataValue, 2.5300000000000002, -2.817E-11
DataValue, 2.54, -1.4665E-10
DataValue, 2.5500000000000003, -1.017E-11
DataValue, 2.56, -5.0120000000000004E-11
DataValue, 2.57, -1.4763E-10
DataValue, 2.58, -2.6940000000000003E-11
DataValue, 2.59, -6.016E-11
DataValue, 2.6, -1.1345E-10
DataValue, 2.61, -1.5230000000000002E-11
DataValue, 2.62, -6.397E-11
DataValue, 2.63, -1.3057000000000002E-10
DataValue, 2.64, -4.6600000000000007E-12
DataValue, 2.65, -7.033E-11
DataValue, 2.66, -1.2055E-10
DataValue, 2.67, 3.1780000000000006E-11
DataValue, 2.68, -9.832E-11
DataValue, 2.69, -1.1601000000000001E-10
DataValue, 2.7, 6.7700000000000004E-12
DataValue, 2.71, -1.0587E-10
DataValue, 2.72, -6.904E-11
DataValue, 2.73, -1.1130000000000001E-11
DataValue, 2.74, -1.2506E-10
DataValue, 2.75, -8.0270000000000011E-11
DataValue, 2.7600000000000002, -1.3070000000000002E-11
DataValue, 2.77, -8.252E-11
DataValue, 2.7800000000000002, -8.351E-11
DataValue, 2.79, -8.780000000000001E-12
DataValue, 2.8000000000000003, -1.4080000000000002E-10
DataValue, 2.81, -6.94E-11
DataValue, 2.82, -8.480000000000001E-12
DataValue, 2.83, -1.5365E-10
DataValue, 2.84, -3.045E-11
DataValue, 2.85, -3.4540000000000004E-11
DataValue, 2.86, -1.5778000000000002E-10
DataValue, 2.87, -4.0510000000000004E-11
DataValue, 2.88, -3.5920000000000004E-11
DataValue, 2.89, -1.1734E-10
DataValue, 2.9, -3.813E-11
DataValue, 2.91, -5.397E-11
DataValue, 2.92, -1.411E-10
DataValue, 2.93, -2.354E-11
DataValue, 2.94, -5.266E-11
DataValue, 2.95, -1.3585E-10
DataValue, 2.96, 2.978E-11
DataValue, 2.97, -9.9210000000000012E-11
DataValue, 2.98, -1.1274E-10
DataValue, 2.99, -1.65E-12
DataValue, 3, -1.1074000000000001E-10
DataValue, 3.0100000000000002, -6.5910000000000008E-11
DataValue, 3.02, -1.352E-11
DataValue, 3.0300000000000002, -1.2252E-10
DataValue, 3.04, -7.7400000000000012E-11
DataValue, 3.0500000000000003, -1.9220000000000003E-11
DataValue, 3.06, -1.2470000000000002E-10
DataValue, 3.0700000000000003, -6.206E-11
DataValue, 3.08, -3.61E-12
DataValue, 3.09, -1.5426000000000002E-10
DataValue, 3.1, -6.014E-11
DataValue, 3.11, -2.715E-11
DataValue, 3.12, -1.4961000000000001E-10
DataValue, 3.13, -1.0120000000000001E-11
DataValue, 3.14, -5.048E-11
DataValue, 3.15, -1.4564E-10
DataValue, 3.16, -2.6500000000000002E-11
DataValue, 3.17, -6.448E-11
DataValue, 3.18, -1.1734E-10
DataValue, 3.19, -1.5140000000000002E-11
DataValue, 3.2, -6.348000000000001E-11
DataValue, 3.21, -1.3297E-10
DataValue, 3.22, -5.0600000000000007E-12
DataValue, 3.23, -7.281E-11
DataValue, 3.24, -1.2467000000000002E-10
DataValue, 3.25, 3.238E-11
DataValue, 3.2600000000000002, -1.1752E-10
DataValue, 3.27, -1.1893E-10
DataValue, 3.2800000000000002, -1.6200000000000002E-12
DataValue, 3.29, -1.2471E-10
DataValue, 3.3000000000000003, -6.9020000000000011E-11
DataValue, 0, -5.1300000000000006E-11
DataValue, 0.01, -5.1180000000000004E-11
DataValue, 0.02, -1.2783E-10
DataValue, 0.03, 1.189E-11
DataValue, 0.04, -8.6030000000000012E-11
DataValue, 0.05, -6.25E-11
DataValue, 0.06, -1.8400000000000002E-11
DataValue, 0.07, -1.1745000000000002E-10
DataValue, 0.08, -8.0900000000000013E-12
DataValue, 0.09, -5.5470000000000003E-11
DataValue, 0.1, -1.0466E-10
DataValue, 0.11, 9.7000000000000011E-13
DataValue, 0.12, -1.5316000000000002E-10
DataValue, 0.13, -3.299E-11
DataValue, 0.14, -7.3330000000000007E-11
DataValue, 0.15, -1.1985E-10
DataValue, 0.16, -1.069E-11
DataValue, 0.17, -1.2593E-10
DataValue, 0.18, -4.2120000000000006E-11
DataValue, 0.19, -3.499E-11
DataValue, 0.2, -1.1932E-10
DataValue, 0.21, -4.2480000000000005E-11
DataValue, 0.22, -5.1140000000000004E-11
DataValue, 0.23, -1.4234000000000002E-10
DataValue, 0.24, -5.3100000000000006E-12
DataValue, 0.25, -1.0392000000000001E-10
DataValue, 0.26, -6.967E-11
DataValue, 0.27, -1.6000000000000003E-13
DataValue, 0.28, -1.3741000000000002E-10
DataValue, 0.29, -1.515E-11
DataValue, 0.3, -4.312E-11
DataValue, 0.31, -1.481E-10
DataValue, 0.32, -3.242E-11
DataValue, 0.33, -7.0380000000000007E-11
DataValue, 0.34, -1.1375000000000001E-10
DataValue, 0.35000000000000003, 1.8200000000000003E-12
DataValue, 0.36, -5.4490000000000004E-11
DataValue, 0.37, -1.2469E-10
DataValue, 0.38, 3.6400000000000006E-12
DataValue, 0.39, -1.1352000000000001E-10
DataValue, 0.4, -8.227E-11
DataValue, 0.41000000000000003, 1.047E-11
DataValue, 0.42, -1.2485000000000001E-10
DataValue, 0.43, -3.04E-11
DataValue, 0.44, -3.1300000000000004E-11
