
SetupTitle, NMOS-id-vd-vgs@vbs=-3.3
PrimitiveTest, I/V Sweep
TestParameter, Context.MainFrame, B1500A
TestParameter, Channel.UnitType, SMU, SMU, SMU, SMU
TestParameter, Channel.Unit, SMU2:HR, SMU1:HR, SMU3:HR, SMU4:HR
TestParameter, Channel.IName, ib, is, ig, id
TestParameter, Channel.VName, vb, vs, vg, vd
TestParameter, Channel.Mode, V, COMMON, V, V
TestParameter, Channel.Func, CONST, CONST, VAR2, VAR1
TestParameter, Channel.Index, 
TestParameter, Channel.Time, 
TestParameter, Measurement.Port.Unit, SMU2:HR, SMU1:HR, SMU3:HR, SMU4:HR
TestParameter, Measurement.Port.SeriesResistor, NONE, NONE, NONE, NONE
TestParameter, Measurement.Port.Filter, ON, ON, ON, ON
TestParameter, Measurement.Port.OutputVoltageComparison, 0, 0, 0, 0
TestParameter, Measurement.Primary.Locus, Single
TestParameter, Measurement.Primary.Scale, LINEAR
TestParameter, Measurement.Primary.Start, 0
TestParameter, Measurement.Primary.Stop, 3.3000000000000003
TestParameter, Measurement.Primary.Step, 0.01
TestParameter, Measurement.Primary.Compliance, 0.1
TestParameter, Measurement.Primary.PowerCompliance, 0
TestParameter, Measurement.Aborting.Condition, SKIP AT ANY ABNORMAL
TestParameter, Measurement.PostOutput.Value, START
TestParameter, Measurement.PostOutput.Retention, OFF
TestParameter, Measurement.Secondary.Start, 0.3
TestParameter, Measurement.Secondary.Count, 6
TestParameter, Measurement.Secondary.Step, 0.6
TestParameter, Measurement.Secondary.Compliance, 0.1
TestParameter, Measurement.Secondary.PowerCompliance, 0
TestParameter, Measurement.Bias.Source, -3.3000000000000003, 0, 0.3, 0
TestParameter, Measurement.Bias.Compliance, 0.1, 0.1, 0.1, 0.1
TestParameter, Measurement.Monitor.Unit, SMU2:HR, SMU1:HR, SMU3:HR, SMU4:HR
TestParameter, Measurement.Monitor.Adc, HR ADC, HR ADC, HR ADC, HR ADC
TestParameter, Measurement.Monitor.Measurement, Compliance Side, Compliance Side, Compliance Side, Compliance Side
TestParameter, Measurement.Monitor.RangingMode, LIMITED, LIMITED, LIMITED, LIMITED
TestParameter, Measurement.Monitor.RangeBoundary, 1nA, 1nA, 1nA, 1nA
TestParameter, Measurement.Monitor.RangeRating, BY FULL RANGE, BY FULL RANGE, BY FULL RANGE, BY FULL RANGE
TestParameter, Measurement.Monitor.RangeRatingCoeff, 50, 50, 50, 50
TestParameter, Measurement.Timing.Hold, 0
TestParameter, Measurement.Timing.Delay, 0
TestParameter, Measurement.Adc.HighSpeed.Mode, AUTO
TestParameter, Measurement.Adc.HighSpeed.Coeff, 1
TestParameter, Measurement.Adc.HighResolution.AutoZero, OFF
TestParameter, Measurement.Adc.HighResolution.Mode, AUTO
TestParameter, Measurement.Adc.HighResolution.Coeff, 6
TestParameter, Measurement.WaitTime.Source.Coeff, 1
TestParameter, Measurement.WaitTime.Source.Offset, 0
TestParameter, Measurement.WaitTime.Monitor.Coeff, 1
TestParameter, Measurement.WaitTime.Monitor.Offset, 0
TestParameter, Output.Graph.Enabled, true
TestParameter, Output.Graph.AutoScaling, false
TestParameter, Output.Graph.XAxis.Data, vd
TestParameter, Output.Graph.XAxis.Scale, Linear
TestParameter, Output.Graph.XAxis.Left, 0
TestParameter, Output.Graph.XAxis.Right, 1
TestParameter, Output.Graph.XAxis.RunTimeAutoScale, true
TestParameter, Output.Graph.YAxis.Data, id
TestParameter, Output.Graph.YAxis.Scale, Linear
TestParameter, Output.Graph.YAxis.Bottom, -0.1
TestParameter, Output.Graph.YAxis.Top, 0.1
TestParameter, Output.Graph.YAxis.Group, 
TestParameter, Output.Graph.YAxis.RunTimeAutoScale, true
TestParameter, AutoAnalysis.Interpolation, false
TestParameter, AutoAnalysis.Var2StepCount, 1
TestParameter, AutoAnalysis.Var2StepScript, 
TestParameter, AutoAnalysis.Line1.Enabled, false
TestParameter, AutoAnalysis.Line1.Type, 1
TestParameter, AutoAnalysis.Line1.Fix, True
TestParameter, AutoAnalysis.Line1.YAxis, 0
TestParameter, AutoAnalysis.Line1.Point1.Type, 0
TestParameter, AutoAnalysis.Line1.Point1.XY.X, 
TestParameter, AutoAnalysis.Line1.Point1.XY.Y, 
TestParameter, AutoAnalysis.Line1.Point1.Data.Var, 
TestParameter, AutoAnalysis.Line1.Point1.Data.Condition, 
TestParameter, AutoAnalysis.Line1.Point1.Data.Start, false
TestParameter, AutoAnalysis.Line1.Point1.Data.StartVar, 
TestParameter, AutoAnalysis.Line1.Point1.Data.StartCondition, 
TestParameter, AutoAnalysis.Line1.Point2.Type, 0
TestParameter, AutoAnalysis.Line1.Point2.XY.X, 
TestParameter, AutoAnalysis.Line1.Point2.XY.Y, 
TestParameter, AutoAnalysis.Line1.Point2.Data.Var, 
TestParameter, AutoAnalysis.Line1.Point2.Data.Condition, 
TestParameter, AutoAnalysis.Line1.Point2.Data.Start, false
TestParameter, AutoAnalysis.Line1.Point2.Data.StartVar, 
TestParameter, AutoAnalysis.Line1.Point2.Data.StartCondition, 
TestParameter, AutoAnalysis.Line1.GradientExpr, 0
TestParameter, AutoAnalysis.Line2.Enabled, false
TestParameter, AutoAnalysis.Line2.Type, 1
TestParameter, AutoAnalysis.Line2.Fix, True
TestParameter, AutoAnalysis.Line2.YAxis, 0
TestParameter, AutoAnalysis.Line2.Point1.Type, 0
TestParameter, AutoAnalysis.Line2.Point1.XY.X, 
TestParameter, AutoAnalysis.Line2.Point1.XY.Y, 
TestParameter, AutoAnalysis.Line2.Point1.Data.Var, 
TestParameter, AutoAnalysis.Line2.Point1.Data.Condition, 
TestParameter, AutoAnalysis.Line2.Point1.Data.Start, false
TestParameter, AutoAnalysis.Line2.Point1.Data.StartVar, 
TestParameter, AutoAnalysis.Line2.Point1.Data.StartCondition, 
TestParameter, AutoAnalysis.Line2.Point2.Type, 0
TestParameter, AutoAnalysis.Line2.Point2.XY.X, 
TestParameter, AutoAnalysis.Line2.Point2.XY.Y, 
TestParameter, AutoAnalysis.Line2.Point2.Data.Var, 
TestParameter, AutoAnalysis.Line2.Point2.Data.Condition, 
TestParameter, AutoAnalysis.Line2.Point2.Data.Start, false
TestParameter, AutoAnalysis.Line2.Point2.Data.StartVar, 
TestParameter, AutoAnalysis.Line2.Point2.Data.StartCondition, 
TestParameter, AutoAnalysis.Line2.GradientExpr, 0
TestParameter, AutoAnalysis.Marker.Enabled, false
TestParameter, AutoAnalysis.Marker.Data.Var, 
TestParameter, AutoAnalysis.Marker.Data.Condition, 
TestParameter, AutoAnalysis.Marker.Data.Start, false
TestParameter, AutoAnalysis.Marker.Data.StartVar, 
TestParameter, AutoAnalysis.Marker.Data.StartCondition, 
MetaData, TestRecord.EntryPoint, true
MetaData, TestRecord.RecordTime, 01/16/2024 16:59:42
MetaData, TestRecord.TestTarget, N-1-1-298K
MetaData, TestRecord.IterationIndex, 5
MetaData, TestRecord.Preservation, true
MetaData, TestRecord.Flag, 
MetaData, TestRecord.Remarks, 
MetaData, TestRecord.LinkKey, bc07bdff-40ee-447b-8014-9989c0b7c962
MetaData, TestRecord.Parameters, 
Dimension1, 331, 331
Dimension2, 6, 6
DataName, vd, id
DataValue, 0, 1.0930000000000001E-11
DataValue, 0.01, 8.93E-12
DataValue, 0.02, 1.0090000000000001E-11
DataValue, 0.03, 9.12E-12
DataValue, 0.04, 9.78E-12
DataValue, 0.05, 9.0100000000000014E-12
DataValue, 0.06, 9.65E-12
DataValue, 0.07, 9.45E-12
DataValue, 0.08, 9.37E-12
DataValue, 0.09, 9.43E-12
DataValue, 0.1, 8.62E-12
DataValue, 0.11, 1.0330000000000001E-11
DataValue, 0.12, 7.51E-12
DataValue, 0.13, 1.1530000000000001E-11
DataValue, 0.14, 6.5800000000000006E-12
DataValue, 0.15, 1.3030000000000001E-11
DataValue, 0.16, 4.72E-12
DataValue, 0.17, 1.458E-11
DataValue, 0.18, 3.0100000000000003E-12
DataValue, 0.19, 1.613E-11
DataValue, 0.2, 1.5E-12
DataValue, 0.21, 1.75E-11
DataValue, 0.22, 9.1000000000000016E-13
DataValue, 0.23, 1.781E-11
DataValue, 0.24, 1.08E-12
DataValue, 0.25, 1.746E-11
DataValue, 0.26, 1.8200000000000003E-12
DataValue, 0.27, 1.6230000000000002E-11
DataValue, 0.28, 3.1200000000000004E-12
DataValue, 0.29, 1.3450000000000001E-11
DataValue, 0.3, 6.56E-12
DataValue, 0.31, 1.126E-11
DataValue, 0.32, 8.3700000000000009E-12
DataValue, 0.33, 9.8900000000000009E-12
DataValue, 0.34, 8.94E-12
DataValue, 0.35000000000000003, 9.94E-12
DataValue, 0.36, 9.13E-12
DataValue, 0.37, 9.64E-12
DataValue, 0.38, 9.7300000000000016E-12
DataValue, 0.39, 9.9900000000000009E-12
DataValue, 0.4, 9.76E-12
DataValue, 0.41000000000000003, 8.7100000000000015E-12
DataValue, 0.42, 1.046E-11
DataValue, 0.43, 9.27E-12
DataValue, 0.44, 1.017E-11
DataValue, 0.45, 8.1000000000000014E-12
DataValue, 0.46, 1.2060000000000002E-11
DataValue, 0.47000000000000003, 6.55E-12
DataValue, 0.48, 1.342E-11
DataValue, 0.49, 4.83E-12
DataValue, 0.5, 1.497E-11
DataValue, 0.51, 2.9600000000000003E-12
DataValue, 0.52, 1.6560000000000002E-11
DataValue, 0.53, 3.2E-12
DataValue, 0.54, 1.621E-11
DataValue, 0.55, 2.3200000000000002E-12
DataValue, 0.56, 1.7690000000000002E-11
DataValue, 0.57000000000000006, 1.1100000000000001E-12
DataValue, 0.58, 1.846E-11
DataValue, 0.59, 7E-13
DataValue, 0.6, 1.8110000000000003E-11
DataValue, 0.61, 1.7500000000000002E-12
DataValue, 0.62, 1.633E-11
DataValue, 0.63, 4.79E-12
DataValue, 0.64, 1.3080000000000002E-11
DataValue, 0.65, 7.27E-12
DataValue, 0.66, 1.1320000000000001E-11
DataValue, 0.67, 9.2000000000000012E-12
DataValue, 0.68, 1.0020000000000001E-11
DataValue, 0.69000000000000006, 9.43E-12
DataValue, 0.70000000000000007, 1.0130000000000002E-11
DataValue, 0.71, 9.63E-12
DataValue, 0.72, 9.8900000000000009E-12
DataValue, 0.73, 1.027E-11
DataValue, 0.74, 9.43E-12
DataValue, 0.75, 1.059E-11
DataValue, 0.76, 9.0100000000000014E-12
DataValue, 0.77, 1.1450000000000002E-11
DataValue, 0.78, 7.93E-12
DataValue, 0.79, 1.2060000000000002E-11
DataValue, 0.8, 6.3400000000000009E-12
DataValue, 0.81, 1.482E-11
DataValue, 0.82000000000000006, 3.6200000000000003E-12
DataValue, 0.83000000000000007, 1.682E-11
DataValue, 0.84, 2.31E-12
DataValue, 0.85, 1.7870000000000002E-11
DataValue, 0.86, 1.6700000000000002E-12
DataValue, 0.87, 1.695E-11
DataValue, 0.88, 1.7000000000000002E-12
DataValue, 0.89, 1.804E-11
DataValue, 0.9, 1.03E-12
DataValue, 0.91, 1.839E-11
DataValue, 0.92, 1.51E-12
DataValue, 0.93, 1.837E-11
DataValue, 0.94000000000000006, 1.8100000000000002E-12
DataValue, 0.95000000000000007, 1.824E-11
DataValue, 0.96, 1.88E-12
DataValue, 0.97, 1.699E-11
DataValue, 0.98, 3.1700000000000004E-12
DataValue, 0.99, 1.566E-11
DataValue, 1, 6.14E-12
DataValue, 1.01, 1.199E-11
DataValue, 1.02, 8.580000000000001E-12
DataValue, 1.03, 1.0820000000000001E-11
DataValue, 1.04, 1.0230000000000001E-11
DataValue, 1.05, 1.058E-11
DataValue, 1.06, 1.0210000000000001E-11
DataValue, 1.07, 1.0420000000000001E-11
DataValue, 1.08, 1.004E-11
DataValue, 1.09, 1.0300000000000001E-11
DataValue, 1.1, 1.068E-11
DataValue, 1.11, 9.6200000000000014E-12
DataValue, 1.12, 1.1620000000000001E-11
DataValue, 1.1300000000000001, 8.86E-12
DataValue, 1.1400000000000001, 1.208E-11
DataValue, 1.1500000000000001, 7.0400000000000007E-12
DataValue, 1.16, 1.065E-11
DataValue, 1.17, 9.7000000000000011E-12
DataValue, 1.18, 1.177E-11
DataValue, 1.19, 8.26E-12
DataValue, 1.2, 1.362E-11
DataValue, 1.21, 6.0800000000000008E-12
DataValue, 1.22, 1.5720000000000002E-11
DataValue, 1.23, 4.78E-12
DataValue, 1.24, 1.672E-11
DataValue, 1.25, 2.95E-12
DataValue, 1.26, 1.79E-11
DataValue, 1.27, 1.8000000000000002E-12
DataValue, 1.28, 1.917E-11
DataValue, 1.29, 1.8700000000000003E-12
DataValue, 1.3, 1.8980000000000002E-11
DataValue, 1.31, 2.01E-12
DataValue, 1.32, 1.8400000000000002E-11
DataValue, 1.33, 2.16E-12
DataValue, 1.34, 1.7710000000000003E-11
DataValue, 1.35, 3.66E-12
DataValue, 1.36, 1.6980000000000002E-11
DataValue, 1.37, 5.7300000000000008E-12
DataValue, 1.3800000000000001, 1.351E-11
DataValue, 1.3900000000000001, 8.64E-12
DataValue, 1.4000000000000001, 1.181E-11
DataValue, 1.41, 9.900000000000001E-12
DataValue, 1.42, 1.098E-11
DataValue, 1.43, 1.0500000000000001E-11
DataValue, 1.44, 1.129E-11
DataValue, 1.45, 1.027E-11
DataValue, 1.46, 1.1430000000000001E-11
DataValue, 1.47, 1.065E-11
DataValue, 1.48, 1.1330000000000001E-11
DataValue, 1.49, 1.057E-11
DataValue, 1.5, 1.109E-11
DataValue, 1.51, 1.058E-11
DataValue, 1.52, 1.14E-11
DataValue, 1.53, 1.1350000000000002E-11
DataValue, 1.54, 1.078E-11
DataValue, 1.55, 1.179E-11
DataValue, 1.56, 9.8100000000000012E-12
DataValue, 1.57, 1.252E-11
DataValue, 1.58, 8.82E-12
DataValue, 1.59, 1.3970000000000001E-11
DataValue, 1.6, 7.02E-12
DataValue, 1.61, 1.2780000000000002E-11
DataValue, 1.62, 7.970000000000001E-12
DataValue, 1.6300000000000001, 1.4740000000000002E-11
DataValue, 1.6400000000000001, 7.0500000000000009E-12
DataValue, 1.6500000000000001, 1.588E-11
DataValue, 1.6600000000000001, 4.93E-12
DataValue, 1.67, 1.8000000000000002E-11
DataValue, 1.68, 3.3E-12
DataValue, 1.69, 1.921E-11
DataValue, 1.7, 2.7100000000000004E-12
DataValue, 1.71, 1.936E-11
DataValue, 1.72, 2.31E-12
DataValue, 1.73, 1.9400000000000002E-11
DataValue, 1.74, 3.4500000000000004E-12
DataValue, 1.75, 1.83E-11
DataValue, 1.76, 5.2000000000000005E-12
DataValue, 1.77, 1.63E-11
DataValue, 1.78, 7.770000000000001E-12
DataValue, 1.79, 1.3870000000000001E-11
DataValue, 1.8, 9.34E-12
DataValue, 1.81, 1.2870000000000002E-11
DataValue, 1.82, 1.087E-11
DataValue, 1.83, 1.2060000000000002E-11
DataValue, 1.84, 1.106E-11
DataValue, 1.85, 1.19E-11
DataValue, 1.86, 1.14E-11
DataValue, 1.87, 1.1870000000000002E-11
DataValue, 1.8800000000000001, 1.1960000000000002E-11
DataValue, 1.8900000000000001, 1.147E-11
DataValue, 1.9000000000000001, 1.1950000000000001E-11
DataValue, 1.9100000000000001, 1.1010000000000001E-11
DataValue, 1.92, 1.3090000000000002E-11
DataValue, 1.93, 9.46E-12
DataValue, 1.94, 1.3800000000000002E-11
DataValue, 1.95, 1.017E-11
DataValue, 1.96, 1.19E-11
DataValue, 1.97, 1.2060000000000002E-11
DataValue, 1.98, 1.27E-11
DataValue, 1.99, 1.1110000000000001E-11
DataValue, 2, 1.322E-11
DataValue, 2.0100000000000002, 1.016E-11
DataValue, 2.02, 1.412E-11
DataValue, 2.0300000000000002, 8.380000000000001E-12
DataValue, 2.04, 1.5450000000000002E-11
DataValue, 2.05, 6.5800000000000006E-12
DataValue, 2.06, 1.7400000000000003E-11
DataValue, 2.07, 5.24E-12
DataValue, 2.08, 1.8670000000000002E-11
DataValue, 2.09, 3.7800000000000005E-12
DataValue, 2.1, 2.0530000000000002E-11
DataValue, 2.11, 2.95E-12
DataValue, 2.12, 2.0420000000000002E-11
DataValue, 2.13, 3.2600000000000002E-12
DataValue, 2.14, 2.014E-11
DataValue, 2.15, 4.9100000000000007E-12
DataValue, 2.16, 1.8360000000000002E-11
DataValue, 2.17, 6.91E-12
DataValue, 2.18, 1.628E-11
DataValue, 2.19, 9.36E-12
DataValue, 2.2, 1.3860000000000001E-11
DataValue, 2.21, 6.3800000000000007E-12
DataValue, 2.22, 1.6850000000000002E-11
DataValue, 2.23, 8.54E-12
DataValue, 2.24, 1.493E-11
DataValue, 2.25, 1.1230000000000001E-11
DataValue, 2.2600000000000002, 1.3240000000000001E-11
DataValue, 2.27, 1.201E-11
DataValue, 2.2800000000000002, 1.262E-11
DataValue, 2.29, 1.2470000000000002E-11
DataValue, 2.3000000000000003, 1.2840000000000001E-11
DataValue, 2.31, 1.26E-11
DataValue, 2.32, 1.2980000000000002E-11
DataValue, 2.33, 1.269E-11
DataValue, 2.34, 1.279E-11
DataValue, 2.35, 1.312E-11
DataValue, 2.36, 1.218E-11
DataValue, 2.37, 1.3250000000000001E-11
DataValue, 2.38, 1.1450000000000002E-11
DataValue, 2.39, 1.3800000000000002E-11
DataValue, 2.4, 1.1760000000000002E-11
DataValue, 2.41, 1.3980000000000001E-11
DataValue, 2.42, 1.0630000000000001E-11
DataValue, 2.43, 1.575E-11
DataValue, 2.44, 9.6000000000000011E-12
DataValue, 2.45, 1.63E-11
DataValue, 2.46, 7.94E-12
DataValue, 2.47, 1.8620000000000003E-11
DataValue, 2.48, 6.04E-12
DataValue, 2.49, 1.977E-11
DataValue, 2.5, 4.72E-12
DataValue, 2.5100000000000002, 2.09E-11
DataValue, 2.52, 4.46E-12
DataValue, 2.5300000000000002, 2.183E-11
DataValue, 2.54, 4.3000000000000007E-12
DataValue, 2.5500000000000003, 2.1400000000000002E-11
DataValue, 2.56, 4.9000000000000005E-12
DataValue, 2.57, 2.007E-11
DataValue, 2.58, 7.1500000000000008E-12
DataValue, 2.59, 1.761E-11
DataValue, 2.6, 9.8100000000000012E-12
DataValue, 2.61, 1.524E-11
DataValue, 2.62, 1.189E-11
DataValue, 2.63, 1.424E-11
DataValue, 2.64, 1.2860000000000001E-11
DataValue, 2.65, 1.4000000000000002E-11
DataValue, 2.66, 1.311E-11
DataValue, 2.67, 1.393E-11
DataValue, 2.68, 1.31E-11
DataValue, 2.69, 1.403E-11
DataValue, 2.7, 1.3350000000000001E-11
DataValue, 2.71, 1.3580000000000002E-11
DataValue, 2.72, 1.3260000000000001E-11
DataValue, 2.73, 1.383E-11
DataValue, 2.74, 1.3890000000000002E-11
DataValue, 2.75, 1.3570000000000001E-11
DataValue, 2.7600000000000002, 1.4360000000000001E-11
DataValue, 2.77, 1.252E-11
DataValue, 2.7800000000000002, 1.5250000000000002E-11
DataValue, 2.79, 1.1520000000000001E-11
DataValue, 2.8000000000000003, 1.6560000000000002E-11
DataValue, 2.81, 9.76E-12
DataValue, 2.82, 1.8800000000000002E-11
DataValue, 2.83, 8.03E-12
DataValue, 2.84, 1.9950000000000003E-11
DataValue, 2.85, 6.3900000000000008E-12
DataValue, 2.86, 2.1680000000000003E-11
DataValue, 2.87, 7.35E-12
DataValue, 2.88, 2.1110000000000002E-11
DataValue, 2.89, 5.59E-12
DataValue, 2.9, 2.2330000000000002E-11
DataValue, 2.91, 5.14E-12
DataValue, 2.92, 2.254E-11
DataValue, 2.93, 5.2600000000000006E-12
DataValue, 2.94, 2.172E-11
DataValue, 2.95, 6.8300000000000006E-12
DataValue, 2.96, 2.001E-11
DataValue, 2.97, 9.26E-12
DataValue, 2.98, 1.8020000000000003E-11
DataValue, 2.99, 1.167E-11
DataValue, 3, 1.6160000000000002E-11
DataValue, 3.0100000000000002, 1.3600000000000002E-11
DataValue, 3.02, 1.5010000000000002E-11
DataValue, 3.0300000000000002, 1.4200000000000002E-11
DataValue, 3.04, 1.4960000000000002E-11
DataValue, 3.0500000000000003, 1.442E-11
DataValue, 3.06, 1.511E-11
DataValue, 3.0700000000000003, 1.4380000000000001E-11
DataValue, 3.08, 1.49E-11
DataValue, 3.09, 1.479E-11
DataValue, 3.1, 1.498E-11
DataValue, 3.11, 1.504E-11
DataValue, 3.12, 1.4480000000000001E-11
DataValue, 3.13, 1.508E-11
DataValue, 3.14, 1.475E-11
DataValue, 3.15, 1.542E-11
DataValue, 3.16, 1.404E-11
DataValue, 3.17, 1.635E-11
DataValue, 3.18, 1.2770000000000002E-11
DataValue, 3.19, 1.7980000000000002E-11
DataValue, 3.2, 1.27E-11
DataValue, 3.21, 1.75E-11
DataValue, 3.22, 1.1340000000000001E-11
DataValue, 3.23, 1.923E-11
DataValue, 3.24, 9.8200000000000014E-12
DataValue, 3.25, 2.1680000000000003E-11
DataValue, 3.2600000000000002, 7.85E-12
DataValue, 3.27, 2.28E-11
DataValue, 3.2800000000000002, 6.6300000000000006E-12
DataValue, 3.29, 2.3430000000000003E-11
DataValue, 3.3000000000000003, 6.1300000000000007E-12
DataValue, 0, 3.9000000000000005E-13
DataValue, 0.01, 1.7580000000000002E-11
DataValue, 0.02, 7E-13
DataValue, 0.03, 1.732E-11
DataValue, 0.04, 1.37E-12
DataValue, 0.05, 1.621E-11
DataValue, 0.06, 3.0800000000000002E-12
DataValue, 0.07, 1.3970000000000001E-11
DataValue, 0.08, 5.58E-12
DataValue, 0.09, 1.1850000000000001E-11
DataValue, 0.1, 7.8E-12
DataValue, 0.11, 1.0200000000000001E-11
DataValue, 0.12, 8.55E-12
DataValue, 0.13, 9.78E-12
DataValue, 0.14, 8.87E-12
DataValue, 0.15, 9.26E-12
DataValue, 0.16, 9.58E-12
DataValue, 0.17, 9.3200000000000015E-12
DataValue, 0.18, 9.58E-12
DataValue, 0.19, 9.26E-12
DataValue, 0.2, 1.0100000000000001E-11
DataValue, 0.21, 8.55E-12
DataValue, 0.22, 1.1030000000000001E-11
DataValue, 0.23, 7.2500000000000008E-12
DataValue, 0.24, 1.2240000000000001E-11
DataValue, 0.25, 5.8800000000000008E-12
DataValue, 0.26, 1.026E-11
DataValue, 0.27, 9.7200000000000014E-12
DataValue, 0.28, 9.77E-12
DataValue, 0.29, 8.8800000000000009E-12
DataValue, 0.3, 1.0920000000000001E-11
DataValue, 0.31, 9.45E-12
DataValue, 0.32, 9.900000000000001E-12
DataValue, 0.33, 8.85E-12
DataValue, 0.34, 1.069E-11
DataValue, 0.35000000000000003, 8.24E-12
DataValue, 0.36, 1.117E-11
DataValue, 0.37, 7.1900000000000007E-12
DataValue, 0.38, 1.2460000000000001E-11
DataValue, 0.39, 6.2400000000000009E-12
DataValue, 0.4, 1.3370000000000001E-11
DataValue, 0.41000000000000003, 4.5000000000000006E-12
DataValue, 0.42, 1.597E-11
DataValue, 0.43, 2.46E-12
DataValue, 0.44, 1.7200000000000003E-11
DataValue, 0.45, 1.2000000000000001E-12
DataValue, 0.46, 1.832E-11
DataValue, 0.47000000000000003, 9.6000000000000015E-13
DataValue, 0.48, 1.841E-11
DataValue, 0.49, 1.3500000000000001E-12
DataValue, 0.5, 1.8000000000000002E-11
DataValue, 0.51, 1.8700000000000003E-12
DataValue, 0.52, 1.626E-11
DataValue, 0.53, 3.4400000000000003E-12
DataValue, 0.54, 1.4170000000000001E-11
DataValue, 0.55, 6.6800000000000006E-12
DataValue, 0.56, 1.201E-11
DataValue, 0.57000000000000006, 8.73E-12
DataValue, 0.58, 1.0830000000000001E-11
DataValue, 0.59, 9.48E-12
