
SetupTitle, PMOS-id-vd-vgs@vbs=3.3
PrimitiveTest, I/V Sweep
TestParameter, Context.MainFrame, B1500A
TestParameter, Channel.UnitType, SMU, SMU, SMU, SMU
TestParameter, Channel.Unit, SMU2:HR, SMU1:HR, SMU3:HR, SMU4:HR
TestParameter, Channel.IName, ib, is, ig, id
TestParameter, Channel.VName, vb, vs, vg, vd
TestParameter, Channel.Mode, V, COMMON, V, V
TestParameter, Channel.Func, CONST, CONST, VAR2, VAR1
TestParameter, Channel.Index, 
TestParameter, Channel.Time, 
TestParameter, Measurement.Port.Unit, SMU2:HR, SMU1:HR, SMU3:HR, SMU4:HR
TestParameter, Measurement.Port.SeriesResistor, NONE, NONE, NONE, NONE
TestParameter, Measurement.Port.Filter, ON, ON, ON, ON
TestParameter, Measurement.Port.OutputVoltageComparison, 0, 0, 0, 0
TestParameter, Measurement.Primary.Locus, Single
TestParameter, Measurement.Primary.Scale, LINEAR
TestParameter, Measurement.Primary.Start, 0
TestParameter, Measurement.Primary.Stop, -3.3000000000000003
TestParameter, Measurement.Primary.Step, -0.01
TestParameter, Measurement.Primary.Compliance, 0.1
TestParameter, Measurement.Primary.PowerCompliance, 0
TestParameter, Measurement.Aborting.Condition, SKIP AT ANY ABNORMAL
TestParameter, Measurement.PostOutput.Value, START
TestParameter, Measurement.PostOutput.Retention, OFF
TestParameter, Measurement.Secondary.Start, -0.3
TestParameter, Measurement.Secondary.Count, 6
TestParameter, Measurement.Secondary.Step, -0.6
TestParameter, Measurement.Secondary.Compliance, 0.1
TestParameter, Measurement.Secondary.PowerCompliance, 0
TestParameter, Measurement.Bias.Source, 3.3000000000000003, 0, -0.3, 0
TestParameter, Measurement.Bias.Compliance, 0.1, 0.1, 0.1, 0.1
TestParameter, Measurement.Monitor.Unit, SMU2:HR, SMU1:HR, SMU3:HR, SMU4:HR
TestParameter, Measurement.Monitor.Adc, HR ADC, HR ADC, HR ADC, HR ADC
TestParameter, Measurement.Monitor.Measurement, Compliance Side, Compliance Side, Compliance Side, Compliance Side
TestParameter, Measurement.Monitor.RangingMode, LIMITED, LIMITED, LIMITED, LIMITED
TestParameter, Measurement.Monitor.RangeBoundary, 1nA, 1nA, 1nA, 1nA
TestParameter, Measurement.Monitor.RangeRating, BY FULL RANGE, BY FULL RANGE, BY FULL RANGE, BY FULL RANGE
TestParameter, Measurement.Monitor.RangeRatingCoeff, 50, 50, 50, 50
TestParameter, Measurement.Timing.Hold, 0
TestParameter, Measurement.Timing.Delay, 0
TestParameter, Measurement.Adc.HighSpeed.Mode, AUTO
TestParameter, Measurement.Adc.HighSpeed.Coeff, 1
TestParameter, Measurement.Adc.HighResolution.AutoZero, OFF
TestParameter, Measurement.Adc.HighResolution.Mode, AUTO
TestParameter, Measurement.Adc.HighResolution.Coeff, 6
TestParameter, Measurement.WaitTime.Source.Coeff, 1
TestParameter, Measurement.WaitTime.Source.Offset, 0
TestParameter, Measurement.WaitTime.Monitor.Coeff, 1
TestParameter, Measurement.WaitTime.Monitor.Offset, 0
TestParameter, Output.Graph.Enabled, true
TestParameter, Output.Graph.AutoScaling, false
TestParameter, Output.Graph.XAxis.Data, vd
TestParameter, Output.Graph.XAxis.Scale, Linear
TestParameter, Output.Graph.XAxis.Left, 0
TestParameter, Output.Graph.XAxis.Right, 1
TestParameter, Output.Graph.XAxis.RunTimeAutoScale, true
TestParameter, Output.Graph.YAxis.Data, id
TestParameter, Output.Graph.YAxis.Scale, Linear
TestParameter, Output.Graph.YAxis.Bottom, -0.1
TestParameter, Output.Graph.YAxis.Top, 0.1
TestParameter, Output.Graph.YAxis.Group, 
TestParameter, Output.Graph.YAxis.RunTimeAutoScale, true
TestParameter, AutoAnalysis.Interpolation, false
TestParameter, AutoAnalysis.Var2StepCount, 1
TestParameter, AutoAnalysis.Var2StepScript, 
TestParameter, AutoAnalysis.Line1.Enabled, false
TestParameter, AutoAnalysis.Line1.Type, 1
TestParameter, AutoAnalysis.Line1.Fix, True
TestParameter, AutoAnalysis.Line1.YAxis, 0
TestParameter, AutoAnalysis.Line1.Point1.Type, 0
TestParameter, AutoAnalysis.Line1.Point1.XY.X, 
TestParameter, AutoAnalysis.Line1.Point1.XY.Y, 
TestParameter, AutoAnalysis.Line1.Point1.Data.Var, 
TestParameter, AutoAnalysis.Line1.Point1.Data.Condition, 
TestParameter, AutoAnalysis.Line1.Point1.Data.Start, false
TestParameter, AutoAnalysis.Line1.Point1.Data.StartVar, 
TestParameter, AutoAnalysis.Line1.Point1.Data.StartCondition, 
TestParameter, AutoAnalysis.Line1.Point2.Type, 0
TestParameter, AutoAnalysis.Line1.Point2.XY.X, 
TestParameter, AutoAnalysis.Line1.Point2.XY.Y, 
TestParameter, AutoAnalysis.Line1.Point2.Data.Var, 
TestParameter, AutoAnalysis.Line1.Point2.Data.Condition, 
TestParameter, AutoAnalysis.Line1.Point2.Data.Start, false
TestParameter, AutoAnalysis.Line1.Point2.Data.StartVar, 
TestParameter, AutoAnalysis.Line1.Point2.Data.StartCondition, 
TestParameter, AutoAnalysis.Line1.GradientExpr, 0
TestParameter, AutoAnalysis.Line2.Enabled, false
TestParameter, AutoAnalysis.Line2.Type, 1
TestParameter, AutoAnalysis.Line2.Fix, True
TestParameter, AutoAnalysis.Line2.YAxis, 0
TestParameter, AutoAnalysis.Line2.Point1.Type, 0
TestParameter, AutoAnalysis.Line2.Point1.XY.X, 
TestParameter, AutoAnalysis.Line2.Point1.XY.Y, 
TestParameter, AutoAnalysis.Line2.Point1.Data.Var, 
TestParameter, AutoAnalysis.Line2.Point1.Data.Condition, 
TestParameter, AutoAnalysis.Line2.Point1.Data.Start, false
TestParameter, AutoAnalysis.Line2.Point1.Data.StartVar, 
TestParameter, AutoAnalysis.Line2.Point1.Data.StartCondition, 
TestParameter, AutoAnalysis.Line2.Point2.Type, 0
TestParameter, AutoAnalysis.Line2.Point2.XY.X, 
TestParameter, AutoAnalysis.Line2.Point2.XY.Y, 
TestParameter, AutoAnalysis.Line2.Point2.Data.Var, 
TestParameter, AutoAnalysis.Line2.Point2.Data.Condition, 
TestParameter, AutoAnalysis.Line2.Point2.Data.Start, false
TestParameter, AutoAnalysis.Line2.Point2.Data.StartVar, 
TestParameter, AutoAnalysis.Line2.Point2.Data.StartCondition, 
TestParameter, AutoAnalysis.Line2.GradientExpr, 0
TestParameter, AutoAnalysis.Marker.Enabled, false
TestParameter, AutoAnalysis.Marker.Data.Var, 
TestParameter, AutoAnalysis.Marker.Data.Condition, 
TestParameter, AutoAnalysis.Marker.Data.Start, false
TestParameter, AutoAnalysis.Marker.Data.StartVar, 
TestParameter, AutoAnalysis.Marker.Data.StartCondition, 
MetaData, TestRecord.EntryPoint, true
MetaData, TestRecord.RecordTime, 01/16/2024 16:39:31
MetaData, TestRecord.TestTarget, P-0.22-0.35-298K
MetaData, TestRecord.IterationIndex, 3
MetaData, TestRecord.Preservation, true
MetaData, TestRecord.Flag, 
MetaData, TestRecord.Remarks, 
MetaData, TestRecord.LinkKey, 7ff5fac7-eb5e-49ff-ace1-83df529f3c9a
MetaData, TestRecord.Parameters, 
Dimension1, 331, 331
Dimension2, 6, 6
DataName, vd, id
DataValue, 0, -8.85E-12
DataValue, -0.01, 4.89E-12
DataValue, -0.02, -1.0010000000000001E-11
DataValue, -0.03, 6.2300000000000007E-12
DataValue, -0.04, -1.078E-11
DataValue, -0.05, 6.0600000000000004E-12
DataValue, -0.06, -1.097E-11
DataValue, -0.07, 5.6800000000000008E-12
DataValue, -0.08, -1.0540000000000002E-11
DataValue, -0.09, 5.08E-12
DataValue, -0.1, -9.13E-12
DataValue, -0.11, 2.9100000000000003E-12
DataValue, -0.12, -6.2400000000000009E-12
DataValue, -0.13, 6.400000000000001E-13
DataValue, -0.14, -4.73E-12
DataValue, -0.15, -1.36E-12
DataValue, -0.16, -3.1600000000000003E-12
DataValue, -0.17, -1.5600000000000002E-12
DataValue, -0.18, -2.39E-12
DataValue, -0.19, -1.98E-12
DataValue, -0.2, -2.8400000000000004E-12
DataValue, -0.21, -2.1000000000000003E-12
DataValue, -0.22, -2.3800000000000004E-12
DataValue, -0.23, -1.9700000000000003E-12
DataValue, -0.24, -2.51E-12
DataValue, -0.25, -2.08E-12
DataValue, -0.26, -2.52E-12
DataValue, -0.27, -2.6600000000000004E-12
DataValue, -0.28, -2.64E-12
DataValue, -0.29, -2.5800000000000003E-12
DataValue, -0.3, -2.09E-12
DataValue, -0.31, -3.25E-12
DataValue, -0.32, -1.55E-12
DataValue, -0.33, -3.53E-12
DataValue, -0.34, -1.03E-12
DataValue, -0.35000000000000003, -4.4000000000000006E-12
DataValue, -0.36, 4.6000000000000006E-13
DataValue, -0.37, -5.95E-12
DataValue, -0.38, 1.73E-12
DataValue, -0.39, -7.2500000000000008E-12
DataValue, -0.4, 3.2700000000000004E-12
DataValue, -0.41000000000000003, -8.75E-12
DataValue, -0.42, 5.1000000000000005E-12
DataValue, -0.43, -1.0240000000000002E-11
DataValue, -0.44, 6.2E-12
DataValue, -0.45, -1.067E-11
DataValue, -0.46, 6.1E-12
DataValue, -0.47000000000000003, -1.1230000000000001E-11
DataValue, -0.48, 5.8600000000000005E-12
DataValue, -0.49, -1.0700000000000001E-11
DataValue, -0.5, 5.4200000000000007E-12
DataValue, -0.51, -9.15E-12
DataValue, -0.52, 3.3400000000000003E-12
DataValue, -0.53, -7.64E-12
DataValue, -0.54, 1.3900000000000001E-12
DataValue, -0.55, -5.2100000000000006E-12
DataValue, -0.56, -8.7E-13
DataValue, -0.57000000000000006, -3.2700000000000004E-12
DataValue, -0.58, -2.34E-12
DataValue, -0.59, -2.9100000000000003E-12
DataValue, -0.6, -1.93E-12
DataValue, -0.61, -2.42E-12
DataValue, -0.62, -2.28E-12
DataValue, -0.63, -2.67E-12
DataValue, -0.64, -2.5800000000000003E-12
DataValue, -0.65, -2.74E-12
DataValue, -0.66, -2.6000000000000002E-12
DataValue, -0.67, -2.5000000000000003E-12
DataValue, -0.68, -3.2700000000000004E-12
DataValue, -0.69000000000000006, -1.79E-12
DataValue, -0.70000000000000007, -3.66E-12
DataValue, -0.71, -7.2000000000000006E-13
DataValue, -0.72, -4.83E-12
DataValue, -0.73, 2.87E-12
DataValue, -0.74, -1.118E-11
DataValue, -0.75, 6.2200000000000006E-12
DataValue, -0.76, -1.0740000000000002E-11
DataValue, -0.77, 3.4500000000000004E-12
DataValue, -0.78, -4.23E-12
DataValue, -0.79, -1.6300000000000001E-12
DataValue, -0.8, -3.1700000000000004E-12
DataValue, -0.81, -2.3000000000000003E-12
DataValue, -0.82000000000000006, -3.33E-12
DataValue, -0.83000000000000007, -2.26E-12
DataValue, -0.84, -3.0100000000000003E-12
DataValue, -0.85, -2.36E-12
DataValue, -0.86, -2.3000000000000003E-12
DataValue, -0.87, -2.34E-12
DataValue, -0.88, -2.1700000000000002E-12
DataValue, -0.89, -2.8E-12
DataValue, -0.9, -2.3200000000000002E-12
DataValue, -0.91, -2.8300000000000003E-12
DataValue, -0.92, -1.8900000000000002E-12
DataValue, -0.93, -3.6000000000000004E-12
DataValue, -0.94000000000000006, -5E-13
DataValue, -0.95000000000000007, -4.72E-12
DataValue, -0.96, 5.7E-13
DataValue, -0.97, -6.3900000000000008E-12
DataValue, -0.98, 2.19E-12
DataValue, -0.99, -8.31E-12
DataValue, -1, 4.07E-12
DataValue, -1.01, -9.6100000000000013E-12
DataValue, -1.02, 4.89E-12
DataValue, -1.03, -1.106E-11
DataValue, -1.04, 6.04E-12
DataValue, -1.05, -1.106E-11
DataValue, -1.06, 6.0600000000000004E-12
DataValue, -1.07, -1.108E-11
DataValue, -1.08, 5.49E-12
DataValue, -1.09, -9.900000000000001E-12
DataValue, -1.1, 6.3E-12
DataValue, -1.11, -1.0950000000000002E-11
DataValue, -1.12, 5.63E-12
DataValue, -1.1300000000000001, -1.058E-11
DataValue, -1.1400000000000001, 5.1600000000000006E-12
DataValue, -1.1500000000000001, -9.24E-12
DataValue, -1.16, 2.92E-12
DataValue, -1.17, -7.7900000000000013E-12
DataValue, -1.18, 1.04E-12
DataValue, -1.19, -5.18E-12
DataValue, -1.2, -1.0100000000000001E-12
DataValue, -1.21, -3.25E-12
DataValue, -1.22, -2.01E-12
DataValue, -1.23, -3.18E-12
DataValue, -1.24, -2.4500000000000003E-12
DataValue, -1.25, -2.7100000000000004E-12
DataValue, -1.26, -2.72E-12
DataValue, -1.27, -2.9100000000000003E-12
DataValue, -1.28, -2.8900000000000004E-12
DataValue, -1.29, -2.1200000000000003E-12
DataValue, -1.3, -3.1200000000000004E-12
DataValue, -1.31, -1.88E-12
DataValue, -1.32, -3.4500000000000004E-12
DataValue, -1.33, -9.8E-13
DataValue, -1.34, -5.2600000000000006E-12
DataValue, -1.35, -7E-14
DataValue, -1.36, -6.66E-12
DataValue, -1.37, 2.46E-12
DataValue, -1.3800000000000001, -8.3900000000000012E-12
DataValue, -1.3900000000000001, 3.87E-12
DataValue, -1.4000000000000001, -9.6200000000000014E-12
DataValue, -1.41, 5.2100000000000006E-12
DataValue, -1.42, -1.1210000000000001E-11
DataValue, -1.43, 5.7600000000000005E-12
DataValue, -1.44, -1.117E-11
DataValue, -1.45, 5.95E-12
DataValue, -1.46, -1.106E-11
DataValue, -1.47, 5.2700000000000008E-12
DataValue, -1.48, -1.1050000000000002E-11
DataValue, -1.49, 5.29E-12
DataValue, -1.5, -9.98E-12
DataValue, -1.51, 5.7800000000000008E-12
DataValue, -1.52, -1.137E-11
DataValue, -1.53, 2.77E-12
DataValue, -1.54, -4.01E-12
DataValue, -1.55, -2.7600000000000004E-12
DataValue, -1.56, -2.7100000000000004E-12
DataValue, -1.57, -2.5600000000000004E-12
DataValue, -1.58, -2.9400000000000004E-12
DataValue, -1.59, -3.02E-12
DataValue, -1.6, -2.44E-12
DataValue, -1.61, -3.3E-12
DataValue, -1.62, -2.34E-12
DataValue, -1.6300000000000001, -4.06E-12
DataValue, -1.6400000000000001, -1.2900000000000002E-12
DataValue, -1.6500000000000001, -4.88E-12
DataValue, -1.6600000000000001, -4.8000000000000008E-13
DataValue, -1.67, -6.1700000000000006E-12
DataValue, -1.68, 1.46E-12
DataValue, -1.69, -4.37E-12
DataValue, -1.7, -4.4000000000000004E-13
DataValue, -1.71, -5.58E-12
DataValue, -1.72, 1.5800000000000001E-12
DataValue, -1.73, -8.41E-12
DataValue, -1.74, 2.9400000000000004E-12
DataValue, -1.75, -9.76E-12
DataValue, -1.76, 4.58E-12
DataValue, -1.77, -1.0640000000000002E-11
DataValue, -1.78, 5.6100000000000005E-12
DataValue, -1.79, -1.1020000000000001E-11
DataValue, -1.8, 5.7100000000000005E-12
DataValue, -1.81, -1.1440000000000001E-11
DataValue, -1.82, 5.6E-12
DataValue, -1.83, -1.1410000000000001E-11
DataValue, -1.84, 5.6800000000000008E-12
DataValue, -1.85, -1.1460000000000002E-11
DataValue, -1.86, 5.5E-12
DataValue, -1.87, -1.1120000000000001E-11
DataValue, -1.8800000000000001, 4.8000000000000005E-12
DataValue, -1.8900000000000001, -9.33E-12
DataValue, -1.9000000000000001, 1.95E-12
DataValue, -1.9100000000000001, -6.9000000000000009E-12
DataValue, -1.92, -3.5E-13
DataValue, -1.93, -4.02E-12
DataValue, -1.94, -2.37E-12
DataValue, -1.95, -3.4700000000000004E-12
DataValue, -1.96, -2.41E-12
DataValue, -1.97, -3.3900000000000003E-12
DataValue, -1.98, -2.57E-12
DataValue, -1.99, -3.0300000000000002E-12
DataValue, -2, -2.8600000000000003E-12
DataValue, -2.0100000000000002, -3.1700000000000004E-12
DataValue, -2.02, -2.79E-12
DataValue, -2.0300000000000002, -3.1400000000000004E-12
DataValue, -2.04, -3.25E-12
DataValue, -2.05, -2.5000000000000003E-12
DataValue, -2.06, -2.9800000000000002E-12
DataValue, -2.07, -2.69E-12
DataValue, -2.08, -3.4900000000000003E-12
DataValue, -2.09, -1.73E-12
DataValue, -2.1, -4.58E-12
DataValue, -2.11, -8.2E-13
DataValue, -2.12, -5.5200000000000007E-12
DataValue, -2.13, 3.5E-13
DataValue, -2.14, -6.96E-12
DataValue, -2.15, 1.78E-12
DataValue, -2.16, -8.44E-12
DataValue, -2.17, 3.2E-12
DataValue, -2.18, -1.0030000000000002E-11
DataValue, -2.19, 4.77E-12
DataValue, -2.2, -1.11E-11
DataValue, -2.21, 5.07E-12
DataValue, -2.22, -1.16E-11
DataValue, -2.23, 5.3200000000000008E-12
DataValue, -2.24, -1.13E-11
DataValue, -2.25, 5.1700000000000008E-12
DataValue, -2.2600000000000002, -1.1210000000000001E-11
DataValue, -2.27, 3.81E-12
DataValue, -2.2800000000000002, -9.57E-12
DataValue, -2.29, 2.13E-12
DataValue, -2.3000000000000003, -7.0500000000000009E-12
DataValue, -2.31, -1.0000000000000002E-14
DataValue, -2.32, -5.02E-12
DataValue, -2.33, -2.85E-12
DataValue, -2.34, -3.66E-12
DataValue, -2.35, -2.8400000000000004E-12
DataValue, -2.36, -3.51E-12
DataValue, -2.37, -3.2700000000000004E-12
DataValue, -2.38, -3.38E-12
DataValue, -2.39, -3.33E-12
DataValue, -2.4, -2.6800000000000003E-12
DataValue, -2.41, -3.77E-12
DataValue, -2.42, -2.52E-12
DataValue, -2.43, -4.2000000000000007E-12
DataValue, -2.44, -1.37E-12
DataValue, -2.45, -5.3700000000000007E-12
DataValue, -2.46, -6.8E-13
DataValue, -2.47, -5.8800000000000008E-12
DataValue, -2.48, -9.2000000000000012E-13
DataValue, -2.49, -8.93E-12
DataValue, -2.5, 5.24E-12
DataValue, -2.5100000000000002, -1.1440000000000001E-11
DataValue, -2.52, 4.4000000000000006E-12
DataValue, -2.5300000000000002, -6.6400000000000008E-12
DataValue, -2.54, 3.0800000000000002E-12
DataValue, -2.5500000000000003, -8.77E-12
DataValue, -2.56, 9.4E-13
DataValue, -2.57, -7.0000000000000009E-12
DataValue, -2.58, -1.2000000000000001E-12
DataValue, -2.59, -4.41E-12
DataValue, -2.6, -2.8400000000000004E-12
DataValue, -2.61, -4.0500000000000007E-12
DataValue, -2.62, -3.3100000000000002E-12
DataValue, -2.63, -3.81E-12
DataValue, -2.64, -3.2200000000000004E-12
DataValue, -2.65, -3.5400000000000003E-12
DataValue, -2.66, -3.9900000000000006E-12
DataValue, -2.67, -3.46E-12
DataValue, -2.68, -4.1000000000000007E-12
DataValue, -2.69, -2.7300000000000003E-12
DataValue, -2.7, -4.63E-12
DataValue, -2.71, -1.6300000000000001E-12
DataValue, -2.72, -5.3700000000000007E-12
DataValue, -2.73, -3.6000000000000003E-13
DataValue, -2.74, -7.2400000000000007E-12
DataValue, -2.75, 1.4800000000000002E-12
DataValue, -2.7600000000000002, -8.94E-12
DataValue, -2.77, 3.1200000000000004E-12
DataValue, -2.7800000000000002, -1.0700000000000001E-11
DataValue, -2.79, 3.96E-12
DataValue, -2.8000000000000003, -1.1410000000000001E-11
DataValue, -2.81, 4.93E-12
DataValue, -2.82, -1.17E-11
DataValue, -2.83, 4.9100000000000007E-12
DataValue, -2.84, -1.219E-11
DataValue, -2.85, 4.8000000000000005E-12
DataValue, -2.86, -1.1970000000000002E-11
DataValue, -2.87, 4.67E-12
DataValue, -2.88, -1.178E-11
DataValue, -2.89, 4.3900000000000005E-12
DataValue, -2.9, -1.0720000000000001E-11
DataValue, -2.91, 1.9900000000000002E-12
DataValue, -2.92, -8.4700000000000009E-12
DataValue, -2.93, -1.0000000000000002E-14
DataValue, -2.94, -6.21E-12
DataValue, -2.95, -1.86E-12
DataValue, -2.96, -4.94E-12
DataValue, -2.97, -3.1400000000000004E-12
DataValue, -2.98, -4.16E-12
DataValue, -2.99, -3.3400000000000003E-12
DataValue, -3, -4.3500000000000006E-12
DataValue, -3.0100000000000002, -3.4400000000000003E-12
DataValue, -3.02, -4.03E-12
DataValue, -3.0300000000000002, -4.3000000000000007E-12
DataValue, -3.04, -2.7300000000000003E-12
DataValue, -3.0500000000000003, -4.83E-12
DataValue, -3.06, -2.1000000000000003E-12
DataValue, -3.0700000000000003, -6.04E-12
DataValue, -3.08, -1.46E-12
DataValue, -3.09, -7.1000000000000008E-12
DataValue, -3.1, -2.3000000000000003E-12
DataValue, -3.11, -5.59E-12
DataValue, -3.12, -1.3500000000000001E-12
DataValue, -3.13, -7.360000000000001E-12
DataValue, -3.14, 5.5000000000000008E-13
DataValue, -3.15, -8.84E-12
DataValue, -3.16, 2.41E-12
DataValue, -3.17, -1.048E-11
DataValue, -3.18, 3.66E-12
DataValue, -3.19, -1.1930000000000001E-11
DataValue, -3.2, 4.48E-12
DataValue, -3.21, -1.2470000000000002E-11
DataValue, -3.22, 4.7500000000000006E-12
DataValue, -3.23, -1.2170000000000002E-11
DataValue, -3.24, 4.5000000000000006E-12
DataValue, -3.25, -1.147E-11
DataValue, -3.2600000000000002, 2.7100000000000004E-12
DataValue, -3.27, -9.8000000000000011E-12
DataValue, -3.2800000000000002, 3.3E-13
DataValue, -3.29, -7.4E-12
DataValue, -3.3000000000000003, -1.91E-12
DataValue, 0, -3.1000000000000004E-13
DataValue, -0.01, -3.23E-12
DataValue, -0.02, -1.6300000000000001E-12
DataValue, -0.03, -2.8600000000000003E-12
DataValue, -0.04, -1.8700000000000003E-12
DataValue, -0.05, -2.8800000000000002E-12
DataValue, -0.06, -1.95E-12
DataValue, -0.07, -2.4000000000000003E-12
DataValue, -0.08, -2.47E-12
DataValue, -0.09, -1.9400000000000002E-12
DataValue, -0.1, -3.2E-12
DataValue, -0.11, -1.46E-12
DataValue, -0.12, -3.6400000000000006E-12
DataValue, -0.13, -5.6E-13
DataValue, -0.14, -4.6500000000000006E-12
DataValue, -0.15, 5E-13
DataValue, -0.16, -6.0300000000000008E-12
DataValue, -0.17, 2.09E-12
DataValue, -0.18, -7.0000000000000009E-12
DataValue, -0.19, 2.75E-12
DataValue, -0.2, -8.24E-12
DataValue, -0.21, 4.1500000000000007E-12
DataValue, -0.22, -9.33E-12
DataValue, -0.23, 5.64E-12
DataValue, -0.24, -1.0520000000000001E-11
DataValue, -0.25, 5.9100000000000005E-12
DataValue, -0.26, -1.0600000000000001E-11
DataValue, -0.27, 6.51E-12
DataValue, -0.28, -1.1050000000000002E-11
DataValue, -0.29, 5.8800000000000008E-12
DataValue, -0.3, -1.0440000000000002E-11
DataValue, -0.31, 5.0100000000000007E-12
DataValue, -0.32, -8.1900000000000013E-12
DataValue, -0.33, 2.2200000000000002E-12
DataValue, -0.34, -5.69E-12
DataValue, -0.35000000000000003, -6.0000000000000009E-14
DataValue, -0.36, -4.12E-12
DataValue, -0.37, -1.4E-12
DataValue, -0.38, -3.13E-12
DataValue, -0.39, -1.78E-12
DataValue, -0.4, -2.82E-12
