
SetupTitle, PMOS-id-vg-vbs@vds=-3.3
PrimitiveTest, I/V Sweep
TestParameter, Context.MainFrame, B1500A
TestParameter, Channel.UnitType, SMU, SMU, SMU, SMU
TestParameter, Channel.Unit, SMU2:HR, SMU1:HR, SMU3:HR, SMU4:HR
TestParameter, Channel.IName, ib, is, ig, id
TestParameter, Channel.VName, vb, vs, vg, vd
TestParameter, Channel.Mode, V, COMMON, V, V
TestParameter, Channel.Func, VAR2, CONST, VAR1, CONST
TestParameter, Channel.Index, 
TestParameter, Channel.Time, 
TestParameter, Measurement.Port.Unit, SMU2:HR, SMU1:HR, SMU3:HR, SMU4:HR
TestParameter, Measurement.Port.SeriesResistor, NONE, NONE, NONE, NONE
TestParameter, Measurement.Port.Filter, ON, ON, ON, ON
TestParameter, Measurement.Port.OutputVoltageComparison, 0, 0, 0, 0
TestParameter, Measurement.Primary.Locus, Single
TestParameter, Measurement.Primary.Scale, LINEAR
TestParameter, Measurement.Primary.Start, 0.5
TestParameter, Measurement.Primary.Stop, -3.3000000000000003
TestParameter, Measurement.Primary.Step, -0.01
TestParameter, Measurement.Primary.Compliance, 0.001
TestParameter, Measurement.Primary.PowerCompliance, 0
TestParameter, Measurement.Aborting.Condition, SKIP AT ANY ABNORMAL
TestParameter, Measurement.PostOutput.Value, START
TestParameter, Measurement.PostOutput.Retention, OFF
TestParameter, Measurement.Secondary.Start, 0
TestParameter, Measurement.Secondary.Count, 7
TestParameter, Measurement.Secondary.Step, 0.6
TestParameter, Measurement.Secondary.Compliance, 0.1
TestParameter, Measurement.Secondary.PowerCompliance, 0
TestParameter, Measurement.Bias.Source, 0, 0, 0.5, -3.3000000000000003
TestParameter, Measurement.Bias.Compliance, 0.1, 0.1, 0.001, 0.1
TestParameter, Measurement.Monitor.Unit, SMU2:HR, SMU1:HR, SMU3:HR, SMU4:HR
TestParameter, Measurement.Monitor.Adc, HR ADC, HR ADC, HR ADC, HR ADC
TestParameter, Measurement.Monitor.Measurement, Compliance Side, Compliance Side, Compliance Side, Compliance Side
TestParameter, Measurement.Monitor.RangingMode, LIMITED, LIMITED, LIMITED, LIMITED
TestParameter, Measurement.Monitor.RangeBoundary, 1nA, 1nA, 1nA, 1nA
TestParameter, Measurement.Monitor.RangeRating, BY FULL RANGE, BY FULL RANGE, BY FULL RANGE, BY FULL RANGE
TestParameter, Measurement.Monitor.RangeRatingCoeff, 50, 50, 50, 50
TestParameter, Measurement.Timing.Hold, 0
TestParameter, Measurement.Timing.Delay, 0
TestParameter, Measurement.Adc.HighSpeed.Mode, AUTO
TestParameter, Measurement.Adc.HighSpeed.Coeff, 1
TestParameter, Measurement.Adc.HighResolution.AutoZero, OFF
TestParameter, Measurement.Adc.HighResolution.Mode, AUTO
TestParameter, Measurement.Adc.HighResolution.Coeff, 6
TestParameter, Measurement.WaitTime.Source.Coeff, 1
TestParameter, Measurement.WaitTime.Source.Offset, 0
TestParameter, Measurement.WaitTime.Monitor.Coeff, 1
TestParameter, Measurement.WaitTime.Monitor.Offset, 0
TestParameter, Output.Graph.Enabled, true
TestParameter, Output.Graph.AutoScaling, false
TestParameter, Output.Graph.XAxis.Data, vg
TestParameter, Output.Graph.XAxis.Scale, Linear
TestParameter, Output.Graph.XAxis.Left, 0
TestParameter, Output.Graph.XAxis.Right, 0.9
TestParameter, Output.Graph.XAxis.RunTimeAutoScale, true
TestParameter, Output.Graph.YAxis.Data, id
TestParameter, Output.Graph.YAxis.Scale, Linear
TestParameter, Output.Graph.YAxis.Bottom, -0.1
TestParameter, Output.Graph.YAxis.Top, 0.1
TestParameter, Output.Graph.YAxis.Group, 
TestParameter, Output.Graph.YAxis.RunTimeAutoScale, true
TestParameter, AutoAnalysis.Interpolation, false
TestParameter, AutoAnalysis.Var2StepCount, 1
TestParameter, AutoAnalysis.Var2StepScript, 
TestParameter, AutoAnalysis.Line1.Enabled, false
TestParameter, AutoAnalysis.Line1.Type, 1
TestParameter, AutoAnalysis.Line1.Fix, True
TestParameter, AutoAnalysis.Line1.YAxis, 0
TestParameter, AutoAnalysis.Line1.Point1.Type, 0
TestParameter, AutoAnalysis.Line1.Point1.XY.X, 
TestParameter, AutoAnalysis.Line1.Point1.XY.Y, 
TestParameter, AutoAnalysis.Line1.Point1.Data.Var, 
TestParameter, AutoAnalysis.Line1.Point1.Data.Condition, 
TestParameter, AutoAnalysis.Line1.Point1.Data.Start, false
TestParameter, AutoAnalysis.Line1.Point1.Data.StartVar, 
TestParameter, AutoAnalysis.Line1.Point1.Data.StartCondition, 
TestParameter, AutoAnalysis.Line1.Point2.Type, 0
TestParameter, AutoAnalysis.Line1.Point2.XY.X, 
TestParameter, AutoAnalysis.Line1.Point2.XY.Y, 
TestParameter, AutoAnalysis.Line1.Point2.Data.Var, 
TestParameter, AutoAnalysis.Line1.Point2.Data.Condition, 
TestParameter, AutoAnalysis.Line1.Point2.Data.Start, false
TestParameter, AutoAnalysis.Line1.Point2.Data.StartVar, 
TestParameter, AutoAnalysis.Line1.Point2.Data.StartCondition, 
TestParameter, AutoAnalysis.Line1.GradientExpr, 0
TestParameter, AutoAnalysis.Line2.Enabled, false
TestParameter, AutoAnalysis.Line2.Type, 1
TestParameter, AutoAnalysis.Line2.Fix, True
TestParameter, AutoAnalysis.Line2.YAxis, 0
TestParameter, AutoAnalysis.Line2.Point1.Type, 0
TestParameter, AutoAnalysis.Line2.Point1.XY.X, 
TestParameter, AutoAnalysis.Line2.Point1.XY.Y, 
TestParameter, AutoAnalysis.Line2.Point1.Data.Var, 
TestParameter, AutoAnalysis.Line2.Point1.Data.Condition, 
TestParameter, AutoAnalysis.Line2.Point1.Data.Start, false
TestParameter, AutoAnalysis.Line2.Point1.Data.StartVar, 
TestParameter, AutoAnalysis.Line2.Point1.Data.StartCondition, 
TestParameter, AutoAnalysis.Line2.Point2.Type, 0
TestParameter, AutoAnalysis.Line2.Point2.XY.X, 
TestParameter, AutoAnalysis.Line2.Point2.XY.Y, 
TestParameter, AutoAnalysis.Line2.Point2.Data.Var, 
TestParameter, AutoAnalysis.Line2.Point2.Data.Condition, 
TestParameter, AutoAnalysis.Line2.Point2.Data.Start, false
TestParameter, AutoAnalysis.Line2.Point2.Data.StartVar, 
TestParameter, AutoAnalysis.Line2.Point2.Data.StartCondition, 
TestParameter, AutoAnalysis.Line2.GradientExpr, 0
TestParameter, AutoAnalysis.Marker.Enabled, false
TestParameter, AutoAnalysis.Marker.Data.Var, 
TestParameter, AutoAnalysis.Marker.Data.Condition, 
TestParameter, AutoAnalysis.Marker.Data.Start, false
TestParameter, AutoAnalysis.Marker.Data.StartVar, 
TestParameter, AutoAnalysis.Marker.Data.StartCondition, 
MetaData, TestRecord.EntryPoint, true
MetaData, TestRecord.RecordTime, 01/16/2024 16:38:12
MetaData, TestRecord.TestTarget, P-0.22-0.35-298K
MetaData, TestRecord.IterationIndex, 3
MetaData, TestRecord.Preservation, true
MetaData, TestRecord.Flag, 
MetaData, TestRecord.Remarks, 
MetaData, TestRecord.LinkKey, 0c6405c4-ff4e-4d65-bccd-8ea9b2b97540
MetaData, TestRecord.Parameters, 
Dimension1, 381, 381
Dimension2, 7, 7
DataName, vg, id
DataValue, 0.5, -1.167E-11
DataValue, 0.49, -2.3300000000000004E-12
DataValue, 0.48, -2.8E-13
DataValue, 0.47000000000000003, -1.0820000000000001E-11
DataValue, 0.46, -2.54E-12
DataValue, 0.45, -1.6E-12
DataValue, 0.44, -1.075E-11
DataValue, 0.43, 1E-13
DataValue, 0.42, -2.3800000000000004E-12
DataValue, 0.41000000000000003, -9.54E-12
DataValue, 0.4, 2.52E-12
DataValue, 0.39, -2.64E-12
DataValue, 0.38, -7.8800000000000012E-12
DataValue, 0.37, 4.84E-12
DataValue, 0.36, -2.6000000000000002E-12
DataValue, 0.35000000000000003, -6.1E-12
DataValue, 0.34, 5.95E-12
DataValue, 0.33, -3.02E-12
DataValue, 0.32, -4.87E-12
DataValue, 0.31, 3.7300000000000005E-12
DataValue, 0.3, -8.7000000000000013E-12
DataValue, 0.29, -2.82E-12
DataValue, 0.28, 2.36E-12
DataValue, 0.27, -1.0610000000000001E-11
DataValue, 0.26, -2.1700000000000002E-12
DataValue, 0.25, 6.2000000000000008E-13
DataValue, 0.24, -1.0910000000000001E-11
DataValue, 0.23, -1.7600000000000002E-12
DataValue, 0.22, 2.5000000000000003E-12
DataValue, 0.21, -7.6600000000000009E-12
DataValue, 0.2, -2.16E-12
DataValue, 0.19, 4.4000000000000004E-13
DataValue, 0.18, -1.0820000000000001E-11
DataValue, 0.17, -2.14E-12
DataValue, 0.16, -9.4E-13
DataValue, 0.15, -1.078E-11
DataValue, 0.14, -1.07E-12
DataValue, 0.13, -1.5800000000000001E-12
DataValue, 0.12, -1.075E-11
DataValue, 0.11, 1.5300000000000001E-12
DataValue, 0.1, -2.31E-12
DataValue, 0.09, -8.8000000000000013E-12
DataValue, 0.08, 4E-12
DataValue, 0.07, -2.7600000000000004E-12
DataValue, 0.06, -6.91E-12
DataValue, 0.05, 5.84E-12
DataValue, 0.04, -2.8800000000000002E-12
DataValue, 0.03, -4.9100000000000007E-12
DataValue, 0.02, 6.3E-12
DataValue, 0.01, -3.4400000000000003E-12
DataValue, 0, -3.67E-12
DataValue, -0.01, 6.21E-12
DataValue, -0.02, -4.48E-12
DataValue, -0.03, -4.4000000000000006E-12
DataValue, -0.04, 5.6200000000000007E-12
DataValue, -0.05, -3.13E-12
DataValue, -0.06, -3.61E-12
DataValue, -0.07, 6.3800000000000007E-12
DataValue, -0.08, -3.18E-12
DataValue, -0.09, -5.38E-12
DataValue, -0.1, 4.38E-12
DataValue, -0.11, -2.1200000000000003E-12
DataValue, -0.12, -7.5900000000000014E-12
DataValue, -0.13, 4.9000000000000005E-12
DataValue, -0.14, -2.87E-12
DataValue, -0.15, -4.2000000000000007E-12
DataValue, -0.16, 6.2700000000000005E-12
DataValue, -0.17, -2.7100000000000004E-12
DataValue, -0.18, -6.5200000000000005E-12
DataValue, -0.19, 2.97E-12
DataValue, -0.2, -1.83E-12
DataValue, -0.21, -8.77E-12
DataValue, -0.22, -6.5000000000000006E-13
DataValue, -0.23, -1.4E-13
DataValue, -0.24, -1.0110000000000001E-11
DataValue, -0.25, -2E-12
DataValue, -0.26, 3.1900000000000003E-12
DataValue, -0.27, -1.036E-11
DataValue, -0.28, -1.86E-12
DataValue, -0.29, 5.38E-12
DataValue, -0.3, -6.25E-12
DataValue, -0.31, -3.46E-12
DataValue, -0.32, 6.36E-12
DataValue, -0.33, -2.11E-12
DataValue, -0.34, -8.25E-12
DataValue, -0.35000000000000003, 3.82E-12
DataValue, -0.36, -1.9E-12
DataValue, -0.37, -1.056E-11
DataValue, -0.38, -1.03E-12
DataValue, -0.39, 1.1000000000000002E-12
DataValue, -0.4, -1.067E-11
DataValue, -0.41000000000000003, -2.11E-12
DataValue, -0.42, 4.2500000000000007E-12
DataValue, -0.43, -6.7200000000000004E-12
DataValue, -0.44, -3.4700000000000004E-12
DataValue, -0.45, 6.5E-12
DataValue, -0.46, -2.6300000000000003E-12
DataValue, -0.47000000000000003, -5.6800000000000008E-12
DataValue, -0.48, 5.59E-12
DataValue, -0.49, -1.6300000000000001E-12
DataValue, -0.5, -1.0230000000000001E-11
DataValue, -0.51, 1.83E-12
DataValue, -0.52, -6.8E-13
DataValue, -0.53, -1.106E-11
DataValue, -0.54, -1.5200000000000002E-12
DataValue, -0.55, 3.2400000000000003E-12
DataValue, -0.56, -1.0220000000000001E-11
DataValue, -0.57000000000000006, -2.3500000000000003E-12
DataValue, -0.58, 4.6400000000000004E-12
DataValue, -0.59, -4.38E-12
DataValue, -0.6, -4.2500000000000007E-12
DataValue, -0.61, 6.0300000000000008E-12
DataValue, -0.62, -3.2900000000000003E-12
DataValue, -0.63, -5.99E-12
DataValue, -0.64, 3.4000000000000005E-12
DataValue, -0.65, -2.3000000000000003E-12
DataValue, -0.66, -9.1000000000000012E-12
DataValue, -0.67, -5.2E-13
DataValue, -0.68, -2.44E-12
DataValue, -0.69000000000000006, -1.242E-11
DataValue, -0.70000000000000007, -4.2000000000000007E-12
DataValue, -0.71, -1.86E-12
DataValue, -0.72, -1.2430000000000001E-11
DataValue, -0.73, -6.3700000000000005E-12
DataValue, -0.74, -4.5000000000000005E-13
DataValue, -0.75, -1.019E-11
DataValue, -0.76, -1.0850000000000002E-11
DataValue, -0.77, -3.92E-12
DataValue, -0.78, -1.599E-11
DataValue, -0.79, -2.2750000000000002E-11
DataValue, -0.8, -1.6910000000000003E-11
DataValue, -0.81, -2.7990000000000002E-11
DataValue, -0.82000000000000006, -4.1250000000000006E-11
DataValue, -0.83000000000000007, -3.809E-11
DataValue, -0.84, -4.9880000000000006E-11
DataValue, -0.85, -7.2360000000000009E-11
DataValue, -0.86, -7.8790000000000007E-11
DataValue, -0.87, -9.5580000000000008E-11
DataValue, -0.88, -1.3213000000000001E-10
DataValue, -0.89, -1.5423000000000002E-10
DataValue, -0.9, -1.8571000000000002E-10
DataValue, -0.91, -2.4652000000000004E-10
DataValue, -0.92, -3.0334E-10
DataValue, -0.93, -3.7373E-10
DataValue, -0.94000000000000006, -4.7492E-10
DataValue, -0.95000000000000007, -5.9779000000000006E-10
DataValue, -0.96, -7.3052000000000008E-10
DataValue, -0.97, -9.2617000000000012E-10
DataValue, -0.98, -1.2367E-09
DataValue, -0.99, -1.4811E-09
DataValue, -1, -1.8478E-09
DataValue, -1.01, -2.2895E-09
DataValue, -1.02, -2.8537E-09
DataValue, -1.03, -3.5564E-09
DataValue, -1.04, -4.455E-09
DataValue, -1.05, -5.5063E-09
DataValue, -1.06, -6.7403E-09
DataValue, -1.07, -8.3208E-09
DataValue, -1.08, -1.02631E-08
DataValue, -1.09, -1.3121999999999998E-08
DataValue, -1.1, -1.60124E-08
DataValue, -1.11, -1.9395E-08
DataValue, -1.12, -2.3523999999999996E-08
DataValue, -1.1300000000000001, -2.8310999999999998E-08
DataValue, -1.1400000000000001, -3.41772E-08
DataValue, -1.1500000000000001, -4.064E-08
DataValue, -1.16, -4.7852599999999997E-08
DataValue, -1.17, -5.7334199999999993E-08
DataValue, -1.18, -6.6818E-08
DataValue, -1.19, -7.7484599999999987E-08
DataValue, -1.2, -8.9716E-08
DataValue, -1.21, -1.03362E-07
DataValue, -1.22, -1.1924E-07
DataValue, -1.23, -1.35E-07
DataValue, -1.24, -1.5286E-07
DataValue, -1.25, -1.7237999999999999E-07
DataValue, -1.26, -1.94E-07
DataValue, -1.27, -2.1738E-07
DataValue, -1.28, -2.4408E-07
DataValue, -1.29, -2.6848E-07
DataValue, -1.3, -2.9706E-07
DataValue, -1.31, -3.2802E-07
DataValue, -1.32, -3.572E-07
DataValue, -1.33, -3.8974E-07
DataValue, -1.34, -4.2574E-07
DataValue, -1.35, -4.636E-07
DataValue, -1.36, -5.0526E-07
DataValue, -1.37, -5.4406E-07
DataValue, -1.3800000000000001, -5.8776E-07
DataValue, -1.3900000000000001, -6.3224E-07
DataValue, -1.4000000000000001, -6.805E-07
DataValue, -1.41, -7.3078E-07
DataValue, -1.42, -7.8248E-07
DataValue, -1.43, -8.311E-07
DataValue, -1.44, -8.876E-07
DataValue, -1.45, -9.4576E-07
DataValue, -1.46, -1.00672E-06
DataValue, -1.47, -1.06908E-06
DataValue, -1.48, -1.13566E-06
DataValue, -1.49, -1.2034000000000002E-06
DataValue, -1.5, -1.2752E-06
DataValue, -1.51, -1.3460000000000001E-06
DataValue, -1.52, -1.4202000000000002E-06
DataValue, -1.53, -1.4997000000000002E-06
DataValue, -1.54, -1.5828000000000001E-06
DataValue, -1.55, -1.6639E-06
DataValue, -1.56, -1.7485E-06
DataValue, -1.57, -1.8336000000000001E-06
DataValue, -1.58, -1.9263E-06
DataValue, -1.59, -2.0177E-06
DataValue, -1.6, -2.1113E-06
DataValue, -1.61, -2.2105000000000003E-06
DataValue, -1.62, -2.3096000000000003E-06
DataValue, -1.6300000000000001, -2.4173E-06
DataValue, -1.6400000000000001, -2.5240000000000003E-06
DataValue, -1.6500000000000001, -2.6317E-06
DataValue, -1.6600000000000001, -2.7412E-06
DataValue, -1.67, -2.8601000000000004E-06
DataValue, -1.68, -2.9737000000000004E-06
DataValue, -1.69, -3.0932000000000003E-06
DataValue, -1.7, -3.2205000000000003E-06
DataValue, -1.71, -3.3398E-06
DataValue, -1.72, -3.4647000000000005E-06
DataValue, -1.73, -3.6017E-06
DataValue, -1.74, -3.7361000000000005E-06
DataValue, -1.75, -3.8629000000000007E-06
DataValue, -1.76, -4.0106E-06
DataValue, -1.77, -4.1506000000000005E-06
DataValue, -1.78, -4.2909000000000007E-06
DataValue, -1.79, -4.444E-06
DataValue, -1.8, -4.5841000000000007E-06
DataValue, -1.81, -4.7357E-06
DataValue, -1.82, -4.896E-06
DataValue, -1.83, -5.0609E-06
DataValue, -1.84, -5.1931E-06
DataValue, -1.85, -5.3364E-06
DataValue, -1.86, -5.5145E-06
DataValue, -1.87, -5.6610000000000005E-06
DataValue, -1.8800000000000001, -5.8212E-06
DataValue, -1.8900000000000001, -5.9885E-06
DataValue, -1.9000000000000001, -6.1533000000000009E-06
DataValue, -1.9100000000000001, -6.328E-06
DataValue, -1.92, -6.5169000000000011E-06
DataValue, -1.93, -6.6756000000000009E-06
DataValue, -1.94, -6.8667000000000007E-06
DataValue, -1.95, -7.0635000000000011E-06
DataValue, -1.96, -7.2225000000000007E-06
DataValue, -1.97, -7.4136000000000005E-06
DataValue, -1.98, -7.5979000000000006E-06
DataValue, -1.99, -7.7889000000000009E-06
DataValue, -2, -7.9811E-06
DataValue, -2.0100000000000002, -8.1785000000000014E-06
DataValue, -2.02, -8.3715000000000011E-06
DataValue, -2.0300000000000002, -8.573900000000001E-06
DataValue, -2.04, -8.7805E-06
DataValue, -2.05, -8.9854E-06
DataValue, -2.06, -9.1849E-06
DataValue, -2.07, -9.3895E-06
DataValue, -2.08, -9.5988E-06
DataValue, -2.09, -9.7897E-06
DataValue, -2.1, -1.0001600000000001E-05
DataValue, -2.11, -1.0221200000000001E-05
DataValue, -2.12, -1.0427300000000001E-05
DataValue, -2.13, -1.0639800000000001E-05
DataValue, -2.14, -1.0864600000000001E-05
DataValue, -2.15, -1.1081200000000002E-05
DataValue, -2.16, -1.1298100000000001E-05
DataValue, -2.17, -1.1518E-05
DataValue, -2.18, -1.1744E-05
DataValue, -2.19, -1.1974000000000001E-05
DataValue, -2.2, -1.215E-05
DataValue, -2.21, -1.2416000000000001E-05
DataValue, -2.22, -1.2654000000000001E-05
DataValue, -2.23, -1.2898000000000001E-05
DataValue, -2.24, -1.3128E-05
DataValue, -2.25, -1.3378E-05
DataValue, -2.2600000000000002, -1.3588000000000001E-05
DataValue, -2.27, -1.3862E-05
DataValue, -2.2800000000000002, -1.4104E-05
DataValue, -2.29, -1.4362E-05
DataValue, -2.3000000000000003, -1.462E-05
DataValue, -2.31, -1.4812E-05
DataValue, -2.32, -1.5072E-05
DataValue, -2.33, -1.5356E-05
DataValue, -2.34, -1.5616E-05
DataValue, -2.35, -1.5866E-05
DataValue, -2.36, -1.6128000000000002E-05
DataValue, -2.37, -1.6394E-05
DataValue, -2.38, -1.6648E-05
DataValue, -2.39, -1.6908E-05
DataValue, -2.4, -1.7174000000000002E-05
DataValue, -2.41, -1.7424E-05
DataValue, -2.42, -1.7698000000000002E-05
DataValue, -2.43, -1.797E-05
DataValue, -2.44, -1.8208E-05
DataValue, -2.45, -1.8486000000000002E-05
DataValue, -2.46, -1.8786E-05
DataValue, -2.47, -1.9086E-05
DataValue, -2.48, -1.9352E-05
DataValue, -2.49, -1.9596E-05
DataValue, -2.5, -1.9908E-05
DataValue, -2.5100000000000002, -2.019E-05
DataValue, -2.52, -2.0464E-05
DataValue, -2.5300000000000002, -2.074E-05
DataValue, -2.54, -2.099E-05
DataValue, -2.5500000000000003, -2.1266E-05
DataValue, -2.56, -2.1546E-05
DataValue, -2.57, -2.1842000000000002E-05
DataValue, -2.58, -2.213E-05
DataValue, -2.59, -2.2412E-05
DataValue, -2.6, -2.2746000000000002E-05
DataValue, -2.61, -2.3004000000000002E-05
DataValue, -2.62, -2.3246E-05
DataValue, -2.63, -2.3592E-05
DataValue, -2.64, -2.3878E-05
DataValue, -2.65, -2.4176E-05
DataValue, -2.66, -2.4462E-05
DataValue, -2.67, -2.478E-05
DataValue, -2.68, -2.5104000000000002E-05
DataValue, -2.69, -2.5362000000000002E-05
DataValue, -2.7, -2.5646E-05
DataValue, -2.71, -2.5986E-05
DataValue, -2.72, -2.6254E-05
DataValue, -2.73, -2.6510000000000002E-05
DataValue, -2.74, -2.6846E-05
DataValue, -2.75, -2.7192E-05
DataValue, -2.7600000000000002, -2.7442000000000003E-05
DataValue, -2.77, -2.7762E-05
DataValue, -2.7800000000000002, -2.8058E-05
DataValue, -2.79, -2.8394E-05
DataValue, -2.8000000000000003, -2.8684000000000002E-05
DataValue, -2.81, -2.9006E-05
DataValue, -2.82, -2.9318E-05
DataValue, -2.83, -2.9628E-05
DataValue, -2.84, -2.994E-05
DataValue, -2.85, -3.025E-05
DataValue, -2.86, -3.0566E-05
DataValue, -2.87, -3.0890000000000004E-05
DataValue, -2.88, -3.1132E-05
DataValue, -2.89, -3.152E-05
DataValue, -2.9, -3.184E-05
DataValue, -2.91, -3.2144E-05
DataValue, -2.92, -3.2460000000000004E-05
DataValue, -2.93, -3.2782E-05
DataValue, -2.94, -3.3082E-05
DataValue, -2.95, -3.3422E-05
DataValue, -2.96, -3.372E-05
DataValue, -2.97, -3.4088E-05
DataValue, -2.98, -3.4404E-05
DataValue, -2.99, -3.4718E-05
DataValue, -3, -3.5032E-05
DataValue, -3.0100000000000002, -3.5376E-05
DataValue, -3.02, -3.5628E-05
DataValue, -3.0300000000000002, -3.6032E-05
DataValue, -3.04, -3.628E-05
DataValue, -3.0500000000000003, -3.6674E-05
DataValue, -3.06, -3.6992E-05
DataValue, -3.0700000000000003, -3.7338E-05
DataValue, -3.08, -3.7596000000000004E-05
DataValue, -3.09, -3.7976000000000004E-05
DataValue, -3.1, -3.8322000000000003E-05
DataValue, -3.11, -3.866E-05
DataValue, -3.12, -3.9018E-05
DataValue, -3.13, -3.9344E-05
DataValue, -3.14, -3.9666E-05
DataValue, -3.15, -3.9954000000000004E-05
DataValue, -3.16, -4.0302E-05
DataValue, -3.17, -4.0618E-05
DataValue, -3.18, -4.0994E-05
DataValue, -3.19, -4.1372E-05
DataValue, -3.2, -4.1718E-05
DataValue, -3.21, -4.2056E-05
DataValue, -3.22, -4.239E-05
DataValue, -3.23, -4.2722E-05
DataValue, -3.24, -4.3024E-05
DataValue, -3.25, -4.3364E-05
DataValue, -3.2600000000000002, -4.3778E-05
DataValue, -3.27, -4.4064000000000004E-05
DataValue, -3.2800000000000002, -4.4374E-05
DataValue, -3.29, -4.476E-05
