
SetupTitle, NMOS-id-vd-vgs@vbs=0
PrimitiveTest, I/V Sweep
TestParameter, Context.MainFrame, B1500A
TestParameter, Channel.UnitType, SMU, SMU, SMU, SMU
TestParameter, Channel.Unit, SMU2:HR, SMU1:HR, SMU3:HR, SMU4:HR
TestParameter, Channel.IName, ib, is, ig, id
TestParameter, Channel.VName, vb, vs, vg, vd
TestParameter, Channel.Mode, V, COMMON, V, V
TestParameter, Channel.Func, CONST, CONST, VAR2, VAR1
TestParameter, Channel.Index, 
TestParameter, Channel.Time, 
TestParameter, Measurement.Port.Unit, SMU2:HR, SMU1:HR, SMU3:HR, SMU4:HR
TestParameter, Measurement.Port.SeriesResistor, NONE, NONE, NONE, NONE
TestParameter, Measurement.Port.Filter, ON, ON, ON, ON
TestParameter, Measurement.Port.OutputVoltageComparison, 0, 0, 0, 0
TestParameter, Measurement.Primary.Locus, Single
TestParameter, Measurement.Primary.Scale, LINEAR
TestParameter, Measurement.Primary.Start, 0
TestParameter, Measurement.Primary.Stop, 3.3000000000000003
TestParameter, Measurement.Primary.Step, 0.01
TestParameter, Measurement.Primary.Compliance, 0.1
TestParameter, Measurement.Primary.PowerCompliance, 0
TestParameter, Measurement.Aborting.Condition, SKIP AT ANY ABNORMAL
TestParameter, Measurement.PostOutput.Value, START
TestParameter, Measurement.PostOutput.Retention, OFF
TestParameter, Measurement.Secondary.Start, 0.3
TestParameter, Measurement.Secondary.Count, 6
TestParameter, Measurement.Secondary.Step, 0.6
TestParameter, Measurement.Secondary.Compliance, 0.1
TestParameter, Measurement.Secondary.PowerCompliance, 0
TestParameter, Measurement.Bias.Source, 0, 0, 0.3, 0
TestParameter, Measurement.Bias.Compliance, 0.1, 0.1, 0.1, 0.1
TestParameter, Measurement.Monitor.Unit, SMU2:HR, SMU1:HR, SMU3:HR, SMU4:HR
TestParameter, Measurement.Monitor.Adc, HR ADC, HR ADC, HR ADC, HR ADC
TestParameter, Measurement.Monitor.Measurement, Compliance Side, Compliance Side, Compliance Side, Compliance Side
TestParameter, Measurement.Monitor.RangingMode, LIMITED, LIMITED, LIMITED, LIMITED
TestParameter, Measurement.Monitor.RangeBoundary, 1nA, 1nA, 1nA, 1nA
TestParameter, Measurement.Monitor.RangeRating, BY FULL RANGE, BY FULL RANGE, BY FULL RANGE, BY FULL RANGE
TestParameter, Measurement.Monitor.RangeRatingCoeff, 50, 50, 50, 50
TestParameter, Measurement.Timing.Hold, 0
TestParameter, Measurement.Timing.Delay, 0
TestParameter, Measurement.Adc.HighSpeed.Mode, AUTO
TestParameter, Measurement.Adc.HighSpeed.Coeff, 1
TestParameter, Measurement.Adc.HighResolution.AutoZero, OFF
TestParameter, Measurement.Adc.HighResolution.Mode, AUTO
TestParameter, Measurement.Adc.HighResolution.Coeff, 6
TestParameter, Measurement.WaitTime.Source.Coeff, 1
TestParameter, Measurement.WaitTime.Source.Offset, 0
TestParameter, Measurement.WaitTime.Monitor.Coeff, 1
TestParameter, Measurement.WaitTime.Monitor.Offset, 0
TestParameter, Output.Graph.Enabled, true
TestParameter, Output.Graph.AutoScaling, false
TestParameter, Output.Graph.XAxis.Data, vd
TestParameter, Output.Graph.XAxis.Scale, Linear
TestParameter, Output.Graph.XAxis.Left, 0
TestParameter, Output.Graph.XAxis.Right, 1
TestParameter, Output.Graph.XAxis.RunTimeAutoScale, true
TestParameter, Output.Graph.YAxis.Data, id
TestParameter, Output.Graph.YAxis.Scale, Linear
TestParameter, Output.Graph.YAxis.Bottom, -0.1
TestParameter, Output.Graph.YAxis.Top, 0.1
TestParameter, Output.Graph.YAxis.Group, 
TestParameter, Output.Graph.YAxis.RunTimeAutoScale, true
TestParameter, AutoAnalysis.Interpolation, false
TestParameter, AutoAnalysis.Var2StepCount, 1
TestParameter, AutoAnalysis.Var2StepScript, 
TestParameter, AutoAnalysis.Line1.Enabled, false
TestParameter, AutoAnalysis.Line1.Type, 1
TestParameter, AutoAnalysis.Line1.Fix, True
TestParameter, AutoAnalysis.Line1.YAxis, 0
TestParameter, AutoAnalysis.Line1.Point1.Type, 0
TestParameter, AutoAnalysis.Line1.Point1.XY.X, 
TestParameter, AutoAnalysis.Line1.Point1.XY.Y, 
TestParameter, AutoAnalysis.Line1.Point1.Data.Var, 
TestParameter, AutoAnalysis.Line1.Point1.Data.Condition, 
TestParameter, AutoAnalysis.Line1.Point1.Data.Start, false
TestParameter, AutoAnalysis.Line1.Point1.Data.StartVar, 
TestParameter, AutoAnalysis.Line1.Point1.Data.StartCondition, 
TestParameter, AutoAnalysis.Line1.Point2.Type, 0
TestParameter, AutoAnalysis.Line1.Point2.XY.X, 
TestParameter, AutoAnalysis.Line1.Point2.XY.Y, 
TestParameter, AutoAnalysis.Line1.Point2.Data.Var, 
TestParameter, AutoAnalysis.Line1.Point2.Data.Condition, 
TestParameter, AutoAnalysis.Line1.Point2.Data.Start, false
TestParameter, AutoAnalysis.Line1.Point2.Data.StartVar, 
TestParameter, AutoAnalysis.Line1.Point2.Data.StartCondition, 
TestParameter, AutoAnalysis.Line1.GradientExpr, 0
TestParameter, AutoAnalysis.Line2.Enabled, false
TestParameter, AutoAnalysis.Line2.Type, 1
TestParameter, AutoAnalysis.Line2.Fix, True
TestParameter, AutoAnalysis.Line2.YAxis, 0
TestParameter, AutoAnalysis.Line2.Point1.Type, 0
TestParameter, AutoAnalysis.Line2.Point1.XY.X, 
TestParameter, AutoAnalysis.Line2.Point1.XY.Y, 
TestParameter, AutoAnalysis.Line2.Point1.Data.Var, 
TestParameter, AutoAnalysis.Line2.Point1.Data.Condition, 
TestParameter, AutoAnalysis.Line2.Point1.Data.Start, false
TestParameter, AutoAnalysis.Line2.Point1.Data.StartVar, 
TestParameter, AutoAnalysis.Line2.Point1.Data.StartCondition, 
TestParameter, AutoAnalysis.Line2.Point2.Type, 0
TestParameter, AutoAnalysis.Line2.Point2.XY.X, 
TestParameter, AutoAnalysis.Line2.Point2.XY.Y, 
TestParameter, AutoAnalysis.Line2.Point2.Data.Var, 
TestParameter, AutoAnalysis.Line2.Point2.Data.Condition, 
TestParameter, AutoAnalysis.Line2.Point2.Data.Start, false
TestParameter, AutoAnalysis.Line2.Point2.Data.StartVar, 
TestParameter, AutoAnalysis.Line2.Point2.Data.StartCondition, 
TestParameter, AutoAnalysis.Line2.GradientExpr, 0
TestParameter, AutoAnalysis.Marker.Enabled, false
TestParameter, AutoAnalysis.Marker.Data.Var, 
TestParameter, AutoAnalysis.Marker.Data.Condition, 
TestParameter, AutoAnalysis.Marker.Data.Start, false
TestParameter, AutoAnalysis.Marker.Data.StartVar, 
TestParameter, AutoAnalysis.Marker.Data.StartCondition, 
MetaData, TestRecord.EntryPoint, true
MetaData, TestRecord.RecordTime, 01/16/2024 15:24:46
MetaData, TestRecord.TestTarget, N-1-0.35-298K
MetaData, TestRecord.IterationIndex, 3
MetaData, TestRecord.Preservation, true
MetaData, TestRecord.Flag, 
MetaData, TestRecord.Remarks, 
MetaData, TestRecord.LinkKey, db96b018-fde2-4a26-8b76-cee44b12c75f
MetaData, TestRecord.Parameters, 
Dimension1, 331, 331
Dimension2, 6, 6
DataName, vd, id
DataValue, 0, -1.51E-12
DataValue, 0.01, 1.4450000000000001E-11
DataValue, 0.02, 4.3400000000000005E-12
DataValue, 0.03, 1.4260000000000001E-11
DataValue, 0.04, 8.8900000000000011E-12
DataValue, 0.05, 1.3850000000000001E-11
DataValue, 0.06, 1.16E-11
DataValue, 0.07, 1.3080000000000002E-11
DataValue, 0.08, 1.2850000000000001E-11
DataValue, 0.09, 1.332E-11
DataValue, 0.1, 1.301E-11
DataValue, 0.11, 1.371E-11
DataValue, 0.12, 1.352E-11
DataValue, 0.13, 1.361E-11
DataValue, 0.14, 1.3860000000000001E-11
DataValue, 0.15, 1.3090000000000002E-11
DataValue, 0.16, 1.4110000000000002E-11
DataValue, 0.17, 1.281E-11
DataValue, 0.18, 1.5580000000000003E-11
DataValue, 0.19, 1.1560000000000002E-11
DataValue, 0.2, 1.693E-11
DataValue, 0.21, 1.0000000000000001E-11
DataValue, 0.22, 1.87E-11
DataValue, 0.23, 7.84E-12
DataValue, 0.24, 2.0690000000000002E-11
DataValue, 0.25, 6.9800000000000006E-12
DataValue, 0.26, 2.1590000000000003E-11
DataValue, 0.27, 5.99E-12
DataValue, 0.28, 2.2300000000000003E-11
DataValue, 0.29, 6.6300000000000006E-12
DataValue, 0.3, 2.198E-11
DataValue, 0.31, 6.26E-12
DataValue, 0.32, 2.243E-11
DataValue, 0.33, 5.7800000000000008E-12
DataValue, 0.34, 2.2080000000000003E-11
DataValue, 0.35000000000000003, 6.76E-12
DataValue, 0.36, 2.1170000000000003E-11
DataValue, 0.37, 8.83E-12
DataValue, 0.38, 1.9220000000000003E-11
DataValue, 0.39, 1.1860000000000002E-11
DataValue, 0.4, 1.7310000000000003E-11
DataValue, 0.41000000000000003, 1.4060000000000001E-11
DataValue, 0.42, 1.573E-11
DataValue, 0.43, 1.482E-11
DataValue, 0.44, 1.5720000000000002E-11
DataValue, 0.45, 1.4610000000000002E-11
DataValue, 0.46, 1.561E-11
DataValue, 0.47000000000000003, 1.529E-11
DataValue, 0.48, 1.537E-11
DataValue, 0.49, 1.5890000000000003E-11
DataValue, 0.5, 1.489E-11
DataValue, 0.51, 1.621E-11
DataValue, 0.52, 1.4160000000000001E-11
DataValue, 0.53, 1.721E-11
DataValue, 0.54, 1.341E-11
DataValue, 0.55, 1.8710000000000002E-11
DataValue, 0.56, 1.12E-11
DataValue, 0.57000000000000006, 2.047E-11
DataValue, 0.58, 9.87E-12
DataValue, 0.59, 2.1840000000000002E-11
DataValue, 0.6, 8.45E-12
DataValue, 0.61, 2.3740000000000003E-11
DataValue, 0.62, 7.52E-12
DataValue, 0.63, 2.4E-11
DataValue, 0.64, 7.64E-12
DataValue, 0.65, 2.4100000000000003E-11
DataValue, 0.66, 8.1000000000000014E-12
DataValue, 0.67, 2.3040000000000002E-11
DataValue, 0.68, 1.029E-11
DataValue, 0.69000000000000006, 2.065E-11
DataValue, 0.70000000000000007, 1.3090000000000002E-11
DataValue, 0.71, 1.8580000000000002E-11
DataValue, 0.72, 1.555E-11
DataValue, 0.73, 1.7140000000000002E-11
DataValue, 0.74, 1.595E-11
DataValue, 0.75, 1.632E-11
DataValue, 0.76, 1.631E-11
DataValue, 0.77, 1.675E-11
DataValue, 0.78, 1.673E-11
DataValue, 0.79, 1.6540000000000002E-11
DataValue, 0.8, 1.6890000000000003E-11
DataValue, 0.81, 1.601E-11
DataValue, 0.82000000000000006, 1.823E-11
DataValue, 0.83000000000000007, 1.482E-11
DataValue, 0.84, 1.9180000000000002E-11
DataValue, 0.85, 1.4080000000000001E-11
DataValue, 0.86, 2.074E-11
DataValue, 0.87, 1.21E-11
DataValue, 0.88, 2.256E-11
DataValue, 0.89, 1.046E-11
DataValue, 0.9, 2.4500000000000003E-11
DataValue, 0.91, 9.33E-12
DataValue, 0.92, 2.544E-11
DataValue, 0.93, 8.73E-12
DataValue, 0.94000000000000006, 2.5680000000000002E-11
DataValue, 0.95000000000000007, 9.2200000000000015E-12
DataValue, 0.96, 2.4750000000000002E-11
DataValue, 0.97, 1.1250000000000002E-11
DataValue, 0.98, 2.238E-11
DataValue, 0.99, 1.3980000000000001E-11
DataValue, 1, 2.0180000000000002E-11
DataValue, 1.01, 1.6470000000000002E-11
DataValue, 1.02, 1.8270000000000002E-11
DataValue, 1.03, 1.735E-11
DataValue, 1.04, 1.799E-11
DataValue, 1.05, 1.775E-11
DataValue, 1.06, 1.777E-11
DataValue, 1.07, 1.821E-11
DataValue, 1.08, 1.7820000000000003E-11
DataValue, 1.09, 1.8600000000000002E-11
DataValue, 1.1, 1.7380000000000002E-11
DataValue, 1.11, 1.914E-11
DataValue, 1.12, 1.662E-11
DataValue, 1.1300000000000001, 1.87E-11
DataValue, 1.1400000000000001, 1.733E-11
DataValue, 1.1500000000000001, 1.9400000000000002E-11
DataValue, 1.16, 1.637E-11
DataValue, 1.17, 2.074E-11
DataValue, 1.18, 1.551E-11
DataValue, 1.19, 2.2550000000000002E-11
DataValue, 1.2, 1.3950000000000001E-11
DataValue, 1.21, 2.4060000000000002E-11
DataValue, 1.22, 1.228E-11
DataValue, 1.23, 2.5880000000000002E-11
DataValue, 1.24, 1.0940000000000001E-11
DataValue, 1.25, 2.6450000000000003E-11
DataValue, 1.26, 1.076E-11
DataValue, 1.27, 2.5520000000000003E-11
DataValue, 1.28, 1.15E-11
DataValue, 1.29, 2.6630000000000003E-11
DataValue, 1.3, 1.065E-11
DataValue, 1.31, 2.735E-11
DataValue, 1.32, 1.0610000000000001E-11
DataValue, 1.33, 2.7280000000000002E-11
DataValue, 1.34, 1.1010000000000001E-11
DataValue, 1.35, 2.666E-11
DataValue, 1.36, 1.2670000000000002E-11
DataValue, 1.37, 2.4540000000000003E-11
DataValue, 1.3800000000000001, 1.4850000000000002E-11
DataValue, 1.3900000000000001, 2.5740000000000003E-11
DataValue, 1.4000000000000001, 1.3600000000000002E-11
DataValue, 1.41, 2.442E-11
DataValue, 1.42, 1.551E-11
DataValue, 1.43, 2.2110000000000002E-11
DataValue, 1.44, 1.7780000000000002E-11
DataValue, 1.45, 2.0480000000000003E-11
DataValue, 1.46, 1.943E-11
DataValue, 1.47, 2.0150000000000003E-11
DataValue, 1.48, 1.9530000000000003E-11
DataValue, 1.49, 2.0090000000000002E-11
DataValue, 1.5, 2.0040000000000003E-11
DataValue, 1.51, 1.972E-11
DataValue, 1.52, 2.0400000000000002E-11
DataValue, 1.53, 1.9180000000000002E-11
DataValue, 1.54, 2.076E-11
DataValue, 1.55, 1.9020000000000003E-11
DataValue, 1.56, 2.203E-11
DataValue, 1.57, 1.7580000000000002E-11
DataValue, 1.58, 2.4E-11
DataValue, 1.59, 1.622E-11
DataValue, 1.6, 2.518E-11
DataValue, 1.61, 1.432E-11
DataValue, 1.62, 2.7200000000000004E-11
DataValue, 1.6300000000000001, 1.3370000000000001E-11
DataValue, 1.6400000000000001, 2.602E-11
DataValue, 1.6500000000000001, 1.4610000000000002E-11
DataValue, 1.6600000000000001, 2.744E-11
DataValue, 1.67, 1.302E-11
DataValue, 1.68, 2.857E-11
DataValue, 1.69, 1.2770000000000002E-11
DataValue, 1.7, 2.879E-11
DataValue, 1.71, 1.2330000000000001E-11
DataValue, 1.72, 2.938E-11
DataValue, 1.73, 1.2650000000000001E-11
DataValue, 1.74, 2.8250000000000003E-11
DataValue, 1.75, 1.4720000000000002E-11
DataValue, 1.76, 2.6450000000000003E-11
DataValue, 1.77, 1.677E-11
DataValue, 1.78, 2.46E-11
DataValue, 1.79, 1.9600000000000002E-11
DataValue, 1.8, 2.269E-11
DataValue, 1.81, 2.101E-11
DataValue, 1.82, 2.1640000000000002E-11
DataValue, 1.83, 2.1400000000000002E-11
DataValue, 1.84, 2.2E-11
DataValue, 1.85, 2.1460000000000003E-11
DataValue, 1.86, 2.2330000000000002E-11
DataValue, 1.87, 2.1590000000000003E-11
DataValue, 1.8800000000000001, 2.192E-11
DataValue, 1.8900000000000001, 2.2110000000000002E-11
DataValue, 1.9000000000000001, 2.2100000000000003E-11
DataValue, 1.9100000000000001, 2.0460000000000003E-11
DataValue, 1.92, 2.249E-11
DataValue, 1.93, 2.1840000000000002E-11
DataValue, 1.94, 2.283E-11
DataValue, 1.95, 2.205E-11
DataValue, 1.96, 2.2460000000000002E-11
DataValue, 1.97, 2.254E-11
DataValue, 1.98, 2.192E-11
DataValue, 1.99, 2.298E-11
DataValue, 2, 2.136E-11
DataValue, 2.0100000000000002, 2.358E-11
DataValue, 2.02, 2.107E-11
DataValue, 2.0300000000000002, 2.2990000000000003E-11
DataValue, 2.04, 2.165E-11
DataValue, 2.05, 2.4140000000000003E-11
DataValue, 2.06, 2.0490000000000002E-11
DataValue, 2.07, 2.584E-11
DataValue, 2.08, 1.916E-11
DataValue, 2.09, 2.7030000000000003E-11
DataValue, 2.1, 1.773E-11
DataValue, 2.11, 2.8560000000000003E-11
DataValue, 2.12, 1.6340000000000002E-11
DataValue, 2.13, 3.018E-11
DataValue, 2.14, 1.515E-11
DataValue, 2.15, 3.1160000000000005E-11
DataValue, 2.16, 1.455E-11
DataValue, 2.17, 3.113E-11
DataValue, 2.18, 1.553E-11
DataValue, 2.19, 3.0540000000000005E-11
DataValue, 2.2, 1.673E-11
DataValue, 2.21, 2.868E-11
DataValue, 2.22, 1.9930000000000003E-11
DataValue, 2.23, 2.62E-11
DataValue, 2.24, 2.096E-11
DataValue, 2.25, 2.4770000000000002E-11
DataValue, 2.2600000000000002, 2.325E-11
DataValue, 2.27, 2.4010000000000003E-11
DataValue, 2.2800000000000002, 2.327E-11
DataValue, 2.29, 2.447E-11
DataValue, 2.3000000000000003, 2.4150000000000002E-11
DataValue, 2.31, 2.4320000000000003E-11
DataValue, 2.32, 2.4280000000000002E-11
DataValue, 2.33, 2.42E-11
DataValue, 2.34, 2.405E-11
DataValue, 2.35, 2.4550000000000002E-11
DataValue, 2.36, 2.462E-11
DataValue, 2.37, 2.405E-11
DataValue, 2.38, 2.5030000000000003E-11
DataValue, 2.39, 2.34E-11
DataValue, 2.4, 2.5980000000000004E-11
DataValue, 2.41, 2.28E-11
DataValue, 2.42, 2.7780000000000003E-11
DataValue, 2.43, 2.3930000000000002E-11
DataValue, 2.44, 2.589E-11
DataValue, 2.45, 2.331E-11
DataValue, 2.46, 2.7210000000000002E-11
DataValue, 2.47, 2.1930000000000002E-11
DataValue, 2.48, 2.91E-11
DataValue, 2.49, 1.972E-11
DataValue, 2.5, 3.0360000000000006E-11
DataValue, 2.5100000000000002, 1.8870000000000002E-11
DataValue, 2.52, 2.879E-11
DataValue, 2.5300000000000002, 1.9970000000000003E-11
DataValue, 2.54, 3.1260000000000004E-11
DataValue, 2.5500000000000003, 1.881E-11
DataValue, 2.56, 3.2680000000000004E-11
DataValue, 2.57, 1.7620000000000003E-11
DataValue, 2.58, 3.3770000000000003E-11
DataValue, 2.59, 1.7710000000000003E-11
DataValue, 2.6, 3.416E-11
DataValue, 2.61, 1.7180000000000002E-11
DataValue, 2.62, 3.3920000000000004E-11
DataValue, 2.63, 1.7600000000000003E-11
DataValue, 2.64, 3.2800000000000006E-11
DataValue, 2.65, 2.0490000000000002E-11
DataValue, 2.66, 2.986E-11
DataValue, 2.67, 2.3730000000000002E-11
DataValue, 2.68, 2.817E-11
DataValue, 2.69, 2.549E-11
DataValue, 2.7, 2.8410000000000002E-11
DataValue, 2.71, 2.5790000000000002E-11
DataValue, 2.72, 2.7050000000000003E-11
DataValue, 2.73, 2.6370000000000002E-11
DataValue, 2.74, 2.726E-11
DataValue, 2.75, 2.6590000000000002E-11
DataValue, 2.7600000000000002, 2.7160000000000003E-11
DataValue, 2.77, 2.6760000000000003E-11
DataValue, 2.7800000000000002, 2.7050000000000003E-11
DataValue, 2.79, 2.6760000000000003E-11
DataValue, 2.8000000000000003, 2.7400000000000004E-11
DataValue, 2.81, 2.7710000000000004E-11
DataValue, 2.82, 2.706E-11
DataValue, 2.83, 2.7810000000000002E-11
DataValue, 2.84, 2.693E-11
DataValue, 2.85, 2.815E-11
DataValue, 2.86, 2.6030000000000003E-11
DataValue, 2.87, 2.95E-11
DataValue, 2.88, 2.4950000000000002E-11
DataValue, 2.89, 3.088E-11
DataValue, 2.9, 2.3320000000000003E-11
DataValue, 2.91, 3.275E-11
DataValue, 2.92, 2.2060000000000003E-11
DataValue, 2.93, 3.459E-11
DataValue, 2.94, 2.0860000000000003E-11
DataValue, 2.95, 3.608E-11
DataValue, 2.96, 2.01E-11
DataValue, 2.97, 3.6210000000000003E-11
DataValue, 2.98, 2.0110000000000002E-11
DataValue, 2.99, 3.664E-11
DataValue, 3, 2.028E-11
DataValue, 3.0100000000000002, 3.601E-11
DataValue, 3.02, 2.232E-11
DataValue, 3.0300000000000002, 3.4140000000000004E-11
DataValue, 3.04, 2.4810000000000003E-11
DataValue, 3.0500000000000003, 3.2180000000000005E-11
DataValue, 3.06, 2.7270000000000003E-11
DataValue, 3.0700000000000003, 3.027E-11
DataValue, 3.08, 2.859E-11
DataValue, 3.09, 2.9630000000000005E-11
DataValue, 3.1, 2.958E-11
DataValue, 3.11, 2.968E-11
DataValue, 3.12, 2.9840000000000004E-11
DataValue, 3.13, 2.9730000000000004E-11
DataValue, 3.14, 2.983E-11
DataValue, 3.15, 2.943E-11
DataValue, 3.16, 3.04E-11
DataValue, 3.17, 2.943E-11
DataValue, 3.18, 3.142E-11
DataValue, 3.19, 2.8810000000000002E-11
DataValue, 3.2, 3.23E-11
DataValue, 3.21, 2.7360000000000003E-11
DataValue, 3.22, 3.413E-11
DataValue, 3.23, 2.558E-11
DataValue, 3.24, 3.605E-11
DataValue, 3.25, 2.4660000000000002E-11
DataValue, 3.2600000000000002, 3.743E-11
DataValue, 3.27, 2.3390000000000003E-11
DataValue, 3.2800000000000002, 3.915E-11
DataValue, 3.29, 2.24E-11
DataValue, 3.3000000000000003, 3.914E-11
DataValue, 0, 3.3366E-09
DataValue, 0.01, 4.4284E-07
DataValue, 0.02, 8.248E-07
DataValue, 0.03, 1.14992E-06
DataValue, 0.04, 1.4447000000000001E-06
DataValue, 0.05, 1.6853000000000002E-06
DataValue, 0.06, 1.8927000000000001E-06
DataValue, 0.07, 2.0694E-06
DataValue, 0.08, 2.2262000000000004E-06
DataValue, 0.09, 2.3542000000000003E-06
DataValue, 0.1, 2.4551000000000004E-06
DataValue, 0.11, 2.5523E-06
DataValue, 0.12, 2.6284E-06
DataValue, 0.13, 2.6812000000000003E-06
DataValue, 0.14, 2.7581000000000003E-06
DataValue, 0.15, 2.792E-06
DataValue, 0.16, 2.8472000000000005E-06
DataValue, 0.17, 2.8673000000000005E-06
DataValue, 0.18, 2.9216E-06
DataValue, 0.19, 2.9364000000000004E-06
DataValue, 0.2, 2.9707E-06
DataValue, 0.21, 2.9969000000000005E-06
DataValue, 0.22, 3.0271E-06
DataValue, 0.23, 3.041E-06
DataValue, 0.24, 3.0385000000000002E-06
DataValue, 0.25, 3.0898000000000005E-06
DataValue, 0.26, 3.1008000000000004E-06
DataValue, 0.27, 3.1032E-06
DataValue, 0.28, 3.1396000000000004E-06
DataValue, 0.29, 3.1509E-06
DataValue, 0.3, 3.1636000000000005E-06
DataValue, 0.31, 3.1743000000000003E-06
DataValue, 0.32, 3.1878E-06
DataValue, 0.33, 3.2009E-06
DataValue, 0.34, 3.2277000000000005E-06
DataValue, 0.35000000000000003, 3.2427000000000003E-06
DataValue, 0.36, 3.2399000000000005E-06
DataValue, 0.37, 3.2590000000000005E-06
DataValue, 0.38, 3.2722E-06
DataValue, 0.39, 3.2903000000000005E-06
DataValue, 0.4, 3.2969E-06
DataValue, 0.41000000000000003, 3.3129000000000005E-06
DataValue, 0.42, 3.3096000000000005E-06
DataValue, 0.43, 3.3277000000000003E-06
DataValue, 0.44, 3.3342E-06
DataValue, 0.45, 3.3591E-06
DataValue, 0.46, 3.3665000000000003E-06
DataValue, 0.47000000000000003, 3.3773000000000003E-06
DataValue, 0.48, 3.3808000000000003E-06
DataValue, 0.49, 3.3984000000000004E-06
DataValue, 0.5, 3.3995000000000002E-06
DataValue, 0.51, 3.4142000000000003E-06
