
SetupTitle, idvg3.3
PrimitiveTest, I/V Sweep
TestParameter, Context.MainFrame, B1500A
TestParameter, Channel.UnitType, SMU, SMU, SMU, SMU
TestParameter, Channel.Unit, SMU4:HR, SMU3:HR, SMU1:HR, SMU2:HR
TestParameter, Channel.IName, Id, Ig, Is, Ibg
TestParameter, Channel.VName, Vd, Vg, Vs, Vbg
TestParameter, Channel.Mode, V, V, V, V
TestParameter, Channel.Func, CONST, VAR1, CONST, VAR2
TestParameter, Channel.Index, 
TestParameter, Channel.Time, 
TestParameter, Measurement.Port.Unit, SMU4:HR, SMU3:HR, SMU1:HR, SMU2:HR
TestParameter, Measurement.Port.SeriesResistor, NONE, NONE, NONE, NONE
TestParameter, Measurement.Port.Filter, ON, ON, ON, ON
TestParameter, Measurement.Port.OutputVoltageComparison, 0, 0, 0, 0
TestParameter, Measurement.Primary.Locus, Single
TestParameter, Measurement.Primary.Scale, LINEAR
TestParameter, Measurement.Primary.Start, -2.1
TestParameter, Measurement.Primary.Stop, 3.63
TestParameter, Measurement.Primary.Step, 0.03
TestParameter, Measurement.Primary.Compliance, 0.1
TestParameter, Measurement.Primary.PowerCompliance, 0
TestParameter, Measurement.Aborting.Condition, CONTINUE AT ANY
TestParameter, Measurement.PostOutput.Value, START
TestParameter, Measurement.PostOutput.Retention, OFF
TestParameter, Measurement.Secondary.Start, -2
TestParameter, Measurement.Secondary.Count, 5
TestParameter, Measurement.Secondary.Step, 2
TestParameter, Measurement.Secondary.Compliance, 0.1
TestParameter, Measurement.Secondary.PowerCompliance, 0
TestParameter, Measurement.Bias.Source, 3.3000000000000003, -2.1, 0, -2
TestParameter, Measurement.Bias.Compliance, 0.1, 0.1, 0.1, 0.1
TestParameter, Measurement.Monitor.Unit, SMU4:HR, SMU3:HR, SMU1:HR, SMU2:HR
TestParameter, Measurement.Monitor.Adc, HR ADC, HR ADC, HR ADC, HR ADC
TestParameter, Measurement.Monitor.Measurement, Compliance Side, Compliance Side, Compliance Side, Compliance Side
TestParameter, Measurement.Monitor.RangingMode, LIMITED, LIMITED, LIMITED, LIMITED
TestParameter, Measurement.Monitor.RangeBoundary, 1nA, 1nA, 1nA, 1nA
TestParameter, Measurement.Monitor.RangeRating, BY FULL RANGE, BY FULL RANGE, BY FULL RANGE, BY FULL RANGE
TestParameter, Measurement.Monitor.RangeRatingCoeff, 50, 50, 50, 50
TestParameter, Measurement.Timing.Hold, 0
TestParameter, Measurement.Timing.Delay, 0
TestParameter, Measurement.Adc.HighSpeed.Mode, AUTO
TestParameter, Measurement.Adc.HighSpeed.Coeff, 1
TestParameter, Measurement.Adc.HighResolution.AutoZero, OFF
TestParameter, Measurement.Adc.HighResolution.Mode, PLC
TestParameter, Measurement.Adc.HighResolution.Coeff, 1
TestParameter, Measurement.WaitTime.Source.Coeff, 1
TestParameter, Measurement.WaitTime.Source.Offset, 0
TestParameter, Measurement.WaitTime.Monitor.Coeff, 1
TestParameter, Measurement.WaitTime.Monitor.Offset, 0
TestParameter, Function.User.Name, gm, absId
TestParameter, Function.User.Unit, S, A
TestParameter, Function.User.Definition, diff(Id,Vg), abs(Id)
TestParameter, Output.Graph.Enabled, true
TestParameter, Output.Graph.AutoScaling, false
TestParameter, Output.Graph.XAxis.Data, Vg
TestParameter, Output.Graph.XAxis.Scale, Linear
TestParameter, Output.Graph.XAxis.Left, -3
TestParameter, Output.Graph.XAxis.Right, 3.63
TestParameter, Output.Graph.XAxis.RunTimeAutoScale, true
TestParameter, Output.Graph.YAxis.Data, Id, Ig, Ib
TestParameter, Output.Graph.YAxis.Scale, Log, Linear, Linear
TestParameter, Output.Graph.YAxis.Bottom, 0.001, -0.1, -0.1
TestParameter, Output.Graph.YAxis.Top, 0.01, 0.1, 0.1
TestParameter, Output.Graph.YAxis.Group, , , 
TestParameter, Output.Graph.YAxis.RunTimeAutoScale, true, true, true
TestParameter, Output.List.Data, Vg, Vd, Ig, Id, Ibg, Is, gm, Vbg, absId
TestParameter, AutoAnalysis.Interpolation, false
TestParameter, AutoAnalysis.Var2StepCount, 1
TestParameter, AutoAnalysis.Var2StepScript, 
TestParameter, AutoAnalysis.Line1.Enabled, false
TestParameter, AutoAnalysis.Line1.Type, 2
TestParameter, AutoAnalysis.Line1.Fix, True
TestParameter, AutoAnalysis.Line1.YAxis, 0
TestParameter, AutoAnalysis.Line1.Point1.Type, 1
TestParameter, AutoAnalysis.Line1.Point1.XY.X, 
TestParameter, AutoAnalysis.Line1.Point1.XY.Y, 
TestParameter, AutoAnalysis.Line1.Point1.Data.Var, Id
TestParameter, AutoAnalysis.Line1.Point1.Data.Condition, 
TestParameter, AutoAnalysis.Line1.Point1.Data.Start, false
TestParameter, AutoAnalysis.Line1.Point1.Data.StartVar, 
TestParameter, AutoAnalysis.Line1.Point1.Data.StartCondition, 
TestParameter, AutoAnalysis.Line1.Point2.Type, 0
TestParameter, AutoAnalysis.Line1.Point2.XY.X, 
TestParameter, AutoAnalysis.Line1.Point2.XY.Y, 
TestParameter, AutoAnalysis.Line1.Point2.Data.Var, 
TestParameter, AutoAnalysis.Line1.Point2.Data.Condition, 
TestParameter, AutoAnalysis.Line1.Point2.Data.Start, false
TestParameter, AutoAnalysis.Line1.Point2.Data.StartVar, 
TestParameter, AutoAnalysis.Line1.Point2.Data.StartCondition, 
TestParameter, AutoAnalysis.Line1.GradientExpr, 0
TestParameter, AutoAnalysis.Line2.Enabled, false
TestParameter, AutoAnalysis.Line2.Type, 1
TestParameter, AutoAnalysis.Line2.Fix, True
TestParameter, AutoAnalysis.Line2.YAxis, 0
TestParameter, AutoAnalysis.Line2.Point1.Type, 0
TestParameter, AutoAnalysis.Line2.Point1.XY.X, 
TestParameter, AutoAnalysis.Line2.Point1.XY.Y, 
TestParameter, AutoAnalysis.Line2.Point1.Data.Var, 
TestParameter, AutoAnalysis.Line2.Point1.Data.Condition, 
TestParameter, AutoAnalysis.Line2.Point1.Data.Start, false
TestParameter, AutoAnalysis.Line2.Point1.Data.StartVar, 
TestParameter, AutoAnalysis.Line2.Point1.Data.StartCondition, 
TestParameter, AutoAnalysis.Line2.Point2.Type, 0
TestParameter, AutoAnalysis.Line2.Point2.XY.X, 
TestParameter, AutoAnalysis.Line2.Point2.XY.Y, 
TestParameter, AutoAnalysis.Line2.Point2.Data.Var, 
TestParameter, AutoAnalysis.Line2.Point2.Data.Condition, 
TestParameter, AutoAnalysis.Line2.Point2.Data.Start, false
TestParameter, AutoAnalysis.Line2.Point2.Data.StartVar, 
TestParameter, AutoAnalysis.Line2.Point2.Data.StartCondition, 
TestParameter, AutoAnalysis.Line2.GradientExpr, 0
TestParameter, AutoAnalysis.Marker.Enabled, false
TestParameter, AutoAnalysis.Marker.Data.Var, 
TestParameter, AutoAnalysis.Marker.Data.Condition, 
TestParameter, AutoAnalysis.Marker.Data.Start, false
TestParameter, AutoAnalysis.Marker.Data.StartVar, 
TestParameter, AutoAnalysis.Marker.Data.StartCondition, 
MetaData, TestRecord.EntryPoint, true
MetaData, TestRecord.RecordTime, 01/16/2024 16:51:16
MetaData, TestRecord.TestTarget, N-1-0.35-298K
MetaData, TestRecord.IterationIndex, 2
MetaData, TestRecord.Preservation, true
MetaData, TestRecord.Flag, 
MetaData, TestRecord.Remarks, 
MetaData, TestRecord.LinkKey, 9001b558-e952-4261-9594-ae5924671437
MetaData, TestRecord.Parameters, 
Dimension1, 192, 192, 192, 192, 192, 192, 192, 192, 192, 192
Dimension2, 5, 5, 5, 5, 5, 5, 5, 5, 5, 5
DataName, Vg, Vbg, Vd, Id, Ig, Is, Ibg, gm, absId, Ib
DataValue, -2.1, -2, 3.3000000000000003, 4.2421E-11, -3.3000000000000005E-14, 6.981E-12, -7.7235999999999991E-08, -1.1339999999999907E-10, 4.2421E-11, 
DataValue, -2.07, -2, 3.3000000000000003, 3.9019E-11, -3.6000000000000004E-14, 6.9820000000000007E-12, -8.05291E-08, -1.0611666666666657E-10, 3.9019E-11, 
DataValue, -2.04, -2, 3.3000000000000003, 3.6054E-11, -2.0000000000000003E-14, 6.847E-12, -7.6832799999999986E-08, -9.39500000000006E-11, 3.6054E-11, 
DataValue, -2.0100000000000002, -2, 3.3000000000000003, 3.3382E-11, -2.5E-14, 6.976E-12, -7.6342799999999987E-08, -8.2499999999999922E-11, 3.3382E-11, 
DataValue, -1.98, -2, 3.3000000000000003, 3.1104E-11, 7.7E-14, 6.865E-12, -7.596299999999999E-08, -7.3649999999999676E-11, 3.1104E-11, 
DataValue, -1.95, -2, 3.3000000000000003, 2.8963000000000003E-11, 3.0000000000000002E-15, 6.923E-12, -7.5493999999999988E-08, -6.7883333333333308E-11, 2.8963000000000003E-11, 
DataValue, -1.92, -2, 3.3000000000000003, 2.7031E-11, 2.2E-14, 6.9030000000000008E-12, -7.5711199999999993E-08, -6.1616666666666852E-11, 2.7031E-11, 
DataValue, -1.8900000000000001, -2, 3.3000000000000003, 2.5266E-11, 2E-15, 6.8900000000000007E-12, -7.53534E-08, -5.5416666666666805E-11, 2.5266E-11, 
DataValue, -1.86, -2, 3.3000000000000003, 2.3706000000000003E-11, 2.5E-14, 6.9250000000000005E-12, -7.5394E-08, -5.12833333333333E-11, 2.3706000000000003E-11, 
DataValue, -1.83, -2, 3.3000000000000003, 2.2189E-11, 6.4E-14, 6.9420000000000009E-12, -7.6580499999999989E-08, -4.9199999999999976E-11, 2.2189E-11, 
DataValue, -1.8, -2, 3.3000000000000003, 2.0754E-11, 8.9000000000000012E-14, 6.873E-12, -7.63643E-08, -4.2816666666666604E-11, 2.0754E-11, 
DataValue, -1.77, -2, 3.3000000000000003, 1.9620000000000002E-11, 7.5000000000000009E-14, 6.902E-12, -7.4763399999999988E-08, -3.4583333333333304E-11, 1.9620000000000002E-11, 
DataValue, -1.74, -2, 3.3000000000000003, 1.8679E-11, 1.24E-13, 6.884E-12, -7.4447999999999993E-08, -3.2649999999999973E-11, 1.8679E-11, 
DataValue, -1.71, -2, 3.3000000000000003, 1.7661000000000002E-11, 4.7E-14, 6.9220000000000006E-12, -7.3693E-08, -3.19333333333333E-11, 1.7661000000000002E-11, 
DataValue, -1.68, -2, 3.3000000000000003, 1.6763000000000002E-11, 9.9000000000000007E-14, 6.8930000000000006E-12, -7.4701699999999987E-08, -2.9000000000000113E-11, 1.6763000000000002E-11, 
DataValue, -1.6500000000000001, -2, 3.3000000000000003, 1.5921E-11, 1.9600000000000002E-13, 6.9250000000000005E-12, -7.4056399999999993E-08, -2.5783333333333416E-11, 1.5921E-11, 
DataValue, -1.62, -2, 3.3000000000000003, 1.5216E-11, 1.0200000000000001E-13, 6.8240000000000008E-12, -7.5774799999999991E-08, -2.1216666666666635E-11, 1.5216E-11, 
DataValue, -1.59, -2, 3.3000000000000003, 1.4648E-11, 7.7E-14, 6.931E-12, -7.5621599999999992E-08, -2.034999999999999E-11, 1.4648E-11, 
DataValue, -1.56, -2, 3.3000000000000003, 1.3995000000000001E-11, 2.2700000000000002E-13, 6.8190000000000007E-12, -7.62037E-08, -1.8933333333333315E-11, 1.3995000000000001E-11, 
DataValue, -1.53, -2, 3.3000000000000003, 1.3512000000000001E-11, 1.3700000000000002E-13, 6.8710000000000009E-12, -7.6099799999999989E-08, -1.5366666666666643E-11, 1.3512000000000001E-11, 
DataValue, -1.5, -2, 3.3000000000000003, 1.3073000000000001E-11, 2E-13, 6.934E-12, -7.56515E-08, -1.4483333333333328E-11, 1.3073000000000001E-11, 
DataValue, -1.47, -2, 3.3000000000000003, 1.2643000000000001E-11, 2.96E-13, 6.9170000000000005E-12, -7.5350799999999987E-08, -1.2949999999999982E-11, 1.2643000000000001E-11, 
DataValue, -1.44, -2, 3.3000000000000003, 1.2296000000000002E-11, 2.37E-13, 6.918E-12, -7.59545E-08, -9.433333333333335E-12, 1.2296000000000002E-11, 
DataValue, -1.41, -2, 3.3000000000000003, 1.2077E-11, 2.32E-13, 6.8800000000000006E-12, -7.6163199999999989E-08, -1.0250000000000044E-11, 1.2077E-11, 
DataValue, -1.3800000000000001, -2, 3.3000000000000003, 1.1681000000000001E-11, 2.6600000000000003E-13, 6.9110000000000007E-12, -7.5912999999999986E-08, -9.90000000000003E-12, 1.1681000000000001E-11, 
DataValue, -1.35, -2, 3.3000000000000003, 1.1483E-11, 2.69E-13, 6.865E-12, -7.5153299999999988E-08, -8.01666666666666E-12, 1.1483E-11, 
DataValue, -1.32, -2, 3.3000000000000003, 1.12E-11, 2.92E-13, 6.9770000000000007E-12, -7.5528099999999992E-08, -7.4166666666666572E-12, 1.12E-11, 
DataValue, -1.29, -2, 3.3000000000000003, 1.1038E-11, 3.31E-13, 6.8160000000000008E-12, -7.4858699999999993E-08, -5.7833333333333156E-12, 1.1038E-11, 
DataValue, -1.26, -2, 3.3000000000000003, 1.0853000000000002E-11, 3.1100000000000004E-13, 6.889E-12, -7.34504E-08, -7.7999999999999934E-12, 1.0853000000000002E-11, 
DataValue, -1.23, -2, 3.3000000000000003, 1.057E-11, 3.41E-13, 6.834E-12, -7.3194099999999992E-08, -5.533333333333352E-12, 1.057E-11, 
DataValue, -1.2, -2, 3.3000000000000003, 1.0521E-11, 3.4900000000000003E-13, 6.8620000000000004E-12, -7.3588299999999987E-08, -3.2333333333333336E-12, 1.0521E-11, 
DataValue, -1.17, -2, 3.3000000000000003, 1.0376E-11, 3.07E-13, 6.918E-12, -7.3702699999999992E-08, -3.9333333333333209E-12, 1.0376E-11, 
DataValue, -1.1400000000000001, -2, 3.3000000000000003, 1.0285000000000002E-11, 4.72E-13, 6.8090000000000006E-12, -7.07765E-08, -1.7833333333333157E-12, 1.0285000000000002E-11, 
DataValue, -1.11, -2, 3.3000000000000003, 1.0269000000000002E-11, 3.42E-13, 6.8380000000000005E-12, -7.20365E-08, -3.7166666666666661E-12, 1.0269000000000002E-11, 
DataValue, -1.08, -2, 3.3000000000000003, 1.0062000000000001E-11, 3.53E-13, 6.834E-12, -7.1877299999999992E-08, -4.1166666666666773E-12, 1.0062000000000001E-11, 
DataValue, -1.05, -2, 3.3000000000000003, 1.0022E-11, 3.3600000000000003E-13, 6.881E-12, -7.26753E-08, -1.4166666666666745E-12, 1.0022E-11, 
DataValue, -1.02, -2, 3.3000000000000003, 9.977E-12, 4.3000000000000004E-13, 6.8740000000000008E-12, -7.21008E-08, -2.1666666666666725E-12, 9.977E-12, 
DataValue, -0.99, -2, 3.3000000000000003, 9.892E-12, 4.2700000000000005E-13, 6.8750000000000005E-12, -7.138969999999999E-08, -1.5999999999999918E-12, 9.892E-12, 
DataValue, -0.96, -2, 3.3000000000000003, 9.8810000000000012E-12, 4.93E-13, 6.8910000000000004E-12, -7.2936299999999989E-08, -1.1333333333333363E-12, 9.8810000000000012E-12, 
DataValue, -0.93, -2, 3.3000000000000003, 9.824E-12, 5.16E-13, 6.8920000000000009E-12, -7.20441E-08, -1.700000000000018E-12, 9.824E-12, 
DataValue, -0.9, -2, 3.3000000000000003, 9.779E-12, 4.8500000000000005E-13, 6.9030000000000008E-12, -7.1642799999999991E-08, -1.2499999999999785E-12, 9.779E-12, 
DataValue, -0.87, -2, 3.3000000000000003, 9.7490000000000014E-12, 5.13E-13, 6.9010000000000006E-12, -7.19229E-08, -1.7666666666666609E-12, 9.7490000000000014E-12, 
DataValue, -0.84, -2, 3.3000000000000003, 9.673E-12, 5.41E-13, 6.8580000000000009E-12, -7.09353E-08, -5.0000000000000847E-13, 9.673E-12, 
DataValue, -0.81, -2, 3.3000000000000003, 9.7190000000000009E-12, 4.8300000000000006E-13, 6.8820000000000008E-12, -7.19256E-08, 2.2333333333333495E-12, 9.7190000000000009E-12, 
DataValue, -0.78, -2, 3.3000000000000003, 9.8070000000000013E-12, 6.36E-13, 6.8140000000000007E-12, -7.1060299999999992E-08, -7.333333333333228E-13, 9.8070000000000013E-12, 
DataValue, -0.75, -2, 3.3000000000000003, 9.6750000000000015E-12, 6.15E-13, 6.9140000000000006E-12, -7.1977099999999989E-08, -2.1499999999999975E-12, 9.6750000000000015E-12, 
DataValue, -0.72, -2, 3.3000000000000003, 9.6780000000000014E-12, 6.170000000000001E-13, 6.9220000000000006E-12, -7.207869999999999E-08, -5.0000000000025081E-14, 9.6780000000000014E-12, 
DataValue, -0.69000000000000006, -2, 3.3000000000000003, 9.672E-12, 6.9300000000000008E-13, 6.863E-12, -7.23644E-08, -1.1166666666666883E-12, 9.672E-12, 
DataValue, -0.66, -2, 3.3000000000000003, 9.611E-12, 6.86E-13, 6.9130000000000009E-12, -7.1244499999999987E-08, -1.1499999999999824E-12, 9.611E-12, 
DataValue, -0.63, -2, 3.3000000000000003, 9.603000000000001E-12, 6.9300000000000008E-13, 6.8960000000000005E-12, -7.210659999999999E-08, -9.9999999999996116E-14, 9.603000000000001E-12, 
DataValue, -0.6, -2, 3.3000000000000003, 9.605E-12, 7.8900000000000007E-13, 6.889E-12, -7.1689499999999988E-08, 3.9999999999998522E-13, 9.605E-12, 
DataValue, -0.57000000000000006, -2, 3.3000000000000003, 9.627E-12, 7.49E-13, 6.8770000000000007E-12, -7.1065199999999992E-08, -2.3333333333331575E-13, 9.627E-12, 
DataValue, -0.54, -2, 3.3000000000000003, 9.5910000000000014E-12, 7.6900000000000006E-13, 6.873E-12, -7.2678E-08, -1.9999999999999223E-13, 9.5910000000000014E-12, 
DataValue, -0.51, -2, 3.3000000000000003, 9.615E-12, 8.22E-13, 6.9030000000000008E-12, -7.2897E-08, -1.4833333333333475E-12, 9.615E-12, 
DataValue, -0.48, -2, 3.3000000000000003, 9.502E-12, 8.3200000000000009E-13, 6.9130000000000009E-12, -7.3262299999999988E-08, -4.1666666666665988E-13, 9.502E-12, 
DataValue, -0.45, -2, 3.3000000000000003, 9.5900000000000009E-12, 8.8300000000000007E-13, 6.8710000000000009E-12, -7.1983699999999988E-08, 2.1999999999999975E-12, 9.5900000000000009E-12, 
DataValue, -0.42, -2, 3.3000000000000003, 9.634E-12, 8.68E-13, 6.8560000000000007E-12, -7.2673399999999987E-08, -1.1333333333333352E-12, 9.634E-12, 
DataValue, -0.39, -2, 3.3000000000000003, 9.5220000000000008E-12, 9.3E-13, 6.8500000000000009E-12, -7.5546599999999986E-08, -2.1833333333333225E-12, 9.5220000000000008E-12, 
DataValue, -0.36, -2, 3.3000000000000003, 9.503000000000001E-12, 9.0400000000000009E-13, 6.8620000000000004E-12, -7.45501E-08, -1.9000000000000089E-12, 9.503000000000001E-12, 
DataValue, -0.33, -2, 3.3000000000000003, 9.408E-12, 9.6400000000000013E-13, 6.8460000000000005E-12, -7.34162E-08, 8.4999999999999476E-13, 9.408E-12, 
DataValue, -0.3, -2, 3.3000000000000003, 9.554E-12, 1.067E-12, 6.8620000000000004E-12, -7.4444799999999992E-08, 2.4666666666666632E-12, 9.554E-12, 
DataValue, -0.27, -2, 3.3000000000000003, 9.556E-12, 1.0140000000000001E-12, 6.8580000000000009E-12, -7.541669999999999E-08, -1.5499999999999952E-12, 9.556E-12, 
DataValue, -0.24, -2, 3.3000000000000003, 9.461000000000001E-12, 1.0250000000000002E-12, 6.9030000000000008E-12, -7.63697E-08, -5.3333333333333083E-13, 9.461000000000001E-12, 
DataValue, -0.21, -2, 3.3000000000000003, 9.524E-12, 1.04E-12, 6.878E-12, -7.5382399999999988E-08, 6.1666666666665226E-13, 9.524E-12, 
DataValue, -0.18, -2, 3.3000000000000003, 9.498E-12, 1.1770000000000001E-12, 6.831E-12, -7.3798299999999987E-08, -5.6666666666665419E-13, 9.498E-12, 
DataValue, -0.15, -2, 3.3000000000000003, 9.490000000000001E-12, 1.2110000000000002E-12, 6.881E-12, -7.46928E-08, -1.6833333333333145E-12, 9.490000000000001E-12, 
DataValue, -0.12, -2, 3.3000000000000003, 9.3970000000000013E-12, 1.176E-12, 6.8750000000000005E-12, -7.40609E-08, 1.6999999999999895E-12, 9.3970000000000013E-12, 
DataValue, -0.09, -2, 3.3000000000000003, 9.592E-12, 1.187E-12, 6.8400000000000007E-12, -7.3310299999999989E-08, 2.2833333333333188E-12, 9.592E-12, 
DataValue, -0.06, -2, 3.3000000000000003, 9.534E-12, 1.1830000000000001E-12, 6.855E-12, -7.26263E-08, -1.6333333333333163E-12, 9.534E-12, 
DataValue, -0.03, -2, 3.3000000000000003, 9.4940000000000013E-12, 1.222E-12, 6.844E-12, -7.24465E-08, 9.9999999999996217E-14, 9.4940000000000013E-12, 
DataValue, 0, -2, 3.3000000000000003, 9.54E-12, 1.2440000000000002E-12, 6.949E-12, -7.25417E-08, -4.1666666666668679E-13, 9.54E-12, 
DataValue, 0.03, -2, 3.3000000000000003, 9.469E-12, 1.274E-12, 6.8480000000000007E-12, -7.3307E-08, 1.5000000000002125E-13, 9.469E-12, 
DataValue, 0.06, -2, 3.3000000000000003, 9.5490000000000014E-12, 1.3550000000000002E-12, 6.9500000000000009E-12, -7.238659999999999E-08, 1.6833333333333414E-12, 9.5490000000000014E-12, 
DataValue, 0.09, -2, 3.3000000000000003, 9.57E-12, 1.3190000000000001E-12, 6.926E-12, -7.2062499999999988E-08, -9.83333333333341E-13, 9.57E-12, 
DataValue, 0.12, -2, 3.3000000000000003, 9.490000000000001E-12, 1.3480000000000001E-12, 6.844E-12, -7.275789999999999E-08, -1.483333333333322E-12, 9.490000000000001E-12, 
DataValue, 0.15, -2, 3.3000000000000003, 9.4810000000000013E-12, 1.4240000000000002E-12, 6.9110000000000007E-12, -7.29475E-08, 3.8333333333333677E-13, 9.4810000000000013E-12, 
DataValue, 0.18, -2, 3.3000000000000003, 9.5130000000000012E-12, 1.5140000000000002E-12, 6.8690000000000007E-12, -7.21934E-08, -3.333333333335002E-14, 9.5130000000000012E-12, 
DataValue, 0.21, -2, 3.3000000000000003, 9.479E-12, 1.5280000000000002E-12, 6.8830000000000005E-12, -7.2305599999999991E-08, -1.6666666666666932E-13, 9.479E-12, 
DataValue, 0.24, -2, 3.3000000000000003, 9.503000000000001E-12, 1.554E-12, 6.8530000000000008E-12, -7.42968E-08, 2.0500000000000024E-12, 9.503000000000001E-12, 
DataValue, 0.27, -2, 3.3000000000000003, 9.602E-12, 1.6030000000000001E-12, 6.8460000000000005E-12, -7.17464E-08, -4.500000000000099E-13, 9.602E-12, 
DataValue, 0.3, -2, 3.3000000000000003, 9.476E-12, 1.6E-12, 6.915E-12, -7.22058E-08, -1.5666666666666702E-12, 9.476E-12, 
DataValue, 0.33, -2, 3.3000000000000003, 9.508E-12, 1.686E-12, 6.826E-12, -7.18845E-08, -1.1666666666667123E-13, 9.508E-12, 
DataValue, 0.36, -2, 3.3000000000000003, 9.469E-12, 1.7120000000000002E-12, 6.894E-12, -7.1338599999999993E-08, 1.3166666666666796E-12, 9.469E-12, 
