
SetupTitle, NMOS-id-vg-vbs@vds=0.05
PrimitiveTest, I/V Sweep
TestParameter, Context.MainFrame, B1500A
TestParameter, Channel.UnitType, SMU, SMU, SMU, SMU
TestParameter, Channel.Unit, SMU2:HR, SMU1:HR, SMU3:HR, SMU4:HR
TestParameter, Channel.IName, ib, is, ig, id
TestParameter, Channel.VName, vb, vs, vg, vd
TestParameter, Channel.Mode, V, COMMON, V, V
TestParameter, Channel.Func, VAR2, CONST, VAR1, CONST
TestParameter, Channel.Index, 
TestParameter, Channel.Time, 
TestParameter, Measurement.Port.Unit, SMU2:HR, SMU1:HR, SMU3:HR, SMU4:HR
TestParameter, Measurement.Port.SeriesResistor, NONE, NONE, NONE, NONE
TestParameter, Measurement.Port.Filter, ON, ON, ON, ON
TestParameter, Measurement.Port.OutputVoltageComparison, 0, 0, 0, 0
TestParameter, Measurement.Primary.Locus, Single
TestParameter, Measurement.Primary.Scale, LINEAR
TestParameter, Measurement.Primary.Start, -0.5
TestParameter, Measurement.Primary.Stop, 3.3000000000000003
TestParameter, Measurement.Primary.Step, 0.01
TestParameter, Measurement.Primary.Compliance, 0.001
TestParameter, Measurement.Primary.PowerCompliance, 0
TestParameter, Measurement.Aborting.Condition, SKIP AT ANY ABNORMAL
TestParameter, Measurement.PostOutput.Value, START
TestParameter, Measurement.PostOutput.Retention, OFF
TestParameter, Measurement.Secondary.Start, 0
TestParameter, Measurement.Secondary.Count, 7
TestParameter, Measurement.Secondary.Step, -0.6
TestParameter, Measurement.Secondary.Compliance, 0.1
TestParameter, Measurement.Secondary.PowerCompliance, 0
TestParameter, Measurement.Bias.Source, 0, 0, -0.5, 0.05
TestParameter, Measurement.Bias.Compliance, 0.1, 0.1, 0.001, 0.1
TestParameter, Measurement.Monitor.Unit, SMU2:HR, SMU1:HR, SMU3:HR, SMU4:HR
TestParameter, Measurement.Monitor.Adc, HR ADC, HR ADC, HR ADC, HR ADC
TestParameter, Measurement.Monitor.Measurement, Compliance Side, Compliance Side, Compliance Side, Compliance Side
TestParameter, Measurement.Monitor.RangingMode, LIMITED, LIMITED, LIMITED, LIMITED
TestParameter, Measurement.Monitor.RangeBoundary, 1nA, 1nA, 1nA, 1nA
TestParameter, Measurement.Monitor.RangeRating, BY FULL RANGE, BY FULL RANGE, BY FULL RANGE, BY FULL RANGE
TestParameter, Measurement.Monitor.RangeRatingCoeff, 50, 50, 50, 50
TestParameter, Measurement.Timing.Hold, 0
TestParameter, Measurement.Timing.Delay, 0
TestParameter, Measurement.Adc.HighSpeed.Mode, AUTO
TestParameter, Measurement.Adc.HighSpeed.Coeff, 1
TestParameter, Measurement.Adc.HighResolution.AutoZero, OFF
TestParameter, Measurement.Adc.HighResolution.Mode, AUTO
TestParameter, Measurement.Adc.HighResolution.Coeff, 6
TestParameter, Measurement.WaitTime.Source.Coeff, 1
TestParameter, Measurement.WaitTime.Source.Offset, 0
TestParameter, Measurement.WaitTime.Monitor.Coeff, 1
TestParameter, Measurement.WaitTime.Monitor.Offset, 0
TestParameter, Output.Graph.Enabled, true
TestParameter, Output.Graph.AutoScaling, false
TestParameter, Output.Graph.XAxis.Data, vg
TestParameter, Output.Graph.XAxis.Scale, Linear
TestParameter, Output.Graph.XAxis.Left, 0
TestParameter, Output.Graph.XAxis.Right, 0.9
TestParameter, Output.Graph.XAxis.RunTimeAutoScale, true
TestParameter, Output.Graph.YAxis.Data, id
TestParameter, Output.Graph.YAxis.Scale, Linear
TestParameter, Output.Graph.YAxis.Bottom, -0.1
TestParameter, Output.Graph.YAxis.Top, 0.1
TestParameter, Output.Graph.YAxis.Group, 
TestParameter, Output.Graph.YAxis.RunTimeAutoScale, true
TestParameter, AutoAnalysis.Interpolation, false
TestParameter, AutoAnalysis.Var2StepCount, 1
TestParameter, AutoAnalysis.Var2StepScript, 
TestParameter, AutoAnalysis.Line1.Enabled, false
TestParameter, AutoAnalysis.Line1.Type, 1
TestParameter, AutoAnalysis.Line1.Fix, True
TestParameter, AutoAnalysis.Line1.YAxis, 0
TestParameter, AutoAnalysis.Line1.Point1.Type, 0
TestParameter, AutoAnalysis.Line1.Point1.XY.X, 
TestParameter, AutoAnalysis.Line1.Point1.XY.Y, 
TestParameter, AutoAnalysis.Line1.Point1.Data.Var, 
TestParameter, AutoAnalysis.Line1.Point1.Data.Condition, 
TestParameter, AutoAnalysis.Line1.Point1.Data.Start, false
TestParameter, AutoAnalysis.Line1.Point1.Data.StartVar, 
TestParameter, AutoAnalysis.Line1.Point1.Data.StartCondition, 
TestParameter, AutoAnalysis.Line1.Point2.Type, 0
TestParameter, AutoAnalysis.Line1.Point2.XY.X, 
TestParameter, AutoAnalysis.Line1.Point2.XY.Y, 
TestParameter, AutoAnalysis.Line1.Point2.Data.Var, 
TestParameter, AutoAnalysis.Line1.Point2.Data.Condition, 
TestParameter, AutoAnalysis.Line1.Point2.Data.Start, false
TestParameter, AutoAnalysis.Line1.Point2.Data.StartVar, 
TestParameter, AutoAnalysis.Line1.Point2.Data.StartCondition, 
TestParameter, AutoAnalysis.Line1.GradientExpr, 0
TestParameter, AutoAnalysis.Line2.Enabled, false
TestParameter, AutoAnalysis.Line2.Type, 1
TestParameter, AutoAnalysis.Line2.Fix, True
TestParameter, AutoAnalysis.Line2.YAxis, 0
TestParameter, AutoAnalysis.Line2.Point1.Type, 0
TestParameter, AutoAnalysis.Line2.Point1.XY.X, 
TestParameter, AutoAnalysis.Line2.Point1.XY.Y, 
TestParameter, AutoAnalysis.Line2.Point1.Data.Var, 
TestParameter, AutoAnalysis.Line2.Point1.Data.Condition, 
TestParameter, AutoAnalysis.Line2.Point1.Data.Start, false
TestParameter, AutoAnalysis.Line2.Point1.Data.StartVar, 
TestParameter, AutoAnalysis.Line2.Point1.Data.StartCondition, 
TestParameter, AutoAnalysis.Line2.Point2.Type, 0
TestParameter, AutoAnalysis.Line2.Point2.XY.X, 
TestParameter, AutoAnalysis.Line2.Point2.XY.Y, 
TestParameter, AutoAnalysis.Line2.Point2.Data.Var, 
TestParameter, AutoAnalysis.Line2.Point2.Data.Condition, 
TestParameter, AutoAnalysis.Line2.Point2.Data.Start, false
TestParameter, AutoAnalysis.Line2.Point2.Data.StartVar, 
TestParameter, AutoAnalysis.Line2.Point2.Data.StartCondition, 
TestParameter, AutoAnalysis.Line2.GradientExpr, 0
TestParameter, AutoAnalysis.Marker.Enabled, false
TestParameter, AutoAnalysis.Marker.Data.Var, 
TestParameter, AutoAnalysis.Marker.Data.Condition, 
TestParameter, AutoAnalysis.Marker.Data.Start, false
TestParameter, AutoAnalysis.Marker.Data.StartVar, 
TestParameter, AutoAnalysis.Marker.Data.StartCondition, 
MetaData, TestRecord.EntryPoint, true
MetaData, TestRecord.RecordTime, 01/16/2024 16:47:48
MetaData, TestRecord.TestTarget, N-1-0.35-298K
MetaData, TestRecord.IterationIndex, 2
MetaData, TestRecord.Preservation, true
MetaData, TestRecord.Flag, 
MetaData, TestRecord.Remarks, 
MetaData, TestRecord.LinkKey, 863994a6-d3ac-45f8-9849-192caf39dfa5
MetaData, TestRecord.Parameters, 
Dimension1, 381, 381
Dimension2, 7, 7
DataName, vg, id
DataValue, -0.5, 3.81E-12
DataValue, -0.49, 5.09E-12
DataValue, -0.48, 1.2220000000000001E-11
DataValue, -0.47000000000000003, 1.4200000000000002E-12
DataValue, -0.46, 5.49E-12
DataValue, -0.45, 1.0920000000000001E-11
DataValue, -0.44, -1.1600000000000001E-12
DataValue, -0.43, 5.7800000000000008E-12
DataValue, -0.42, 9.47E-12
DataValue, -0.41000000000000003, -2.3300000000000004E-12
DataValue, -0.4, 5.58E-12
DataValue, -0.39, 1.1130000000000001E-11
DataValue, -0.38, -1.78E-12
DataValue, -0.37, 5.8600000000000005E-12
DataValue, -0.36, 8.83E-12
DataValue, -0.35000000000000003, -2.64E-12
DataValue, -0.34, 6.1700000000000006E-12
DataValue, -0.33, 8.0900000000000013E-12
DataValue, -0.32, -1.91E-12
DataValue, -0.31, 5.43E-12
DataValue, -0.3, 1.2870000000000002E-11
DataValue, -0.29, 2.7800000000000003E-12
DataValue, -0.28, 3.9800000000000004E-12
DataValue, -0.27, 1.2870000000000002E-11
DataValue, -0.26, 4.8500000000000005E-12
DataValue, -0.25, 3.2E-12
DataValue, -0.24, 1.19E-11
DataValue, -0.23, 5.7E-12
DataValue, -0.22, 9.4E-13
DataValue, -0.21, 9.53E-12
DataValue, -0.2, 6.25E-12
DataValue, -0.19, -2.8800000000000002E-12
DataValue, -0.18, 5.99E-12
DataValue, -0.17, 8.12E-12
DataValue, -0.16, -9.9E-13
DataValue, -0.15, 5.5600000000000005E-12
DataValue, -0.14, 1.2040000000000001E-11
DataValue, -0.13, 4.28E-12
DataValue, -0.12, 5.07E-12
DataValue, -0.11, 1.351E-11
DataValue, -0.1, 5.2200000000000008E-12
DataValue, -0.09, 5.5100000000000006E-12
DataValue, -0.08, 7.8600000000000008E-12
DataValue, -0.07, -2.69E-12
DataValue, -0.06, 5.7600000000000005E-12
DataValue, -0.05, 6.8200000000000004E-12
DataValue, -0.04, -2.6100000000000004E-12
DataValue, -0.03, 6.81E-12
DataValue, -0.02, 5.8800000000000008E-12
DataValue, -0.01, -2.03E-12
DataValue, 0, 1.038E-11
DataValue, 0.01, 5.49E-12
DataValue, 0.02, -4.1E-13
DataValue, 0.03, 1.1940000000000001E-11
DataValue, 0.04, 5.24E-12
DataValue, 0.05, 3.7000000000000004E-13
DataValue, 0.06, 1.363E-11
DataValue, 0.07, 5.58E-12
DataValue, 0.08, -1.6300000000000001E-12
DataValue, 0.09, 6.5700000000000005E-12
DataValue, 0.1, 8.2000000000000014E-12
DataValue, 0.11, -2.7000000000000002E-12
DataValue, 0.12, 6.09E-12
DataValue, 0.13, 8.32E-12
DataValue, 0.14, -1.0100000000000001E-12
DataValue, 0.15, 5.2700000000000008E-12
DataValue, 0.16, 1.0850000000000002E-11
DataValue, 0.17, 2.51E-12
DataValue, 0.18, 5.5200000000000007E-12
DataValue, 0.19, 1.3700000000000002E-11
DataValue, 0.2, 5.7600000000000005E-12
DataValue, 0.21, 3.51E-12
DataValue, 0.22, 1.3190000000000002E-11
DataValue, 0.23, 6.9500000000000009E-12
DataValue, 0.24, 2.04E-12
DataValue, 0.25, 1.16E-11
DataValue, 0.26, 7.55E-12
DataValue, 0.27, -2.8E-13
DataValue, 0.28, 9.1100000000000014E-12
DataValue, 0.29, 1.48E-11
DataValue, 0.3, 7.93E-12
DataValue, 0.31, 1.049E-11
DataValue, 0.32, 2.1420000000000002E-11
DataValue, 0.33, 1.551E-11
DataValue, 0.34, 1.542E-11
DataValue, 0.35000000000000003, 2.7850000000000003E-11
DataValue, 0.36, 2.7050000000000003E-11
DataValue, 0.37, 3.3080000000000004E-11
DataValue, 0.38, 4.2080000000000005E-11
DataValue, 0.39, 4.232E-11
DataValue, 0.4, 6.397E-11
DataValue, 0.41000000000000003, 8.009E-11
DataValue, 0.42, 9.225E-11
DataValue, 0.43, 1.3025000000000002E-10
DataValue, 0.44, 1.6145000000000002E-10
DataValue, 0.45, 1.9966E-10
DataValue, 0.46, 2.8879000000000004E-10
DataValue, 0.47000000000000003, 3.3607E-10
DataValue, 0.48, 4.2422E-10
DataValue, 0.49, 5.5957000000000006E-10
DataValue, 0.5, 7.0477E-10
DataValue, 0.51, 9.017000000000001E-10
DataValue, 0.52, 1.2363E-09
DataValue, 0.53, 1.4937E-09
DataValue, 0.54, 1.9829E-09
DataValue, 0.55, 2.4876E-09
DataValue, 0.56, 3.21E-09
DataValue, 0.57000000000000006, 3.9961E-09
DataValue, 0.58, 5.0897E-09
DataValue, 0.59, 6.4774E-09
DataValue, 0.6, 8.2181E-09
DataValue, 0.61, 1.03708E-08
DataValue, 0.62, 1.3793399999999998E-08
DataValue, 0.63, 1.7316599999999997E-08
DataValue, 0.64, 2.3181599999999997E-08
DataValue, 0.65, 2.6989599999999997E-08
DataValue, 0.66, 3.34418E-08
DataValue, 0.67, 4.1422799999999996E-08
DataValue, 0.68, 5.07918E-08
DataValue, 0.69000000000000006, 6.2010399999999993E-08
DataValue, 0.70000000000000007, 7.5224E-08
DataValue, 0.71, 9.084719999999999E-08
DataValue, 0.72, 1.0913439999999999E-07
DataValue, 0.73, 1.3184E-07
DataValue, 0.74, 1.549E-07
DataValue, 0.75, 1.8344E-07
DataValue, 0.76, 2.1584E-07
DataValue, 0.77, 2.544E-07
DataValue, 0.78, 2.9825999999999997E-07
DataValue, 0.79, 3.4783999999999997E-07
DataValue, 0.8, 4.0269999999999997E-07
DataValue, 0.81, 4.6674E-07
DataValue, 0.82000000000000006, 5.3792E-07
DataValue, 0.83000000000000007, 6.1858E-07
DataValue, 0.84, 7.0902E-07
DataValue, 0.85, 8.0884E-07
DataValue, 0.86, 9.1898E-07
DataValue, 0.87, 1.03892E-06
DataValue, 0.88, 1.1629000000000001E-06
DataValue, 0.89, 1.3051000000000002E-06
DataValue, 0.9, 1.4601000000000002E-06
DataValue, 0.91, 1.6271000000000003E-06
DataValue, 0.92, 1.8117000000000002E-06
DataValue, 0.93, 1.9987E-06
DataValue, 0.94000000000000006, 2.1951000000000004E-06
DataValue, 0.95000000000000007, 2.3871000000000004E-06
DataValue, 0.96, 2.6012E-06
DataValue, 0.97, 2.8280000000000003E-06
DataValue, 0.98, 3.0540000000000003E-06
DataValue, 0.99, 3.2909000000000005E-06
DataValue, 1, 3.5289000000000002E-06
DataValue, 1.01, 3.7739000000000004E-06
DataValue, 1.02, 4.0204000000000005E-06
DataValue, 1.03, 4.2715000000000005E-06
DataValue, 1.04, 4.5364E-06
DataValue, 1.05, 4.7876000000000005E-06
DataValue, 1.06, 5.0491000000000005E-06
DataValue, 1.07, 5.3142000000000007E-06
DataValue, 1.08, 5.5730000000000007E-06
DataValue, 1.09, 5.8346000000000009E-06
DataValue, 1.1, 6.1032E-06
DataValue, 1.11, 6.3763E-06
DataValue, 1.12, 6.6342000000000008E-06
DataValue, 1.1300000000000001, 6.8979000000000005E-06
DataValue, 1.1400000000000001, 7.1667E-06
DataValue, 1.1500000000000001, 7.4261000000000008E-06
DataValue, 1.16, 7.6822E-06
DataValue, 1.17, 7.9497000000000012E-06
DataValue, 1.18, 8.2157000000000017E-06
DataValue, 1.19, 8.4739E-06
DataValue, 1.2, 8.7275E-06
DataValue, 1.21, 8.9897000000000014E-06
DataValue, 1.22, 9.2426E-06
DataValue, 1.23, 9.4916E-06
DataValue, 1.24, 9.7484000000000014E-06
DataValue, 1.25, 1.0007000000000001E-05
DataValue, 1.26, 1.0254600000000002E-05
DataValue, 1.27, 1.0499500000000002E-05
DataValue, 1.28, 1.07484E-05
DataValue, 1.29, 1.0990100000000002E-05
DataValue, 1.3, 1.1237400000000002E-05
DataValue, 1.31, 1.14772E-05
DataValue, 1.32, 1.1716000000000001E-05
DataValue, 1.33, 1.1952E-05
DataValue, 1.34, 1.2192000000000001E-05
DataValue, 1.35, 1.2426000000000001E-05
DataValue, 1.36, 1.266E-05
DataValue, 1.37, 1.2892000000000001E-05
DataValue, 1.3800000000000001, 1.3126000000000001E-05
DataValue, 1.3900000000000001, 1.3356E-05
DataValue, 1.4000000000000001, 1.3578000000000001E-05
DataValue, 1.41, 1.3798E-05
DataValue, 1.42, 1.4030000000000001E-05
DataValue, 1.43, 1.4254000000000001E-05
DataValue, 1.44, 1.4464E-05
DataValue, 1.45, 1.4688E-05
DataValue, 1.46, 1.4910000000000001E-05
DataValue, 1.47, 1.5118E-05
DataValue, 1.48, 1.5332E-05
DataValue, 1.49, 1.5542E-05
DataValue, 1.5, 1.5754000000000002E-05
DataValue, 1.51, 1.5966E-05
DataValue, 1.52, 1.6174E-05
DataValue, 1.53, 1.637E-05
DataValue, 1.54, 1.6592E-05
DataValue, 1.55, 1.679E-05
DataValue, 1.56, 1.6988E-05
DataValue, 1.57, 1.7196E-05
DataValue, 1.58, 1.74E-05
DataValue, 1.59, 1.7584E-05
DataValue, 1.6, 1.7784E-05
DataValue, 1.61, 1.798E-05
DataValue, 1.62, 1.8172E-05
DataValue, 1.6300000000000001, 1.8372E-05
DataValue, 1.6400000000000001, 1.8554000000000002E-05
DataValue, 1.6500000000000001, 1.8750000000000002E-05
DataValue, 1.6600000000000001, 1.8948000000000002E-05
DataValue, 1.67, 1.9124000000000002E-05
DataValue, 1.68, 1.9302E-05
DataValue, 1.69, 1.9496E-05
DataValue, 1.7, 1.9686E-05
DataValue, 1.71, 1.9856E-05
DataValue, 1.72, 2.004E-05
DataValue, 1.73, 2.0234E-05
DataValue, 1.74, 2.041E-05
DataValue, 1.75, 2.0572000000000002E-05
DataValue, 1.76, 2.0756E-05
DataValue, 1.77, 2.0928E-05
DataValue, 1.78, 2.1108000000000002E-05
DataValue, 1.79, 2.1272000000000002E-05
DataValue, 1.8, 2.1454E-05
DataValue, 1.81, 2.1626E-05
DataValue, 1.82, 2.178E-05
DataValue, 1.83, 2.1964000000000002E-05
DataValue, 1.84, 2.2132E-05
DataValue, 1.85, 2.228E-05
DataValue, 1.86, 2.2448E-05
DataValue, 1.87, 2.2624000000000002E-05
DataValue, 1.8800000000000001, 2.2776E-05
DataValue, 1.8900000000000001, 2.2942E-05
DataValue, 1.9000000000000001, 2.3094E-05
DataValue, 1.9100000000000001, 2.326E-05
DataValue, 1.92, 2.3414E-05
DataValue, 1.93, 2.3558E-05
DataValue, 1.94, 2.3728E-05
DataValue, 1.95, 2.3888000000000002E-05
DataValue, 1.96, 2.4032E-05
DataValue, 1.97, 2.4180000000000002E-05
DataValue, 1.98, 2.4350000000000002E-05
DataValue, 1.99, 2.45E-05
DataValue, 2, 2.4624E-05
DataValue, 2.0100000000000002, 2.4784000000000002E-05
DataValue, 2.02, 2.4948000000000002E-05
DataValue, 2.0300000000000002, 2.5086E-05
DataValue, 2.04, 2.5208E-05
DataValue, 2.05, 2.5362000000000002E-05
DataValue, 2.06, 2.552E-05
DataValue, 2.07, 2.5658E-05
DataValue, 2.08, 2.5782E-05
DataValue, 2.09, 2.5926000000000002E-05
DataValue, 2.1, 2.608E-05
DataValue, 2.11, 2.6218000000000002E-05
DataValue, 2.12, 2.6346E-05
DataValue, 2.13, 2.6470000000000002E-05
DataValue, 2.14, 2.6618E-05
DataValue, 2.15, 2.6762000000000002E-05
DataValue, 2.16, 2.6886E-05
DataValue, 2.17, 2.7020000000000002E-05
DataValue, 2.18, 2.7156000000000002E-05
DataValue, 2.19, 2.7296E-05
DataValue, 2.2, 2.7408000000000003E-05
DataValue, 2.21, 2.7542E-05
DataValue, 2.22, 2.769E-05
DataValue, 2.23, 2.7802000000000002E-05
DataValue, 2.24, 2.7928E-05
DataValue, 2.25, 2.8052000000000002E-05
DataValue, 2.2600000000000002, 2.8184E-05
DataValue, 2.27, 2.8302E-05
DataValue, 2.2800000000000002, 2.8418E-05
DataValue, 2.29, 2.8548000000000002E-05
DataValue, 2.3000000000000003, 2.8682E-05
DataValue, 2.31, 2.8788E-05
DataValue, 2.32, 2.8910000000000003E-05
DataValue, 2.33, 2.9048E-05
DataValue, 2.34, 2.9158E-05
DataValue, 2.35, 2.9258E-05
DataValue, 2.36, 2.9376E-05
DataValue, 2.37, 2.9514000000000002E-05
DataValue, 2.38, 2.9634E-05
DataValue, 2.39, 2.9724000000000002E-05
DataValue, 2.4, 2.9838E-05
DataValue, 2.41, 2.9946E-05
DataValue, 2.42, 3.0070000000000002E-05
DataValue, 2.43, 3.0200000000000002E-05
DataValue, 2.44, 3.0284E-05
DataValue, 2.45, 3.0390000000000002E-05
DataValue, 2.46, 3.0516E-05
DataValue, 2.47, 3.0614E-05
DataValue, 2.48, 3.0702E-05
DataValue, 2.49, 3.0812E-05
DataValue, 2.5, 3.0934E-05
DataValue, 2.5100000000000002, 3.104E-05
DataValue, 2.52, 3.1118E-05
DataValue, 2.5300000000000002, 3.1230000000000004E-05
DataValue, 2.54, 3.1348E-05
DataValue, 2.5500000000000003, 3.1446000000000004E-05
DataValue, 2.56, 3.154E-05
DataValue, 2.57, 3.1666E-05
DataValue, 2.58, 3.1756E-05
DataValue, 2.59, 3.1844E-05
DataValue, 2.6, 3.1944000000000005E-05
DataValue, 2.61, 3.2048E-05
DataValue, 2.62, 3.2132000000000003E-05
DataValue, 2.63, 3.2234000000000003E-05
DataValue, 2.64, 3.2336000000000003E-05
DataValue, 2.65, 3.2426000000000004E-05
DataValue, 2.66, 3.2528000000000004E-05
DataValue, 2.67, 3.2608000000000004E-05
DataValue, 2.68, 3.2722E-05
DataValue, 2.69, 3.2798E-05
DataValue, 2.7, 3.289E-05
DataValue, 2.71, 3.2982000000000004E-05
DataValue, 2.72, 3.3072000000000005E-05
DataValue, 2.73, 3.3156E-05
DataValue, 2.74, 3.324E-05
DataValue, 2.75, 3.3336E-05
DataValue, 2.7600000000000002, 3.344E-05
DataValue, 2.77, 3.3508E-05
DataValue, 2.7800000000000002, 3.3600000000000004E-05
DataValue, 2.79, 3.3694E-05
DataValue, 2.8000000000000003, 3.3774E-05
DataValue, 2.81, 3.3832000000000004E-05
DataValue, 2.82, 3.3946E-05
DataValue, 2.83, 3.4016E-05
DataValue, 2.84, 3.4106E-05
DataValue, 2.85, 3.4172000000000004E-05
DataValue, 2.86, 3.4256E-05
DataValue, 2.87, 3.437E-05
DataValue, 2.88, 3.4426E-05
DataValue, 2.89, 3.4488E-05
DataValue, 2.9, 3.4586000000000004E-05
DataValue, 2.91, 3.467E-05
DataValue, 2.92, 3.473E-05
DataValue, 2.93, 3.4790000000000004E-05
DataValue, 2.94, 3.489E-05
DataValue, 2.95, 3.4968E-05
DataValue, 2.96, 3.5032E-05
DataValue, 2.97, 3.5106E-05
DataValue, 2.98, 3.519E-05
DataValue, 2.99, 3.5282E-05
DataValue, 3, 3.5334000000000004E-05
DataValue, 3.0100000000000002, 3.5408000000000004E-05
DataValue, 3.02, 3.5486E-05
DataValue, 3.0300000000000002, 3.556E-05
DataValue, 3.04, 3.5624E-05
DataValue, 3.0500000000000003, 3.5678E-05
DataValue, 3.06, 3.5776000000000004E-05
DataValue, 3.0700000000000003, 3.5828E-05
DataValue, 3.08, 3.5894E-05
DataValue, 3.09, 3.5968E-05
DataValue, 3.1, 3.6054000000000004E-05
DataValue, 3.11, 3.612E-05
DataValue, 3.12, 3.6158E-05
DataValue, 3.13, 3.6244E-05
DataValue, 3.14, 3.631E-05
DataValue, 3.15, 3.6374E-05
DataValue, 3.16, 3.6442E-05
DataValue, 3.17, 3.65E-05
DataValue, 3.18, 3.6572E-05
DataValue, 3.19, 3.662E-05
DataValue, 3.2, 3.6688E-05
DataValue, 3.21, 3.6746000000000004E-05
DataValue, 3.22, 3.6802000000000004E-05
DataValue, 3.23, 3.6886E-05
DataValue, 3.24, 3.6946E-05
DataValue, 3.25, 3.7E-05
DataValue, 3.2600000000000002, 3.7044E-05
DataValue, 3.27, 3.7146E-05
DataValue, 3.2800000000000002, 3.7168E-05
DataValue, 3.29, 3.7232E-05
DataValue, 3.3000000000000003, 3.7306E-05
DataValue, -0.5, 6.4400000000000008E-12
DataValue, -0.49, 6.7200000000000004E-12
DataValue, -0.48, 3.9000000000000005E-13
DataValue, -0.47000000000000003, 1.3870000000000001E-11
DataValue, -0.46, 3.9E-12
DataValue, -0.45, 5.74E-12
DataValue, -0.44, 8.04E-12
DataValue, -0.43, -1.5400000000000001E-12
DataValue, -0.42, 1.282E-11
DataValue, -0.41000000000000003, 5.53E-12
DataValue, -0.4, 5.9100000000000005E-12
DataValue, -0.39, 1.18E-11
