
SetupTitle, NMOS-id-vd-vgs@vbs=0
PrimitiveTest, I/V Sweep
TestParameter, Context.MainFrame, B1500A
TestParameter, Channel.UnitType, SMU, SMU, SMU, SMU
TestParameter, Channel.Unit, SMU2:HR, SMU1:HR, SMU3:HR, SMU4:HR
TestParameter, Channel.IName, ib, is, ig, id
TestParameter, Channel.VName, vb, vs, vg, vd
TestParameter, Channel.Mode, V, COMMON, V, V
TestParameter, Channel.Func, CONST, CONST, VAR2, VAR1
TestParameter, Channel.Index, 
TestParameter, Channel.Time, 
TestParameter, Measurement.Port.Unit, SMU2:HR, SMU1:HR, SMU3:HR, SMU4:HR
TestParameter, Measurement.Port.SeriesResistor, NONE, NONE, NONE, NONE
TestParameter, Measurement.Port.Filter, ON, ON, ON, ON
TestParameter, Measurement.Port.OutputVoltageComparison, 0, 0, 0, 0
TestParameter, Measurement.Primary.Locus, Single
TestParameter, Measurement.Primary.Scale, LINEAR
TestParameter, Measurement.Primary.Start, 0
TestParameter, Measurement.Primary.Stop, 3.3000000000000003
TestParameter, Measurement.Primary.Step, 0.01
TestParameter, Measurement.Primary.Compliance, 0.1
TestParameter, Measurement.Primary.PowerCompliance, 0
TestParameter, Measurement.Aborting.Condition, SKIP AT ANY ABNORMAL
TestParameter, Measurement.PostOutput.Value, START
TestParameter, Measurement.PostOutput.Retention, OFF
TestParameter, Measurement.Secondary.Start, 0.3
TestParameter, Measurement.Secondary.Count, 6
TestParameter, Measurement.Secondary.Step, 0.6
TestParameter, Measurement.Secondary.Compliance, 0.1
TestParameter, Measurement.Secondary.PowerCompliance, 0
TestParameter, Measurement.Bias.Source, 0, 0, 0.3, 0
TestParameter, Measurement.Bias.Compliance, 0.1, 0.1, 0.1, 0.1
TestParameter, Measurement.Monitor.Unit, SMU2:HR, SMU1:HR, SMU3:HR, SMU4:HR
TestParameter, Measurement.Monitor.Adc, HR ADC, HR ADC, HR ADC, HR ADC
TestParameter, Measurement.Monitor.Measurement, Compliance Side, Compliance Side, Compliance Side, Compliance Side
TestParameter, Measurement.Monitor.RangingMode, LIMITED, LIMITED, LIMITED, LIMITED
TestParameter, Measurement.Monitor.RangeBoundary, 1nA, 1nA, 1nA, 1nA
TestParameter, Measurement.Monitor.RangeRating, BY FULL RANGE, BY FULL RANGE, BY FULL RANGE, BY FULL RANGE
TestParameter, Measurement.Monitor.RangeRatingCoeff, 50, 50, 50, 50
TestParameter, Measurement.Timing.Hold, 0
TestParameter, Measurement.Timing.Delay, 0
TestParameter, Measurement.Adc.HighSpeed.Mode, AUTO
TestParameter, Measurement.Adc.HighSpeed.Coeff, 1
TestParameter, Measurement.Adc.HighResolution.AutoZero, OFF
TestParameter, Measurement.Adc.HighResolution.Mode, AUTO
TestParameter, Measurement.Adc.HighResolution.Coeff, 6
TestParameter, Measurement.WaitTime.Source.Coeff, 1
TestParameter, Measurement.WaitTime.Source.Offset, 0
TestParameter, Measurement.WaitTime.Monitor.Coeff, 1
TestParameter, Measurement.WaitTime.Monitor.Offset, 0
TestParameter, Output.Graph.Enabled, true
TestParameter, Output.Graph.AutoScaling, false
TestParameter, Output.Graph.XAxis.Data, vd
TestParameter, Output.Graph.XAxis.Scale, Linear
TestParameter, Output.Graph.XAxis.Left, 0
TestParameter, Output.Graph.XAxis.Right, 1
TestParameter, Output.Graph.XAxis.RunTimeAutoScale, true
TestParameter, Output.Graph.YAxis.Data, id
TestParameter, Output.Graph.YAxis.Scale, Linear
TestParameter, Output.Graph.YAxis.Bottom, -0.1
TestParameter, Output.Graph.YAxis.Top, 0.1
TestParameter, Output.Graph.YAxis.Group, 
TestParameter, Output.Graph.YAxis.RunTimeAutoScale, true
TestParameter, AutoAnalysis.Interpolation, false
TestParameter, AutoAnalysis.Var2StepCount, 1
TestParameter, AutoAnalysis.Var2StepScript, 
TestParameter, AutoAnalysis.Line1.Enabled, false
TestParameter, AutoAnalysis.Line1.Type, 1
TestParameter, AutoAnalysis.Line1.Fix, True
TestParameter, AutoAnalysis.Line1.YAxis, 0
TestParameter, AutoAnalysis.Line1.Point1.Type, 0
TestParameter, AutoAnalysis.Line1.Point1.XY.X, 
TestParameter, AutoAnalysis.Line1.Point1.XY.Y, 
TestParameter, AutoAnalysis.Line1.Point1.Data.Var, 
TestParameter, AutoAnalysis.Line1.Point1.Data.Condition, 
TestParameter, AutoAnalysis.Line1.Point1.Data.Start, false
TestParameter, AutoAnalysis.Line1.Point1.Data.StartVar, 
TestParameter, AutoAnalysis.Line1.Point1.Data.StartCondition, 
TestParameter, AutoAnalysis.Line1.Point2.Type, 0
TestParameter, AutoAnalysis.Line1.Point2.XY.X, 
TestParameter, AutoAnalysis.Line1.Point2.XY.Y, 
TestParameter, AutoAnalysis.Line1.Point2.Data.Var, 
TestParameter, AutoAnalysis.Line1.Point2.Data.Condition, 
TestParameter, AutoAnalysis.Line1.Point2.Data.Start, false
TestParameter, AutoAnalysis.Line1.Point2.Data.StartVar, 
TestParameter, AutoAnalysis.Line1.Point2.Data.StartCondition, 
TestParameter, AutoAnalysis.Line1.GradientExpr, 0
TestParameter, AutoAnalysis.Line2.Enabled, false
TestParameter, AutoAnalysis.Line2.Type, 1
TestParameter, AutoAnalysis.Line2.Fix, True
TestParameter, AutoAnalysis.Line2.YAxis, 0
TestParameter, AutoAnalysis.Line2.Point1.Type, 0
TestParameter, AutoAnalysis.Line2.Point1.XY.X, 
TestParameter, AutoAnalysis.Line2.Point1.XY.Y, 
TestParameter, AutoAnalysis.Line2.Point1.Data.Var, 
TestParameter, AutoAnalysis.Line2.Point1.Data.Condition, 
TestParameter, AutoAnalysis.Line2.Point1.Data.Start, false
TestParameter, AutoAnalysis.Line2.Point1.Data.StartVar, 
TestParameter, AutoAnalysis.Line2.Point1.Data.StartCondition, 
TestParameter, AutoAnalysis.Line2.Point2.Type, 0
TestParameter, AutoAnalysis.Line2.Point2.XY.X, 
TestParameter, AutoAnalysis.Line2.Point2.XY.Y, 
TestParameter, AutoAnalysis.Line2.Point2.Data.Var, 
TestParameter, AutoAnalysis.Line2.Point2.Data.Condition, 
TestParameter, AutoAnalysis.Line2.Point2.Data.Start, false
TestParameter, AutoAnalysis.Line2.Point2.Data.StartVar, 
TestParameter, AutoAnalysis.Line2.Point2.Data.StartCondition, 
TestParameter, AutoAnalysis.Line2.GradientExpr, 0
TestParameter, AutoAnalysis.Marker.Enabled, false
TestParameter, AutoAnalysis.Marker.Data.Var, 
TestParameter, AutoAnalysis.Marker.Data.Condition, 
TestParameter, AutoAnalysis.Marker.Data.Start, false
TestParameter, AutoAnalysis.Marker.Data.StartVar, 
TestParameter, AutoAnalysis.Marker.Data.StartCondition, 
MetaData, TestRecord.EntryPoint, true
MetaData, TestRecord.RecordTime, 01/16/2024 16:48:34
MetaData, TestRecord.TestTarget, N-1-0.35-298K
MetaData, TestRecord.IterationIndex, 2
MetaData, TestRecord.Preservation, true
MetaData, TestRecord.Flag, 
MetaData, TestRecord.Remarks, 
MetaData, TestRecord.LinkKey, cb797678-2ce8-44da-b898-43f87912dac8
MetaData, TestRecord.Parameters, 
Dimension1, 331, 331
Dimension2, 6, 6
DataName, vd, id
DataValue, 0, 7.11E-12
DataValue, 0.01, 5.1200000000000008E-12
DataValue, 0.02, 1.117E-11
DataValue, 0.03, 5.48E-12
DataValue, 0.04, 1.4210000000000002E-11
DataValue, 0.05, 4.82E-12
DataValue, 0.06, 1.679E-11
DataValue, 0.07, 4.2000000000000007E-12
DataValue, 0.08, 1.7850000000000002E-11
DataValue, 0.09, 3.2900000000000003E-12
DataValue, 0.1, 1.852E-11
DataValue, 0.11, 3.0100000000000003E-12
DataValue, 0.12, 1.824E-11
DataValue, 0.13, 3.1400000000000004E-12
DataValue, 0.14, 1.825E-11
DataValue, 0.15, 4.6500000000000006E-12
DataValue, 0.16, 1.682E-11
DataValue, 0.17, 5.8200000000000006E-12
DataValue, 0.18, 1.4740000000000002E-11
DataValue, 0.19, 8.51E-12
DataValue, 0.2, 1.2680000000000002E-11
DataValue, 0.21, 1.014E-11
DataValue, 0.22, 1.16E-11
DataValue, 0.23, 1.078E-11
DataValue, 0.24, 1.1310000000000001E-11
DataValue, 0.25, 1.0910000000000001E-11
DataValue, 0.26, 1.179E-11
DataValue, 0.27, 1.126E-11
DataValue, 0.28, 1.1310000000000001E-11
DataValue, 0.29, 1.139E-11
DataValue, 0.3, 1.097E-11
DataValue, 0.31, 1.1550000000000002E-11
DataValue, 0.32, 1.1540000000000001E-11
DataValue, 0.33, 1.1560000000000002E-11
DataValue, 0.34, 1.118E-11
DataValue, 0.35000000000000003, 1.21E-11
DataValue, 0.36, 1.058E-11
DataValue, 0.37, 1.3750000000000001E-11
DataValue, 0.38, 9.5900000000000009E-12
DataValue, 0.39, 1.404E-11
DataValue, 0.4, 7.870000000000001E-12
DataValue, 0.41000000000000003, 1.5870000000000002E-11
DataValue, 0.42, 8.1000000000000014E-12
DataValue, 0.43, 1.6070000000000002E-11
DataValue, 0.44, 6.3700000000000005E-12
DataValue, 0.45, 1.732E-11
DataValue, 0.46, 4.98E-12
DataValue, 0.47000000000000003, 1.89E-11
DataValue, 0.48, 4.2500000000000007E-12
DataValue, 0.49, 1.808E-11
DataValue, 0.5, 4.6100000000000008E-12
DataValue, 0.51, 1.91E-11
DataValue, 0.52, 3.6200000000000003E-12
DataValue, 0.53, 1.9490000000000002E-11
DataValue, 0.54, 4.0900000000000005E-12
DataValue, 0.55, 1.9490000000000002E-11
DataValue, 0.56, 4.7100000000000007E-12
DataValue, 0.57000000000000006, 1.823E-11
DataValue, 0.58, 6.1300000000000007E-12
DataValue, 0.59, 1.608E-11
DataValue, 0.6, 8.21E-12
DataValue, 0.61, 1.475E-11
DataValue, 0.62, 1.045E-11
DataValue, 0.63, 1.2640000000000001E-11
DataValue, 0.64, 1.1430000000000001E-11
DataValue, 0.65, 1.2140000000000001E-11
DataValue, 0.66, 1.167E-11
DataValue, 0.67, 1.2340000000000001E-11
DataValue, 0.68, 1.26E-11
DataValue, 0.69000000000000006, 1.2160000000000002E-11
DataValue, 0.70000000000000007, 1.2250000000000001E-11
DataValue, 0.71, 1.18E-11
DataValue, 0.72, 1.262E-11
DataValue, 0.73, 1.1110000000000001E-11
DataValue, 0.74, 1.3600000000000002E-11
DataValue, 0.75, 9.87E-12
DataValue, 0.76, 1.5030000000000002E-11
DataValue, 0.77, 8.34E-12
DataValue, 0.78, 1.668E-11
DataValue, 0.79, 6.7300000000000006E-12
DataValue, 0.8, 1.8510000000000003E-11
DataValue, 0.81, 5.39E-12
DataValue, 0.82000000000000006, 1.9730000000000003E-11
DataValue, 0.83000000000000007, 4.46E-12
DataValue, 0.84, 1.9820000000000002E-11
DataValue, 0.85, 4.74E-12
DataValue, 0.86, 1.988E-11
DataValue, 0.87, 4.89E-12
DataValue, 0.88, 1.921E-11
DataValue, 0.89, 6.0600000000000004E-12
DataValue, 0.9, 1.7510000000000003E-11
DataValue, 0.91, 8.480000000000001E-12
DataValue, 0.92, 1.5380000000000003E-11
DataValue, 0.93, 1.0620000000000001E-11
DataValue, 0.94000000000000006, 1.3240000000000001E-11
DataValue, 0.95000000000000007, 1.1940000000000001E-11
DataValue, 0.96, 1.289E-11
DataValue, 0.97, 1.199E-11
DataValue, 0.98, 1.2580000000000002E-11
DataValue, 0.99, 1.31E-11
DataValue, 1, 1.2240000000000001E-11
DataValue, 1.01, 1.3030000000000001E-11
DataValue, 1.02, 1.228E-11
DataValue, 1.03, 1.3180000000000002E-11
DataValue, 1.04, 1.16E-11
DataValue, 1.05, 1.382E-11
DataValue, 1.06, 1.129E-11
DataValue, 1.07, 1.529E-11
DataValue, 1.08, 8.65E-12
DataValue, 1.09, 1.732E-11
DataValue, 1.1, 7.39E-12
DataValue, 1.11, 1.865E-11
DataValue, 1.12, 5.89E-12
DataValue, 1.1300000000000001, 1.837E-11
DataValue, 1.1400000000000001, 6.4900000000000008E-12
DataValue, 1.1500000000000001, 1.9470000000000002E-11
DataValue, 1.16, 5.38E-12
DataValue, 1.17, 2.025E-11
DataValue, 1.18, 4.58E-12
DataValue, 1.19, 1.967E-11
DataValue, 1.2, 5.43E-12
DataValue, 1.21, 2.056E-11
DataValue, 1.22, 4.9500000000000005E-12
DataValue, 1.23, 2.13E-11
DataValue, 1.24, 5.65E-12
DataValue, 1.25, 1.985E-11
DataValue, 1.26, 6.8900000000000007E-12
DataValue, 1.27, 1.721E-11
DataValue, 1.28, 1.0110000000000001E-11
DataValue, 1.29, 1.5360000000000002E-11
DataValue, 1.3, 1.2320000000000001E-11
DataValue, 1.31, 1.3640000000000001E-11
DataValue, 1.32, 1.271E-11
DataValue, 1.33, 1.3560000000000001E-11
DataValue, 1.34, 1.2850000000000001E-11
DataValue, 1.35, 1.3580000000000002E-11
DataValue, 1.36, 1.3060000000000001E-11
DataValue, 1.37, 1.2750000000000001E-11
DataValue, 1.3800000000000001, 1.3860000000000001E-11
DataValue, 1.3900000000000001, 1.2430000000000001E-11
DataValue, 1.4000000000000001, 1.499E-11
DataValue, 1.41, 1.1150000000000002E-11
DataValue, 1.42, 1.5780000000000003E-11
DataValue, 1.43, 9.98E-12
DataValue, 1.44, 1.7380000000000002E-11
DataValue, 1.45, 1.098E-11
DataValue, 1.46, 1.562E-11
DataValue, 1.47, 9.86E-12
DataValue, 1.48, 1.784E-11
DataValue, 1.49, 1.159E-11
DataValue, 1.5, 1.4300000000000002E-11
DataValue, 1.51, 1.26E-11
DataValue, 1.52, 1.4200000000000002E-11
DataValue, 1.53, 1.18E-11
DataValue, 1.54, 1.637E-11
DataValue, 1.55, 1.035E-11
DataValue, 1.56, 1.7250000000000002E-11
DataValue, 1.57, 8.780000000000001E-12
DataValue, 1.58, 1.863E-11
DataValue, 1.59, 7.39E-12
DataValue, 1.6, 2.008E-11
DataValue, 1.61, 6.36E-12
DataValue, 1.62, 2.1040000000000002E-11
DataValue, 1.6300000000000001, 5.5200000000000007E-12
DataValue, 1.6400000000000001, 2.112E-11
DataValue, 1.6500000000000001, 5.7E-12
DataValue, 1.6600000000000001, 2.078E-11
DataValue, 1.67, 6.6900000000000008E-12
DataValue, 1.68, 1.9780000000000002E-11
DataValue, 1.69, 8.52E-12
DataValue, 1.7, 1.923E-11
DataValue, 1.71, 9.54E-12
DataValue, 1.72, 1.6400000000000003E-11
DataValue, 1.73, 1.1870000000000002E-11
DataValue, 1.74, 1.493E-11
DataValue, 1.75, 1.31E-11
DataValue, 1.76, 1.4180000000000001E-11
DataValue, 1.77, 1.1930000000000001E-11
DataValue, 1.78, 1.561E-11
DataValue, 1.79, 1.2980000000000002E-11
DataValue, 1.8, 1.4180000000000001E-11
DataValue, 1.81, 1.361E-11
DataValue, 1.82, 1.402E-11
DataValue, 1.83, 1.363E-11
DataValue, 1.84, 1.3760000000000001E-11
DataValue, 1.85, 1.48E-11
DataValue, 1.86, 1.3390000000000002E-11
DataValue, 1.87, 1.4480000000000001E-11
DataValue, 1.8800000000000001, 1.2630000000000001E-11
DataValue, 1.8900000000000001, 1.5870000000000002E-11
DataValue, 1.9000000000000001, 1.1430000000000001E-11
DataValue, 1.9100000000000001, 1.755E-11
DataValue, 1.92, 9.27E-12
DataValue, 1.93, 1.8690000000000002E-11
DataValue, 1.94, 8.1900000000000013E-12
DataValue, 1.95, 2.045E-11
DataValue, 1.96, 6.91E-12
DataValue, 1.97, 2.1530000000000002E-11
DataValue, 1.98, 7.33E-12
DataValue, 1.99, 2.107E-11
DataValue, 2, 6.2800000000000007E-12
DataValue, 2.0100000000000002, 2.178E-11
DataValue, 2.02, 6.3200000000000005E-12
DataValue, 2.0300000000000002, 2.212E-11
DataValue, 2.04, 6.46E-12
DataValue, 2.05, 2.11E-11
DataValue, 2.06, 8.26E-12
DataValue, 2.07, 1.883E-11
DataValue, 2.08, 1.0950000000000002E-11
DataValue, 2.09, 1.6380000000000003E-11
DataValue, 2.1, 1.3580000000000002E-11
DataValue, 2.11, 1.4480000000000001E-11
DataValue, 2.12, 1.394E-11
DataValue, 2.13, 1.4920000000000002E-11
DataValue, 2.14, 1.412E-11
DataValue, 2.15, 1.4200000000000002E-11
DataValue, 2.16, 1.5050000000000002E-11
DataValue, 2.17, 1.372E-11
DataValue, 2.18, 1.47E-11
DataValue, 2.19, 1.383E-11
DataValue, 2.2, 1.591E-11
DataValue, 2.21, 1.1970000000000002E-11
DataValue, 2.22, 1.755E-11
DataValue, 2.23, 1.1350000000000002E-11
DataValue, 2.24, 1.8560000000000002E-11
DataValue, 2.25, 9.64E-12
DataValue, 2.2600000000000002, 2.0710000000000002E-11
DataValue, 2.27, 7.61E-12
DataValue, 2.2800000000000002, 2.181E-11
DataValue, 2.29, 6.7800000000000006E-12
DataValue, 2.3000000000000003, 2.2680000000000003E-11
DataValue, 2.31, 6.5E-12
DataValue, 2.32, 2.154E-11
DataValue, 2.33, 7.21E-12
DataValue, 2.34, 2.2210000000000003E-11
DataValue, 2.35, 6.7E-12
DataValue, 2.36, 2.2410000000000003E-11
DataValue, 2.37, 7.0300000000000005E-12
DataValue, 2.38, 2.1910000000000002E-11
DataValue, 2.39, 8.1800000000000011E-12
DataValue, 2.4, 2.078E-11
DataValue, 2.41, 1.029E-11
DataValue, 2.42, 1.739E-11
DataValue, 2.43, 1.3340000000000001E-11
DataValue, 2.44, 1.5760000000000002E-11
DataValue, 2.45, 1.4310000000000002E-11
DataValue, 2.46, 1.5430000000000002E-11
DataValue, 2.47, 1.5520000000000002E-11
DataValue, 2.48, 1.5160000000000002E-11
DataValue, 2.49, 1.5070000000000003E-11
DataValue, 2.5, 1.5050000000000002E-11
DataValue, 2.5100000000000002, 1.4760000000000003E-11
DataValue, 2.52, 1.4870000000000003E-11
DataValue, 2.5300000000000002, 1.4870000000000003E-11
DataValue, 2.54, 1.5140000000000002E-11
DataValue, 2.5500000000000003, 1.5180000000000003E-11
DataValue, 2.56, 1.444E-11
DataValue, 2.57, 1.571E-11
DataValue, 2.58, 1.4090000000000002E-11
DataValue, 2.59, 1.6490000000000003E-11
DataValue, 2.6, 1.241E-11
DataValue, 2.61, 1.806E-11
DataValue, 2.62, 1.046E-11
DataValue, 2.63, 2.061E-11
DataValue, 2.64, 8.9800000000000009E-12
DataValue, 2.65, 2.143E-11
DataValue, 2.66, 7.39E-12
DataValue, 2.67, 2.2810000000000003E-11
DataValue, 2.68, 7.1400000000000007E-12
DataValue, 2.69, 2.316E-11
DataValue, 2.7, 7.2400000000000007E-12
DataValue, 2.71, 2.2820000000000002E-11
DataValue, 2.72, 8.2000000000000014E-12
DataValue, 2.73, 2.1700000000000003E-11
DataValue, 2.74, 9.78E-12
DataValue, 2.75, 1.928E-11
DataValue, 2.7600000000000002, 1.251E-11
DataValue, 2.77, 1.7200000000000003E-11
DataValue, 2.7800000000000002, 1.5270000000000003E-11
DataValue, 2.79, 1.5940000000000002E-11
DataValue, 2.8000000000000003, 1.495E-11
DataValue, 2.81, 1.58E-11
DataValue, 2.82, 1.559E-11
DataValue, 2.83, 1.646E-11
DataValue, 2.84, 1.1120000000000001E-11
DataValue, 2.85, 2.2900000000000003E-11
DataValue, 2.86, 9.07E-12
DataValue, 2.87, 1.999E-11
DataValue, 2.88, 1.1930000000000001E-11
DataValue, 2.89, 1.828E-11
DataValue, 2.9, 1.4080000000000001E-11
DataValue, 2.91, 1.65E-11
DataValue, 2.92, 1.5360000000000002E-11
DataValue, 2.93, 1.65E-11
DataValue, 2.94, 1.54E-11
DataValue, 2.95, 1.635E-11
DataValue, 2.96, 1.597E-11
DataValue, 2.97, 1.5960000000000002E-11
DataValue, 2.98, 1.586E-11
DataValue, 2.99, 1.586E-11
DataValue, 3, 1.621E-11
DataValue, 3.0100000000000002, 1.551E-11
DataValue, 3.02, 1.7310000000000003E-11
DataValue, 3.0300000000000002, 1.498E-11
DataValue, 3.04, 1.7490000000000002E-11
DataValue, 3.0500000000000003, 1.4170000000000001E-11
DataValue, 3.06, 1.8220000000000003E-11
DataValue, 3.0700000000000003, 1.272E-11
DataValue, 3.08, 2.0150000000000003E-11
DataValue, 3.09, 1.098E-11
DataValue, 3.1, 2.1600000000000002E-11
DataValue, 3.11, 9.5900000000000009E-12
DataValue, 3.12, 2.329E-11
DataValue, 3.13, 8.9100000000000014E-12
DataValue, 3.14, 2.1460000000000003E-11
DataValue, 3.15, 1.008E-11
DataValue, 3.16, 2.283E-11
DataValue, 3.17, 8.74E-12
DataValue, 3.18, 2.365E-11
DataValue, 3.19, 8.31E-12
DataValue, 3.2, 2.4E-11
DataValue, 3.21, 8.3000000000000014E-12
DataValue, 3.22, 2.4010000000000003E-11
DataValue, 3.23, 9.23E-12
DataValue, 3.24, 2.249E-11
DataValue, 3.25, 1.075E-11
DataValue, 3.2600000000000002, 2.189E-11
DataValue, 3.27, 1.2660000000000001E-11
DataValue, 3.2800000000000002, 1.85E-11
DataValue, 3.29, 1.5560000000000002E-11
DataValue, 3.3000000000000003, 2.0710000000000002E-11
DataValue, 0, 2.8853E-09
DataValue, 0.01, 4.102E-07
DataValue, 0.02, 6.689E-07
DataValue, 0.03, 9.3344E-07
DataValue, 0.04, 1.1556000000000002E-06
DataValue, 0.05, 1.3434000000000001E-06
DataValue, 0.06, 1.5021000000000002E-06
DataValue, 0.07, 1.6358E-06
DataValue, 0.08, 1.7456000000000003E-06
DataValue, 0.09, 1.8374000000000002E-06
DataValue, 0.1, 1.9205E-06
DataValue, 0.11, 1.9807000000000004E-06
DataValue, 0.12, 2.024E-06
DataValue, 0.13, 2.0878E-06
DataValue, 0.14, 2.1277000000000004E-06
DataValue, 0.15, 2.2119000000000004E-06
DataValue, 0.16, 2.1898E-06
DataValue, 0.17, 2.2129E-06
DataValue, 0.18, 2.2315E-06
DataValue, 0.19, 2.2488000000000004E-06
DataValue, 0.2, 2.2663000000000002E-06
DataValue, 0.21, 2.2827E-06
DataValue, 0.22, 2.3024E-06
DataValue, 0.23, 2.3103E-06
DataValue, 0.24, 2.3228000000000004E-06
DataValue, 0.25, 2.3333E-06
DataValue, 0.26, 2.3519000000000003E-06
DataValue, 0.27, 2.3621000000000002E-06
DataValue, 0.28, 2.3713E-06
DataValue, 0.29, 2.3748E-06
DataValue, 0.3, 2.3901E-06
DataValue, 0.31, 2.3914E-06
DataValue, 0.32, 2.3991E-06
DataValue, 0.33, 2.4753000000000003E-06
DataValue, 0.34, 2.4169E-06
DataValue, 0.35000000000000003, 2.4246E-06
DataValue, 0.36, 2.4337E-06
DataValue, 0.37, 2.4375000000000004E-06
DataValue, 0.38, 2.4457E-06
DataValue, 0.39, 2.4506000000000003E-06
DataValue, 0.4, 2.4588E-06
DataValue, 0.41000000000000003, 2.4648E-06
DataValue, 0.42, 2.4775000000000004E-06
DataValue, 0.43, 2.4835000000000004E-06
DataValue, 0.44, 2.4814E-06
DataValue, 0.45, 2.4900000000000003E-06
DataValue, 0.46, 2.4945000000000004E-06
DataValue, 0.47000000000000003, 2.4999000000000004E-06
DataValue, 0.48, 2.5054E-06
DataValue, 0.49, 2.5131E-06
DataValue, 0.5, 2.5796000000000003E-06
DataValue, 0.51, 2.5287000000000005E-06
DataValue, 0.52, 2.5282E-06
DataValue, 0.53, 2.5334E-06
DataValue, 0.54, 2.5413E-06
DataValue, 0.55, 2.5438E-06
DataValue, 0.56, 2.5549000000000003E-06
DataValue, 0.57000000000000006, 2.5542000000000005E-06
DataValue, 0.58, 2.5591E-06
