
SetupTitle, NMOS-id-vd-vgs@vbs=-3.3
PrimitiveTest, I/V Sweep
TestParameter, Context.MainFrame, B1500A
TestParameter, Channel.UnitType, SMU, SMU, SMU, SMU
TestParameter, Channel.Unit, SMU2:HR, SMU1:HR, SMU3:HR, SMU4:HR
TestParameter, Channel.IName, ib, is, ig, id
TestParameter, Channel.VName, vb, vs, vg, vd
TestParameter, Channel.Mode, V, COMMON, V, V
TestParameter, Channel.Func, CONST, CONST, VAR2, VAR1
TestParameter, Channel.Index, 
TestParameter, Channel.Time, 
TestParameter, Measurement.Port.Unit, SMU2:HR, SMU1:HR, SMU3:HR, SMU4:HR
TestParameter, Measurement.Port.SeriesResistor, NONE, NONE, NONE, NONE
TestParameter, Measurement.Port.Filter, ON, ON, ON, ON
TestParameter, Measurement.Port.OutputVoltageComparison, 0, 0, 0, 0
TestParameter, Measurement.Primary.Locus, Single
TestParameter, Measurement.Primary.Scale, LINEAR
TestParameter, Measurement.Primary.Start, 0
TestParameter, Measurement.Primary.Stop, 3.3000000000000003
TestParameter, Measurement.Primary.Step, 0.01
TestParameter, Measurement.Primary.Compliance, 0.1
TestParameter, Measurement.Primary.PowerCompliance, 0
TestParameter, Measurement.Aborting.Condition, SKIP AT ANY ABNORMAL
TestParameter, Measurement.PostOutput.Value, START
TestParameter, Measurement.PostOutput.Retention, OFF
TestParameter, Measurement.Secondary.Start, 0.3
TestParameter, Measurement.Secondary.Count, 6
TestParameter, Measurement.Secondary.Step, 0.6
TestParameter, Measurement.Secondary.Compliance, 0.1
TestParameter, Measurement.Secondary.PowerCompliance, 0
TestParameter, Measurement.Bias.Source, -3.3000000000000003, 0, 0.3, 0
TestParameter, Measurement.Bias.Compliance, 0.1, 0.1, 0.1, 0.1
TestParameter, Measurement.Monitor.Unit, SMU2:HR, SMU1:HR, SMU3:HR, SMU4:HR
TestParameter, Measurement.Monitor.Adc, HR ADC, HR ADC, HR ADC, HR ADC
TestParameter, Measurement.Monitor.Measurement, Compliance Side, Compliance Side, Compliance Side, Compliance Side
TestParameter, Measurement.Monitor.RangingMode, LIMITED, LIMITED, LIMITED, LIMITED
TestParameter, Measurement.Monitor.RangeBoundary, 1nA, 1nA, 1nA, 1nA
TestParameter, Measurement.Monitor.RangeRating, BY FULL RANGE, BY FULL RANGE, BY FULL RANGE, BY FULL RANGE
TestParameter, Measurement.Monitor.RangeRatingCoeff, 50, 50, 50, 50
TestParameter, Measurement.Timing.Hold, 0
TestParameter, Measurement.Timing.Delay, 0
TestParameter, Measurement.Adc.HighSpeed.Mode, AUTO
TestParameter, Measurement.Adc.HighSpeed.Coeff, 1
TestParameter, Measurement.Adc.HighResolution.AutoZero, OFF
TestParameter, Measurement.Adc.HighResolution.Mode, AUTO
TestParameter, Measurement.Adc.HighResolution.Coeff, 6
TestParameter, Measurement.WaitTime.Source.Coeff, 1
TestParameter, Measurement.WaitTime.Source.Offset, 0
TestParameter, Measurement.WaitTime.Monitor.Coeff, 1
TestParameter, Measurement.WaitTime.Monitor.Offset, 0
TestParameter, Output.Graph.Enabled, true
TestParameter, Output.Graph.AutoScaling, false
TestParameter, Output.Graph.XAxis.Data, vd
TestParameter, Output.Graph.XAxis.Scale, Linear
TestParameter, Output.Graph.XAxis.Left, 0
TestParameter, Output.Graph.XAxis.Right, 1
TestParameter, Output.Graph.XAxis.RunTimeAutoScale, true
TestParameter, Output.Graph.YAxis.Data, id
TestParameter, Output.Graph.YAxis.Scale, Linear
TestParameter, Output.Graph.YAxis.Bottom, -0.1
TestParameter, Output.Graph.YAxis.Top, 0.1
TestParameter, Output.Graph.YAxis.Group, 
TestParameter, Output.Graph.YAxis.RunTimeAutoScale, true
TestParameter, AutoAnalysis.Interpolation, false
TestParameter, AutoAnalysis.Var2StepCount, 1
TestParameter, AutoAnalysis.Var2StepScript, 
TestParameter, AutoAnalysis.Line1.Enabled, false
TestParameter, AutoAnalysis.Line1.Type, 1
TestParameter, AutoAnalysis.Line1.Fix, True
TestParameter, AutoAnalysis.Line1.YAxis, 0
TestParameter, AutoAnalysis.Line1.Point1.Type, 0
TestParameter, AutoAnalysis.Line1.Point1.XY.X, 
TestParameter, AutoAnalysis.Line1.Point1.XY.Y, 
TestParameter, AutoAnalysis.Line1.Point1.Data.Var, 
TestParameter, AutoAnalysis.Line1.Point1.Data.Condition, 
TestParameter, AutoAnalysis.Line1.Point1.Data.Start, false
TestParameter, AutoAnalysis.Line1.Point1.Data.StartVar, 
TestParameter, AutoAnalysis.Line1.Point1.Data.StartCondition, 
TestParameter, AutoAnalysis.Line1.Point2.Type, 0
TestParameter, AutoAnalysis.Line1.Point2.XY.X, 
TestParameter, AutoAnalysis.Line1.Point2.XY.Y, 
TestParameter, AutoAnalysis.Line1.Point2.Data.Var, 
TestParameter, AutoAnalysis.Line1.Point2.Data.Condition, 
TestParameter, AutoAnalysis.Line1.Point2.Data.Start, false
TestParameter, AutoAnalysis.Line1.Point2.Data.StartVar, 
TestParameter, AutoAnalysis.Line1.Point2.Data.StartCondition, 
TestParameter, AutoAnalysis.Line1.GradientExpr, 0
TestParameter, AutoAnalysis.Line2.Enabled, false
TestParameter, AutoAnalysis.Line2.Type, 1
TestParameter, AutoAnalysis.Line2.Fix, True
TestParameter, AutoAnalysis.Line2.YAxis, 0
TestParameter, AutoAnalysis.Line2.Point1.Type, 0
TestParameter, AutoAnalysis.Line2.Point1.XY.X, 
TestParameter, AutoAnalysis.Line2.Point1.XY.Y, 
TestParameter, AutoAnalysis.Line2.Point1.Data.Var, 
TestParameter, AutoAnalysis.Line2.Point1.Data.Condition, 
TestParameter, AutoAnalysis.Line2.Point1.Data.Start, false
TestParameter, AutoAnalysis.Line2.Point1.Data.StartVar, 
TestParameter, AutoAnalysis.Line2.Point1.Data.StartCondition, 
TestParameter, AutoAnalysis.Line2.Point2.Type, 0
TestParameter, AutoAnalysis.Line2.Point2.XY.X, 
TestParameter, AutoAnalysis.Line2.Point2.XY.Y, 
TestParameter, AutoAnalysis.Line2.Point2.Data.Var, 
TestParameter, AutoAnalysis.Line2.Point2.Data.Condition, 
TestParameter, AutoAnalysis.Line2.Point2.Data.Start, false
TestParameter, AutoAnalysis.Line2.Point2.Data.StartVar, 
TestParameter, AutoAnalysis.Line2.Point2.Data.StartCondition, 
TestParameter, AutoAnalysis.Line2.GradientExpr, 0
TestParameter, AutoAnalysis.Marker.Enabled, false
TestParameter, AutoAnalysis.Marker.Data.Var, 
TestParameter, AutoAnalysis.Marker.Data.Condition, 
TestParameter, AutoAnalysis.Marker.Data.Start, false
TestParameter, AutoAnalysis.Marker.Data.StartVar, 
TestParameter, AutoAnalysis.Marker.Data.StartCondition, 
MetaData, TestRecord.EntryPoint, true
MetaData, TestRecord.RecordTime, 01/16/2024 16:49:05
MetaData, TestRecord.TestTarget, N-1-0.35-298K
MetaData, TestRecord.IterationIndex, 2
MetaData, TestRecord.Preservation, true
MetaData, TestRecord.Flag, 
MetaData, TestRecord.Remarks, 
MetaData, TestRecord.LinkKey, bc37b5bf-55c6-427c-95cb-023f64fca302
MetaData, TestRecord.Parameters, 
Dimension1, 331, 331
Dimension2, 6, 6
DataName, vd, id
DataValue, 0, 4.17E-12
DataValue, 0.01, 8.51E-12
DataValue, 0.02, 6.21E-12
DataValue, 0.03, 7.4700000000000011E-12
DataValue, 0.04, 7.1400000000000007E-12
DataValue, 0.05, 8.6700000000000008E-12
DataValue, 0.06, 6.6400000000000008E-12
DataValue, 0.07, 7.63E-12
DataValue, 0.08, 7.1500000000000008E-12
DataValue, 0.09, 7.5900000000000014E-12
DataValue, 0.1, 6.8400000000000007E-12
DataValue, 0.11, 7.33E-12
DataValue, 0.12, 7.35E-12
DataValue, 0.13, 7.45E-12
DataValue, 0.14, 7.0300000000000005E-12
DataValue, 0.15, 7.35E-12
DataValue, 0.16, 6.96E-12
DataValue, 0.17, 7.31E-12
DataValue, 0.18, 7.5700000000000011E-12
DataValue, 0.19, 6.8200000000000004E-12
DataValue, 0.2, 8.14E-12
DataValue, 0.21, 5.5600000000000005E-12
DataValue, 0.22, 9.8900000000000009E-12
DataValue, 0.23, 4.2000000000000007E-12
DataValue, 0.24, 1.038E-11
DataValue, 0.25, 2.44E-12
DataValue, 0.26, 1.229E-11
DataValue, 0.27, 4.6500000000000006E-12
DataValue, 0.28, 1.059E-11
DataValue, 0.29, 2.9600000000000003E-12
DataValue, 0.3, 1.1920000000000001E-11
DataValue, 0.31, 1.4E-12
DataValue, 0.32, 1.332E-11
DataValue, 0.33, -6.0000000000000009E-14
DataValue, 0.34, 1.4650000000000002E-11
DataValue, 0.35000000000000003, -6.7000000000000007E-13
DataValue, 0.36, 1.524E-11
DataValue, 0.37, -6.0000000000000007E-13
DataValue, 0.38, 1.493E-11
DataValue, 0.39, 5E-14
DataValue, 0.4, 1.403E-11
DataValue, 0.41000000000000003, 1.4200000000000002E-12
DataValue, 0.42, 1.1960000000000002E-11
DataValue, 0.43, 3.5900000000000003E-12
DataValue, 0.44, 1.4110000000000002E-11
DataValue, 0.45, 1.0500000000000002E-12
DataValue, 0.46, 1.2540000000000001E-11
DataValue, 0.47000000000000003, 3.4100000000000002E-12
DataValue, 0.48, 1.0720000000000001E-11
DataValue, 0.49, 5.09E-12
DataValue, 0.5, 8.4000000000000014E-12
DataValue, 0.51, 6.7500000000000009E-12
DataValue, 0.52, 7.84E-12
DataValue, 0.53, 7.0800000000000005E-12
DataValue, 0.54, 7.7900000000000013E-12
DataValue, 0.55, 7.17E-12
DataValue, 0.56, 7.75E-12
DataValue, 0.57000000000000006, 7.83E-12
DataValue, 0.58, 7.34E-12
DataValue, 0.59, 8.1900000000000013E-12
DataValue, 0.6, 6.5300000000000007E-12
DataValue, 0.61, 8.51E-12
DataValue, 0.62, 5.8800000000000008E-12
DataValue, 0.63, 1.0090000000000001E-11
DataValue, 0.64, 3.56E-12
DataValue, 0.65, 1.211E-11
DataValue, 0.66, 2.3300000000000004E-12
DataValue, 0.67, 1.3850000000000001E-11
DataValue, 0.68, 8.4000000000000006E-13
DataValue, 0.69000000000000006, 1.4560000000000003E-11
DataValue, 0.70000000000000007, -1.4E-13
DataValue, 0.71, 1.531E-11
DataValue, 0.72, -3.9000000000000005E-13
DataValue, 0.73, 1.5450000000000002E-11
DataValue, 0.74, -4E-13
DataValue, 0.75, 1.49E-11
DataValue, 0.76, 1.3300000000000002E-12
DataValue, 0.77, 1.332E-11
DataValue, 0.78, 3.38E-12
DataValue, 0.79, 1.029E-11
DataValue, 0.8, 5.84E-12
DataValue, 0.81, 8.77E-12
DataValue, 0.82000000000000006, 6.9000000000000009E-12
DataValue, 0.83000000000000007, 8.53E-12
DataValue, 0.84, 7.63E-12
DataValue, 0.85, 8.21E-12
DataValue, 0.86, 7.6900000000000014E-12
DataValue, 0.87, 7.71E-12
DataValue, 0.88, 7.870000000000001E-12
DataValue, 0.89, 7.5700000000000011E-12
DataValue, 0.9, 7.870000000000001E-12
DataValue, 0.91, 7.92E-12
DataValue, 0.92, 8.04E-12
DataValue, 0.93, 7.870000000000001E-12
DataValue, 0.94000000000000006, 8.23E-12
DataValue, 0.95000000000000007, 7.7600000000000009E-12
DataValue, 0.96, 8.33E-12
DataValue, 0.97, 7.1500000000000008E-12
DataValue, 0.98, 9.6000000000000011E-12
DataValue, 0.99, 5.95E-12
DataValue, 1, 1.005E-11
DataValue, 1.01, 4.8000000000000005E-12
DataValue, 1.02, 1.14E-11
DataValue, 1.03, 2.64E-12
DataValue, 1.04, 1.3860000000000001E-11
DataValue, 1.05, 1.5800000000000001E-12
DataValue, 1.06, 1.489E-11
DataValue, 1.07, 3.2000000000000005E-13
DataValue, 1.08, 1.4200000000000002E-11
DataValue, 1.09, 1.8900000000000002E-12
DataValue, 1.1, 1.4280000000000001E-11
DataValue, 1.11, 1.02E-12
DataValue, 1.12, 1.5470000000000003E-11
DataValue, 1.1300000000000001, 2.8E-13
DataValue, 1.1400000000000001, 1.575E-11
DataValue, 1.1500000000000001, 3.1000000000000004E-13
DataValue, 1.16, 1.548E-11
DataValue, 1.17, 1.1000000000000002E-12
DataValue, 1.18, 1.459E-11
DataValue, 1.19, 2.34E-12
DataValue, 1.2, 1.2220000000000001E-11
DataValue, 1.21, 5.04E-12
DataValue, 1.22, 1.028E-11
DataValue, 1.23, 7.41E-12
DataValue, 1.24, 8.55E-12
DataValue, 1.25, 7.970000000000001E-12
DataValue, 1.26, 8.25E-12
DataValue, 1.27, 8.05E-12
DataValue, 1.28, 8.32E-12
DataValue, 1.29, 8.43E-12
DataValue, 1.3, 8.1900000000000013E-12
DataValue, 1.31, 8.56E-12
DataValue, 1.32, 7.94E-12
DataValue, 1.33, 8.35E-12
DataValue, 1.34, 8.51E-12
DataValue, 1.35, 8.5900000000000012E-12
DataValue, 1.36, 8.22E-12
DataValue, 1.37, 9.24E-12
DataValue, 1.3800000000000001, 6.9800000000000006E-12
DataValue, 1.3900000000000001, 1.039E-11
DataValue, 1.4000000000000001, 6.0800000000000008E-12
DataValue, 1.41, 1.171E-11
DataValue, 1.42, 4.4500000000000006E-12
DataValue, 1.43, 1.31E-11
DataValue, 1.44, 2.9800000000000002E-12
DataValue, 1.45, 1.4180000000000001E-11
DataValue, 1.46, 1.8000000000000002E-12
DataValue, 1.47, 1.615E-11
DataValue, 1.48, 1.12E-12
DataValue, 1.49, 1.628E-11
DataValue, 1.5, 4.8000000000000008E-13
DataValue, 1.51, 1.6560000000000002E-11
DataValue, 1.52, 9.6000000000000015E-13
DataValue, 1.53, 1.5650000000000002E-11
DataValue, 1.54, 1.9200000000000003E-12
DataValue, 1.55, 1.5E-11
DataValue, 1.56, 4.02E-12
DataValue, 1.57, 1.2250000000000001E-11
DataValue, 1.58, 2.4500000000000003E-12
DataValue, 1.59, 1.404E-11
DataValue, 1.6, 4.38E-12
DataValue, 1.61, 1.2480000000000002E-11
DataValue, 1.62, 6.3300000000000007E-12
DataValue, 1.6300000000000001, 1.057E-11
DataValue, 1.6400000000000001, 8.01E-12
DataValue, 1.6500000000000001, 9.35E-12
DataValue, 1.6600000000000001, 8.480000000000001E-12
DataValue, 1.67, 9.2800000000000008E-12
DataValue, 1.68, 8.66E-12
DataValue, 1.69, 8.65E-12
DataValue, 1.7, 8.64E-12
DataValue, 1.71, 9.17E-12
DataValue, 1.72, 8.8000000000000013E-12
DataValue, 1.73, 9.24E-12
DataValue, 1.74, 9.27E-12
DataValue, 1.75, 8.74E-12
DataValue, 1.76, 9.8900000000000009E-12
DataValue, 1.77, 8.14E-12
DataValue, 1.78, 1.0840000000000002E-11
DataValue, 1.79, 6.9400000000000007E-12
DataValue, 1.8, 1.1620000000000001E-11
DataValue, 1.81, 5.38E-12
DataValue, 1.82, 1.3580000000000002E-11
DataValue, 1.83, 3.67E-12
DataValue, 1.84, 1.4720000000000002E-11
DataValue, 1.85, 6.41E-12
DataValue, 1.86, 1.3140000000000001E-11
DataValue, 1.87, 4.46E-12
DataValue, 1.8800000000000001, 1.442E-11
DataValue, 1.8900000000000001, 3.0900000000000004E-12
DataValue, 1.9000000000000001, 1.617E-11
DataValue, 1.9100000000000001, 2.09E-12
DataValue, 1.92, 1.633E-11
DataValue, 1.93, 4.1000000000000007E-12
DataValue, 1.94, 1.54E-11
DataValue, 1.95, 2.13E-12
DataValue, 1.96, 1.659E-11
DataValue, 1.97, 1.5300000000000001E-12
DataValue, 1.98, 1.703E-11
DataValue, 1.99, 1.31E-12
DataValue, 2, 1.735E-11
DataValue, 2.0100000000000002, 1.59E-12
DataValue, 2.02, 1.6940000000000002E-11
DataValue, 2.0300000000000002, 1.6300000000000001E-12
DataValue, 2.04, 1.6960000000000002E-11
DataValue, 2.05, 2.6600000000000004E-12
DataValue, 2.06, 1.5470000000000003E-11
DataValue, 2.07, 4.87E-12
DataValue, 2.08, 1.3650000000000001E-11
DataValue, 2.09, 6.8900000000000007E-12
DataValue, 2.1, 1.1360000000000002E-11
DataValue, 2.11, 9.03E-12
DataValue, 2.12, 1.0640000000000002E-11
DataValue, 2.13, 9.65E-12
DataValue, 2.14, 1.1330000000000001E-11
DataValue, 2.15, 8.9100000000000014E-12
DataValue, 2.16, 1.0720000000000001E-11
DataValue, 2.17, 9.7900000000000009E-12
DataValue, 2.18, 1.0210000000000001E-11
DataValue, 2.19, 9.94E-12
DataValue, 2.2, 1.0210000000000001E-11
DataValue, 2.21, 9.7300000000000016E-12
DataValue, 2.22, 1.0000000000000001E-11
DataValue, 2.23, 1.019E-11
DataValue, 2.24, 9.77E-12
DataValue, 2.25, 1.0230000000000001E-11
DataValue, 2.2600000000000002, 9.0900000000000011E-12
DataValue, 2.27, 1.1140000000000001E-11
DataValue, 2.2800000000000002, 8.01E-12
DataValue, 2.29, 1.2350000000000001E-11
DataValue, 2.3000000000000003, 6.92E-12
DataValue, 2.31, 1.4090000000000002E-11
DataValue, 2.32, 5.65E-12
DataValue, 2.33, 1.551E-11
DataValue, 2.34, 3.8800000000000004E-12
DataValue, 2.35, 1.631E-11
DataValue, 2.36, 2.92E-12
DataValue, 2.37, 1.7820000000000003E-11
DataValue, 2.38, 2.1000000000000003E-12
DataValue, 2.39, 1.801E-11
DataValue, 2.4, 1.9900000000000002E-12
DataValue, 2.41, 1.7910000000000003E-11
DataValue, 2.42, 2.85E-12
DataValue, 2.43, 1.815E-11
DataValue, 2.44, 2.39E-12
DataValue, 2.45, 1.7600000000000003E-11
DataValue, 2.46, 2.67E-12
DataValue, 2.47, 1.739E-11
DataValue, 2.48, 3.4400000000000003E-12
DataValue, 2.49, 1.815E-11
DataValue, 2.5, 2.8400000000000004E-12
DataValue, 2.5100000000000002, 1.717E-11
DataValue, 2.52, 4.9000000000000005E-12
DataValue, 2.5300000000000002, 1.477E-11
DataValue, 2.54, 6.8800000000000006E-12
DataValue, 2.5500000000000003, 1.311E-11
DataValue, 2.56, 9.13E-12
DataValue, 2.57, 1.1110000000000001E-11
DataValue, 2.58, 9.96E-12
DataValue, 2.59, 1.168E-11
DataValue, 2.6, 1.098E-11
DataValue, 2.61, 1.11E-11
DataValue, 2.62, 1.0740000000000002E-11
DataValue, 2.63, 1.137E-11
DataValue, 2.64, 1.0820000000000001E-11
DataValue, 2.65, 1.1030000000000001E-11
DataValue, 2.66, 1.079E-11
DataValue, 2.67, 1.068E-11
DataValue, 2.68, 1.12E-11
DataValue, 2.69, 1.0340000000000002E-11
DataValue, 2.7, 1.16E-11
DataValue, 2.71, 9.5100000000000013E-12
DataValue, 2.72, 1.3070000000000002E-11
DataValue, 2.73, 8.780000000000001E-12
DataValue, 2.74, 1.403E-11
DataValue, 2.75, 7.54E-12
DataValue, 2.7600000000000002, 1.553E-11
DataValue, 2.77, 5.53E-12
DataValue, 2.7800000000000002, 1.699E-11
DataValue, 2.79, 4.4900000000000005E-12
DataValue, 2.8000000000000003, 1.8160000000000002E-11
DataValue, 2.81, 3.63E-12
DataValue, 2.82, 1.8760000000000002E-11
DataValue, 2.83, 3.35E-12
DataValue, 2.84, 1.908E-11
DataValue, 2.85, 3.5500000000000004E-12
DataValue, 2.86, 1.8930000000000003E-11
DataValue, 2.87, 4.02E-12
DataValue, 2.88, 1.741E-11
DataValue, 2.89, 6.21E-12
DataValue, 2.9, 1.541E-11
DataValue, 2.91, 8.5700000000000008E-12
DataValue, 2.92, 1.3570000000000001E-11
DataValue, 2.93, 1.0230000000000001E-11
DataValue, 2.94, 1.211E-11
DataValue, 2.95, 1.1010000000000001E-11
DataValue, 2.96, 1.208E-11
DataValue, 2.97, 1.1140000000000001E-11
DataValue, 2.98, 1.198E-11
DataValue, 2.99, 1.1210000000000001E-11
DataValue, 3, 1.1840000000000001E-11
DataValue, 3.0100000000000002, 1.2230000000000001E-11
DataValue, 3.02, 1.189E-11
DataValue, 3.0300000000000002, 1.181E-11
DataValue, 3.04, 1.1820000000000001E-11
DataValue, 3.0500000000000003, 1.2460000000000001E-11
DataValue, 3.06, 1.1440000000000001E-11
DataValue, 3.0700000000000003, 1.2570000000000002E-11
DataValue, 3.08, 1.0510000000000001E-11
DataValue, 3.09, 1.352E-11
DataValue, 3.1, 1.0830000000000001E-11
DataValue, 3.11, 1.301E-11
DataValue, 3.12, 1.005E-11
DataValue, 3.13, 1.4940000000000002E-11
DataValue, 3.14, 8.7100000000000015E-12
DataValue, 3.15, 1.591E-11
DataValue, 3.16, 6.7800000000000006E-12
DataValue, 3.17, 1.7620000000000003E-11
DataValue, 3.18, 5.64E-12
DataValue, 3.19, 1.881E-11
DataValue, 3.2, 4.5400000000000004E-12
DataValue, 3.21, 1.99E-11
DataValue, 3.22, 4.2900000000000005E-12
DataValue, 3.23, 2.03E-11
DataValue, 3.24, 4.5900000000000004E-12
DataValue, 3.25, 2.0170000000000003E-11
DataValue, 3.2600000000000002, 5.28E-12
DataValue, 3.27, 1.928E-11
DataValue, 3.2800000000000002, 6.8400000000000007E-12
DataValue, 3.29, 1.6850000000000002E-11
DataValue, 3.3000000000000003, 9.07E-12
DataValue, 0, 7.6800000000000012E-12
DataValue, 0.01, 5.34E-12
DataValue, 0.02, 8.8800000000000009E-12
DataValue, 0.03, 4.2900000000000005E-12
DataValue, 0.04, 1.055E-11
DataValue, 0.05, 2.8100000000000003E-12
DataValue, 0.06, 1.2E-11
DataValue, 0.07, 9.9E-13
DataValue, 0.08, 1.3880000000000001E-11
DataValue, 0.09, 2.2200000000000002E-12
DataValue, 0.1, 1.262E-11
DataValue, 0.11, 5.6E-13
DataValue, 0.12, 1.3800000000000002E-11
DataValue, 0.13, -2.8E-13
DataValue, 0.14, 1.4560000000000003E-11
DataValue, 0.15, -9.000000000000001E-13
DataValue, 0.16, 1.495E-11
DataValue, 0.17, -6.5000000000000006E-13
DataValue, 0.18, 1.493E-11
DataValue, 0.19, -5E-13
DataValue, 0.2, 1.3670000000000001E-11
DataValue, 0.21, 1.86E-12
DataValue, 0.22, 1.1520000000000001E-11
DataValue, 0.23, 3.25E-12
DataValue, 0.24, 1.007E-11
DataValue, 0.25, 5.2100000000000006E-12
DataValue, 0.26, 1.045E-11
DataValue, 0.27, 5.18E-12
DataValue, 0.28, 8.31E-12
DataValue, 0.29, 6.35E-12
DataValue, 0.3, 7.82E-12
DataValue, 0.31, 6.7900000000000008E-12
DataValue, 0.32, 7.41E-12
DataValue, 0.33, 7.2800000000000013E-12
DataValue, 0.34, 7.82E-12
DataValue, 0.35000000000000003, 7.2500000000000008E-12
DataValue, 0.36, 7.35E-12
DataValue, 0.37, 7.26E-12
DataValue, 0.38, 6.97E-12
DataValue, 0.39, 7.75E-12
DataValue, 0.4, 7.34E-12
DataValue, 0.41000000000000003, 7.9900000000000013E-12
DataValue, 0.42, 6.6400000000000008E-12
DataValue, 0.43, 8.1900000000000013E-12
DataValue, 0.44, 6.14E-12
DataValue, 0.45, 9.1100000000000014E-12
DataValue, 0.46, 5.23E-12
DataValue, 0.47000000000000003, 1.075E-11
DataValue, 0.48, 2.9E-12
DataValue, 0.49, 1.26E-11
DataValue, 0.5, 1.3800000000000002E-12
DataValue, 0.51, 1.384E-11
DataValue, 0.52, 3.1000000000000004E-13
DataValue, 0.53, 1.4610000000000002E-11
DataValue, 0.54, -2.6E-13
DataValue, 0.55, 1.5560000000000002E-11
DataValue, 0.56, -9.9E-13
DataValue, 0.57000000000000006, 1.52E-11
DataValue, 0.58, -7E-14
DataValue, 0.59, 1.404E-11
DataValue, 0.6, 9.4E-13
DataValue, 0.61, 1.259E-11
