
SetupTitle, NMOS-id-vg-vbs@vds=3.3
PrimitiveTest, I/V Sweep
TestParameter, Context.MainFrame, B1500A
TestParameter, Channel.UnitType, SMU, SMU, SMU, SMU
TestParameter, Channel.Unit, SMU2:HR, SMU1:HR, SMU3:HR, SMU4:HR
TestParameter, Channel.IName, ib, is, ig, id
TestParameter, Channel.VName, vb, vs, vg, vd
TestParameter, Channel.Mode, V, COMMON, V, V
TestParameter, Channel.Func, VAR2, CONST, VAR1, CONST
TestParameter, Channel.Index, 
TestParameter, Channel.Time, 
TestParameter, Measurement.Port.Unit, SMU2:HR, SMU1:HR, SMU3:HR, SMU4:HR
TestParameter, Measurement.Port.SeriesResistor, NONE, NONE, NONE, NONE
TestParameter, Measurement.Port.Filter, ON, ON, ON, ON
TestParameter, Measurement.Port.OutputVoltageComparison, 0, 0, 0, 0
TestParameter, Measurement.Primary.Locus, Single
TestParameter, Measurement.Primary.Scale, LINEAR
TestParameter, Measurement.Primary.Start, -0.5
TestParameter, Measurement.Primary.Stop, 3.3000000000000003
TestParameter, Measurement.Primary.Step, 0.01
TestParameter, Measurement.Primary.Compliance, 0.001
TestParameter, Measurement.Primary.PowerCompliance, 0
TestParameter, Measurement.Aborting.Condition, SKIP AT ANY ABNORMAL
TestParameter, Measurement.PostOutput.Value, START
TestParameter, Measurement.PostOutput.Retention, OFF
TestParameter, Measurement.Secondary.Start, 0
TestParameter, Measurement.Secondary.Count, 7
TestParameter, Measurement.Secondary.Step, -0.6
TestParameter, Measurement.Secondary.Compliance, 0.1
TestParameter, Measurement.Secondary.PowerCompliance, 0
TestParameter, Measurement.Bias.Source, 0, 0, -0.5, 3.3000000000000003
TestParameter, Measurement.Bias.Compliance, 0.1, 0.1, 0.001, 0.1
TestParameter, Measurement.Monitor.Unit, SMU2:HR, SMU1:HR, SMU3:HR, SMU4:HR
TestParameter, Measurement.Monitor.Adc, HR ADC, HR ADC, HR ADC, HR ADC
TestParameter, Measurement.Monitor.Measurement, Compliance Side, Compliance Side, Compliance Side, Compliance Side
TestParameter, Measurement.Monitor.RangingMode, LIMITED, LIMITED, LIMITED, LIMITED
TestParameter, Measurement.Monitor.RangeBoundary, 1nA, 1nA, 1nA, 1nA
TestParameter, Measurement.Monitor.RangeRating, BY FULL RANGE, BY FULL RANGE, BY FULL RANGE, BY FULL RANGE
TestParameter, Measurement.Monitor.RangeRatingCoeff, 50, 50, 50, 50
TestParameter, Measurement.Timing.Hold, 0
TestParameter, Measurement.Timing.Delay, 0
TestParameter, Measurement.Adc.HighSpeed.Mode, AUTO
TestParameter, Measurement.Adc.HighSpeed.Coeff, 1
TestParameter, Measurement.Adc.HighResolution.AutoZero, OFF
TestParameter, Measurement.Adc.HighResolution.Mode, AUTO
TestParameter, Measurement.Adc.HighResolution.Coeff, 6
TestParameter, Measurement.WaitTime.Source.Coeff, 1
TestParameter, Measurement.WaitTime.Source.Offset, 0
TestParameter, Measurement.WaitTime.Monitor.Coeff, 1
TestParameter, Measurement.WaitTime.Monitor.Offset, 0
TestParameter, Output.Graph.Enabled, true
TestParameter, Output.Graph.AutoScaling, false
TestParameter, Output.Graph.XAxis.Data, vg
TestParameter, Output.Graph.XAxis.Scale, Linear
TestParameter, Output.Graph.XAxis.Left, 0
TestParameter, Output.Graph.XAxis.Right, 0.9
TestParameter, Output.Graph.XAxis.RunTimeAutoScale, true
TestParameter, Output.Graph.YAxis.Data, id
TestParameter, Output.Graph.YAxis.Scale, Linear
TestParameter, Output.Graph.YAxis.Bottom, -0.1
TestParameter, Output.Graph.YAxis.Top, 0.1
TestParameter, Output.Graph.YAxis.Group, 
TestParameter, Output.Graph.YAxis.RunTimeAutoScale, true
TestParameter, AutoAnalysis.Interpolation, false
TestParameter, AutoAnalysis.Var2StepCount, 1
TestParameter, AutoAnalysis.Var2StepScript, 
TestParameter, AutoAnalysis.Line1.Enabled, false
TestParameter, AutoAnalysis.Line1.Type, 1
TestParameter, AutoAnalysis.Line1.Fix, True
TestParameter, AutoAnalysis.Line1.YAxis, 0
TestParameter, AutoAnalysis.Line1.Point1.Type, 0
TestParameter, AutoAnalysis.Line1.Point1.XY.X, 
TestParameter, AutoAnalysis.Line1.Point1.XY.Y, 
TestParameter, AutoAnalysis.Line1.Point1.Data.Var, 
TestParameter, AutoAnalysis.Line1.Point1.Data.Condition, 
TestParameter, AutoAnalysis.Line1.Point1.Data.Start, false
TestParameter, AutoAnalysis.Line1.Point1.Data.StartVar, 
TestParameter, AutoAnalysis.Line1.Point1.Data.StartCondition, 
TestParameter, AutoAnalysis.Line1.Point2.Type, 0
TestParameter, AutoAnalysis.Line1.Point2.XY.X, 
TestParameter, AutoAnalysis.Line1.Point2.XY.Y, 
TestParameter, AutoAnalysis.Line1.Point2.Data.Var, 
TestParameter, AutoAnalysis.Line1.Point2.Data.Condition, 
TestParameter, AutoAnalysis.Line1.Point2.Data.Start, false
TestParameter, AutoAnalysis.Line1.Point2.Data.StartVar, 
TestParameter, AutoAnalysis.Line1.Point2.Data.StartCondition, 
TestParameter, AutoAnalysis.Line1.GradientExpr, 0
TestParameter, AutoAnalysis.Line2.Enabled, false
TestParameter, AutoAnalysis.Line2.Type, 1
TestParameter, AutoAnalysis.Line2.Fix, True
TestParameter, AutoAnalysis.Line2.YAxis, 0
TestParameter, AutoAnalysis.Line2.Point1.Type, 0
TestParameter, AutoAnalysis.Line2.Point1.XY.X, 
TestParameter, AutoAnalysis.Line2.Point1.XY.Y, 
TestParameter, AutoAnalysis.Line2.Point1.Data.Var, 
TestParameter, AutoAnalysis.Line2.Point1.Data.Condition, 
TestParameter, AutoAnalysis.Line2.Point1.Data.Start, false
TestParameter, AutoAnalysis.Line2.Point1.Data.StartVar, 
TestParameter, AutoAnalysis.Line2.Point1.Data.StartCondition, 
TestParameter, AutoAnalysis.Line2.Point2.Type, 0
TestParameter, AutoAnalysis.Line2.Point2.XY.X, 
TestParameter, AutoAnalysis.Line2.Point2.XY.Y, 
TestParameter, AutoAnalysis.Line2.Point2.Data.Var, 
TestParameter, AutoAnalysis.Line2.Point2.Data.Condition, 
TestParameter, AutoAnalysis.Line2.Point2.Data.Start, false
TestParameter, AutoAnalysis.Line2.Point2.Data.StartVar, 
TestParameter, AutoAnalysis.Line2.Point2.Data.StartCondition, 
TestParameter, AutoAnalysis.Line2.GradientExpr, 0
TestParameter, AutoAnalysis.Marker.Enabled, false
TestParameter, AutoAnalysis.Marker.Data.Var, 
TestParameter, AutoAnalysis.Marker.Data.Condition, 
TestParameter, AutoAnalysis.Marker.Data.Start, false
TestParameter, AutoAnalysis.Marker.Data.StartVar, 
TestParameter, AutoAnalysis.Marker.Data.StartCondition, 
MetaData, TestRecord.EntryPoint, true
MetaData, TestRecord.RecordTime, 01/16/2024 16:48:10
MetaData, TestRecord.TestTarget, N-1-0.35-298K
MetaData, TestRecord.IterationIndex, 2
MetaData, TestRecord.Preservation, true
MetaData, TestRecord.Flag, 
MetaData, TestRecord.Remarks, 
MetaData, TestRecord.LinkKey, 04663c90-ca28-49e1-87d0-a158f06a0431
MetaData, TestRecord.Parameters, 
Dimension1, 381, 381
Dimension2, 7, 7
DataName, vg, id
DataValue, -0.5, 9.23E-12
DataValue, -0.49, -3.8000000000000005E-13
DataValue, -0.48, 8.33E-12
DataValue, -0.47000000000000003, 8.26E-12
DataValue, -0.46, -4.8000000000000008E-13
DataValue, -0.45, 9.8100000000000012E-12
DataValue, -0.44, 7.51E-12
DataValue, -0.43, 8.8000000000000009E-13
DataValue, -0.42, 1.208E-11
DataValue, -0.41000000000000003, 7.2400000000000007E-12
DataValue, -0.4, 2.4800000000000003E-12
DataValue, -0.39, 1.4070000000000001E-11
DataValue, -0.38, 6.8800000000000006E-12
DataValue, -0.37, 8.2E-13
DataValue, -0.36, 1.2030000000000001E-11
DataValue, -0.35000000000000003, 7.65E-12
DataValue, -0.34, -1.13E-12
DataValue, -0.33, 7.17E-12
DataValue, -0.32, 1.2430000000000001E-11
DataValue, -0.31, -4.0000000000000006E-14
DataValue, -0.3, 7.4800000000000012E-12
DataValue, -0.29, 9.490000000000001E-12
DataValue, -0.28, -1.07E-12
DataValue, -0.27, 7.55E-12
DataValue, -0.26, 8.21E-12
DataValue, -0.25, -9.5E-13
DataValue, -0.24, 8.73E-12
DataValue, -0.23, 7.83E-12
DataValue, -0.22, 6.0000000000000009E-14
DataValue, -0.21, 1.1410000000000001E-11
DataValue, -0.2, 6.7300000000000006E-12
DataValue, -0.19, 1.5300000000000001E-12
DataValue, -0.18, 1.3370000000000001E-11
DataValue, -0.17, 6.7800000000000006E-12
DataValue, -0.16, 3.53E-12
DataValue, -0.15, 1.4200000000000002E-11
DataValue, -0.14, 6.6400000000000008E-12
DataValue, -0.13, 4.3400000000000005E-12
DataValue, -0.12, 1.4060000000000001E-11
DataValue, -0.11, 6.96E-12
DataValue, -0.1, 8.1000000000000008E-13
DataValue, -0.09, 1.382E-11
DataValue, -0.08, 6.9000000000000009E-12
DataValue, -0.07, -8.6000000000000007E-13
DataValue, -0.06, 7.4600000000000009E-12
DataValue, -0.05, 1.0420000000000001E-11
DataValue, -0.04, -1.23E-12
DataValue, -0.03, 7.11E-12
DataValue, -0.02, 1.2770000000000002E-11
DataValue, -0.01, 4.6000000000000006E-12
DataValue, 0, 5.7700000000000007E-12
DataValue, 0.01, 1.4390000000000002E-11
DataValue, 0.02, 6.5E-12
DataValue, 0.03, 4.1900000000000005E-12
DataValue, 0.04, 1.371E-11
DataValue, 0.05, 6.6700000000000005E-12
DataValue, 0.06, 2.0000000000000003E-14
DataValue, 0.07, 8.24E-12
DataValue, 0.08, 9.7300000000000016E-12
DataValue, 0.09, -1.7E-13
DataValue, 0.1, 6.8400000000000007E-12
DataValue, 0.11, 1.3390000000000002E-11
DataValue, 0.12, 5.14E-12
DataValue, 0.13, 7.1500000000000008E-12
DataValue, 0.14, 7.3800000000000013E-12
DataValue, 0.15, 7E-13
DataValue, 0.16, 1.2360000000000002E-11
DataValue, 0.17, 7.1400000000000007E-12
DataValue, 0.18, 2.77E-12
DataValue, 0.19, 1.468E-11
DataValue, 0.2, 7.45E-12
DataValue, 0.21, 4.6900000000000004E-12
DataValue, 0.22, 1.6030000000000002E-11
DataValue, 0.23, 8.4000000000000014E-12
DataValue, 0.24, 7.7800000000000012E-12
DataValue, 0.25, 1.7820000000000003E-11
DataValue, 0.26, 9.27E-12
DataValue, 0.27, 1.1140000000000001E-11
DataValue, 0.28, 1.979E-11
DataValue, 0.29, 1.058E-11
DataValue, 0.3, 1.661E-11
DataValue, 0.31, 2.5480000000000002E-11
DataValue, 0.32, 1.784E-11
DataValue, 0.33, 2.813E-11
DataValue, 0.34, 3.812E-11
DataValue, 0.35000000000000003, 3.3450000000000005E-11
DataValue, 0.36, 5.1220000000000005E-11
DataValue, 0.37, 6.9630000000000009E-11
DataValue, 0.38, 7.965E-11
DataValue, 0.39, 1.0193E-10
DataValue, 0.4, 1.3341E-10
DataValue, 0.41000000000000003, 1.5636000000000002E-10
DataValue, 0.42, 2.0626000000000002E-10
DataValue, 0.43, 2.7027000000000004E-10
DataValue, 0.44, 3.3032E-10
DataValue, 0.45, 4.3159000000000006E-10
DataValue, 0.46, 5.7231000000000006E-10
DataValue, 0.47000000000000003, 7.09E-10
DataValue, 0.48, 9.1124E-10
DataValue, 0.49, 1.2628E-09
DataValue, 0.5, 1.5311E-09
DataValue, 0.51, 1.9731E-09
DataValue, 0.52, 2.5219E-09
DataValue, 0.53, 3.2347E-09
DataValue, 0.54, 4.1724E-09
DataValue, 0.55, 5.4916E-09
DataValue, 0.56, 6.8047E-09
DataValue, 0.57000000000000006, 8.7071E-09
DataValue, 0.58, 1.11487E-08
DataValue, 0.59, 1.5022999999999998E-08
DataValue, 0.6, 1.9071999999999997E-08
DataValue, 0.61, 2.4231599999999996E-08
DataValue, 0.62, 3.0623599999999995E-08
DataValue, 0.63, 3.8696399999999993E-08
DataValue, 0.64, 4.8672399999999996E-08
DataValue, 0.65, 6.11582E-08
DataValue, 0.66, 7.63178E-08
DataValue, 0.67, 9.54228E-08
DataValue, 0.68, 1.2012E-07
DataValue, 0.69000000000000006, 1.4534E-07
DataValue, 0.70000000000000007, 1.7784E-07
DataValue, 0.71, 2.1677999999999999E-07
DataValue, 0.72, 2.625E-07
DataValue, 0.73, 3.157E-07
DataValue, 0.74, 3.7822E-07
DataValue, 0.75, 4.507E-07
DataValue, 0.76, 5.3451999999999995E-07
DataValue, 0.77, 6.326E-07
DataValue, 0.78, 7.4402E-07
DataValue, 0.79, 8.7588E-07
DataValue, 0.8, 1.01334E-06
DataValue, 0.81, 1.1757E-06
DataValue, 0.82000000000000006, 1.3599E-06
DataValue, 0.83000000000000007, 1.5673000000000002E-06
DataValue, 0.84, 1.8035000000000002E-06
DataValue, 0.85, 2.0656E-06
DataValue, 0.86, 2.3557E-06
DataValue, 0.87, 2.6759E-06
DataValue, 0.88, 3.0305000000000005E-06
DataValue, 0.89, 3.4228000000000005E-06
DataValue, 0.9, 3.8488E-06
DataValue, 0.91, 4.3243E-06
DataValue, 0.92, 4.8403000000000009E-06
DataValue, 0.93, 5.3766E-06
DataValue, 0.94000000000000006, 5.9355E-06
DataValue, 0.95000000000000007, 6.5626000000000005E-06
DataValue, 0.96, 7.2389000000000011E-06
DataValue, 0.97, 7.9732E-06
DataValue, 0.98, 8.753900000000001E-06
DataValue, 0.99, 9.5578E-06
DataValue, 1, 1.04077E-05
DataValue, 1.01, 1.1311300000000001E-05
DataValue, 1.02, 1.2322E-05
DataValue, 1.03, 1.3242000000000001E-05
DataValue, 1.04, 1.4308000000000001E-05
DataValue, 1.05, 1.5380000000000002E-05
DataValue, 1.06, 1.6494E-05
DataValue, 1.07, 1.7650000000000002E-05
DataValue, 1.08, 1.8856E-05
DataValue, 1.09, 2.0096000000000002E-05
DataValue, 1.1, 2.1408000000000002E-05
DataValue, 1.11, 2.273E-05
DataValue, 1.12, 2.4084000000000002E-05
DataValue, 1.1300000000000001, 2.5478000000000002E-05
DataValue, 1.1400000000000001, 2.6916E-05
DataValue, 1.1500000000000001, 2.8380000000000003E-05
DataValue, 1.16, 2.9886E-05
DataValue, 1.17, 3.1440000000000004E-05
DataValue, 1.18, 3.3012E-05
DataValue, 1.19, 3.4632E-05
DataValue, 1.2, 3.622E-05
DataValue, 1.21, 3.7878E-05
DataValue, 1.22, 3.9562E-05
DataValue, 1.23, 4.1278E-05
DataValue, 1.24, 4.303E-05
DataValue, 1.25, 4.4824E-05
DataValue, 1.26, 4.6614000000000005E-05
DataValue, 1.27, 4.8432E-05
DataValue, 1.28, 5.0272E-05
DataValue, 1.29, 5.2134E-05
DataValue, 1.3, 5.4072E-05
DataValue, 1.31, 5.5968000000000004E-05
DataValue, 1.32, 5.791E-05
DataValue, 1.33, 5.9866E-05
DataValue, 1.34, 6.1842000000000009E-05
DataValue, 1.35, 6.3828E-05
DataValue, 1.36, 6.585E-05
DataValue, 1.37, 6.7924000000000009E-05
DataValue, 1.3800000000000001, 7.0002E-05
DataValue, 1.3900000000000001, 7.2042E-05
DataValue, 1.4000000000000001, 7.4126E-05
DataValue, 1.41, 7.621E-05
DataValue, 1.42, 7.8332000000000008E-05
DataValue, 1.43, 8.0508000000000009E-05
DataValue, 1.44, 8.2636E-05
DataValue, 1.45, 8.4808E-05
DataValue, 1.46, 8.6994E-05
DataValue, 1.47, 8.9184E-05
DataValue, 1.48, 9.1368E-05
DataValue, 1.49, 9.36E-05
DataValue, 1.5, 9.585E-05
DataValue, 1.51, 9.8128E-05
DataValue, 1.52, 0.000100344
DataValue, 1.53, 0.000102646
DataValue, 1.54, 0.000104894
DataValue, 1.55, 0.00010719600000000001
DataValue, 1.56, 0.00010951400000000001
DataValue, 1.57, 0.000111818
DataValue, 1.58, 0.000114154
DataValue, 1.59, 0.00011632000000000001
DataValue, 1.6, 0.00011864
DataValue, 1.61, 0.00012096000000000001
DataValue, 1.62, 0.00012336
DataValue, 1.6300000000000001, 0.00012572
DataValue, 1.6400000000000001, 0.00012806000000000002
DataValue, 1.6500000000000001, 0.0001305
DataValue, 1.6600000000000001, 0.00013286
DataValue, 1.67, 0.00013524
DataValue, 1.68, 0.00013764000000000002
DataValue, 1.69, 0.00014006
DataValue, 1.7, 0.00014248
DataValue, 1.71, 0.00014492000000000002
DataValue, 1.72, 0.00014734
DataValue, 1.73, 0.00014976
DataValue, 1.74, 0.00015228
DataValue, 1.75, 0.00015470000000000002
DataValue, 1.76, 0.00015712
DataValue, 1.77, 0.00015962000000000002
DataValue, 1.78, 0.00016206
DataValue, 1.79, 0.00016454000000000002
DataValue, 1.8, 0.00016700000000000002
DataValue, 1.81, 0.00016946000000000002
DataValue, 1.82, 0.00017196
DataValue, 1.83, 0.00017446
DataValue, 1.84, 0.00017696
DataValue, 1.85, 0.00017946000000000002
DataValue, 1.86, 0.00018194
DataValue, 1.87, 0.00018444000000000002
DataValue, 1.8800000000000001, 0.00018696
DataValue, 1.8900000000000001, 0.00018948
DataValue, 1.9000000000000001, 0.00019196
DataValue, 1.9100000000000001, 0.00019448000000000002
DataValue, 1.92, 0.00019700000000000002
DataValue, 1.93, 0.00019958
DataValue, 1.94, 0.00020208000000000002
DataValue, 1.95, 0.0002046
DataValue, 1.96, 0.00020716000000000002
DataValue, 1.97, 0.00020966000000000002
DataValue, 1.98, 0.0002122
DataValue, 1.99, 0.00021472
DataValue, 2, 0.00021728
DataValue, 2.0100000000000002, 0.0002198
DataValue, 2.02, 0.00022242
DataValue, 2.0300000000000002, 0.00022496000000000002
DataValue, 2.04, 0.00022750000000000003
DataValue, 2.05, 0.00023004
DataValue, 2.06, 0.00023260000000000002
DataValue, 2.07, 0.00023512
DataValue, 2.08, 0.00023766000000000003
DataValue, 2.09, 0.0002403
DataValue, 2.1, 0.00024284000000000003
DataValue, 2.11, 0.00024544000000000004
DataValue, 2.12, 0.00024796000000000003
DataValue, 2.13, 0.00025058000000000003
DataValue, 2.14, 0.0002531
DataValue, 2.15, 0.00025570000000000004
DataValue, 2.16, 0.00025828
DataValue, 2.17, 0.00026084000000000003
DataValue, 2.18, 0.00026338
DataValue, 2.19, 0.00026598
DataValue, 2.2, 0.0002686
DataValue, 2.21, 0.00027118000000000004
DataValue, 2.22, 0.00027372000000000003
DataValue, 2.23, 0.00027628
DataValue, 2.24, 0.00027886
DataValue, 2.25, 0.00028144000000000004
DataValue, 2.2600000000000002, 0.000284
DataValue, 2.27, 0.00028656
DataValue, 2.2800000000000002, 0.00028916
DataValue, 2.29, 0.00029172000000000003
DataValue, 2.3000000000000003, 0.00029428
DataValue, 2.31, 0.0002969
DataValue, 2.32, 0.0002995
DataValue, 2.33, 0.00030208000000000004
DataValue, 2.34, 0.00030466
DataValue, 2.35, 0.00030718
DataValue, 2.36, 0.00030978
DataValue, 2.37, 0.00031238
DataValue, 2.38, 0.00031502
DataValue, 2.39, 0.00031756000000000004
DataValue, 2.4, 0.00032012
DataValue, 2.41, 0.00032274
DataValue, 2.42, 0.00032530000000000005
DataValue, 2.43, 0.00032788
DataValue, 2.44, 0.00033044000000000004
DataValue, 2.45, 0.00033306000000000004
DataValue, 2.46, 0.00033562
DataValue, 2.47, 0.00033820000000000003
DataValue, 2.48, 0.00034072000000000003
DataValue, 2.49, 0.00034326
DataValue, 2.5, 0.00034584000000000004
DataValue, 2.5100000000000002, 0.00034854000000000005
DataValue, 2.52, 0.00035104
DataValue, 2.5300000000000002, 0.00035368000000000004
DataValue, 2.54, 0.00035620000000000004
DataValue, 2.5500000000000003, 0.00035880000000000005
DataValue, 2.56, 0.00036132000000000004
DataValue, 2.57, 0.00036388
DataValue, 2.58, 0.00036646000000000004
DataValue, 2.59, 0.00036908000000000004
DataValue, 2.6, 0.00037166
DataValue, 2.61, 0.00037422000000000003
DataValue, 2.62, 0.0003768
DataValue, 2.63, 0.00037936
DataValue, 2.64, 0.00038188
DataValue, 2.65, 0.00038452
DataValue, 2.66, 0.00038708000000000004
DataValue, 2.67, 0.00038966
DataValue, 2.68, 0.00039216
DataValue, 2.69, 0.00039474000000000003
DataValue, 2.7, 0.0003973
DataValue, 2.71, 0.00039994000000000005
DataValue, 2.72, 0.00040248000000000004
DataValue, 2.73, 0.00040504
DataValue, 2.74, 0.00040762000000000003
DataValue, 2.75, 0.00041012000000000004
DataValue, 2.7600000000000002, 0.00041266
DataValue, 2.77, 0.00041524000000000004
DataValue, 2.7800000000000002, 0.00041782
DataValue, 2.79, 0.00042038000000000004
DataValue, 2.8000000000000003, 0.00042286
DataValue, 2.81, 0.00042548000000000005
DataValue, 2.82, 0.00042798
DataValue, 2.83, 0.00043046
DataValue, 2.84, 0.0004331
DataValue, 2.85, 0.00043566000000000004
DataValue, 2.86, 0.00043826000000000005
DataValue, 2.87, 0.00044080000000000004
DataValue, 2.88, 0.00044328000000000005
DataValue, 2.89, 0.00044588
DataValue, 2.9, 0.0004484
DataValue, 2.91, 0.00045098
DataValue, 2.92, 0.00045346000000000004
DataValue, 2.93, 0.00045598000000000004
DataValue, 2.94, 0.00045852
DataValue, 2.95, 0.00046106
DataValue, 2.96, 0.00046356
DataValue, 2.97, 0.00046616
DataValue, 2.98, 0.00046876000000000003
DataValue, 2.99, 0.00047114000000000005
DataValue, 3, 0.00047372
DataValue, 3.0100000000000002, 0.00047624
DataValue, 3.02, 0.00047872
DataValue, 3.0300000000000002, 0.00048102
DataValue, 3.04, 0.00048374000000000003
DataValue, 3.0500000000000003, 0.00048644000000000004
DataValue, 3.06, 0.00048898000000000008
DataValue, 3.0700000000000003, 0.00049146
DataValue, 3.08, 0.00049398
DataValue, 3.09, 0.00049648
DataValue, 3.1, 0.0004989
DataValue, 3.11, 0.00050146
DataValue, 3.12, 0.000504
DataValue, 3.13, 0.00050628
DataValue, 3.14, 0.000509
DataValue, 3.15, 0.00051160000000000008
DataValue, 3.16, 0.00051386
DataValue, 3.17, 0.00051638
DataValue, 3.18, 0.00051892000000000008
DataValue, 3.19, 0.0005215
DataValue, 3.2, 0.00052396000000000007
DataValue, 3.21, 0.00052650000000000006
DataValue, 3.22, 0.00052902000000000005
DataValue, 3.23, 0.00053136
DataValue, 3.24, 0.00053396
DataValue, 3.25, 0.00053646
DataValue, 3.2600000000000002, 0.00053886000000000006
DataValue, 3.27, 0.00054144
DataValue, 3.2800000000000002, 0.00054388000000000006
DataValue, 3.29, 0.00054646
DataValue, 3.3000000000000003, 0.00054884
DataValue, -0.5, 4.4500000000000006E-12
DataValue, -0.49, 7.8900000000000013E-12
DataValue, -0.48, 9.7000000000000011E-12
DataValue, -0.47000000000000003, 1.5000000000000002E-13
DataValue, -0.46, 1.4830000000000002E-11
DataValue, -0.45, 6.9900000000000007E-12
DataValue, -0.44, 7.32E-12
