
SetupTitle, PMOS-isub-vg-vds@vbs=0
PrimitiveTest, I/V Sweep
TestParameter, Context.MainFrame, B1500A
TestParameter, Channel.UnitType, SMU, SMU, SMU, SMU
TestParameter, Channel.Unit, SMU2:HR, SMU1:HR, SMU3:HR, SMU4:HR
TestParameter, Channel.IName, ib, is, ig, id
TestParameter, Channel.VName, vb, vs, vg, vd
TestParameter, Channel.Mode, V, COMMON, V, V
TestParameter, Channel.Func, CONST, CONST, VAR1, VAR2
TestParameter, Channel.Index, 
TestParameter, Channel.Time, 
TestParameter, Measurement.Port.Unit, SMU2:HR, SMU1:HR, SMU3:HR, SMU4:HR
TestParameter, Measurement.Port.SeriesResistor, NONE, NONE, NONE, NONE
TestParameter, Measurement.Port.Filter, ON, ON, ON, ON
TestParameter, Measurement.Port.OutputVoltageComparison, 0, 0, 0, 0
TestParameter, Measurement.Primary.Locus, Single
TestParameter, Measurement.Primary.Scale, LINEAR
TestParameter, Measurement.Primary.Start, 0
TestParameter, Measurement.Primary.Stop, -3.3000000000000003
TestParameter, Measurement.Primary.Step, -0.01
TestParameter, Measurement.Primary.Compliance, 0.001
TestParameter, Measurement.Primary.PowerCompliance, 0
TestParameter, Measurement.Aborting.Condition, SKIP AT ANY ABNORMAL
TestParameter, Measurement.PostOutput.Value, START
TestParameter, Measurement.PostOutput.Retention, OFF
TestParameter, Measurement.Secondary.Start, -0.3
TestParameter, Measurement.Secondary.Count, 6
TestParameter, Measurement.Secondary.Step, -0.6
TestParameter, Measurement.Secondary.Compliance, 0.1
TestParameter, Measurement.Secondary.PowerCompliance, 0
TestParameter, Measurement.Bias.Source, 0, 0, 0, -0.3
TestParameter, Measurement.Bias.Compliance, 0.1, 0.1, 0.001, 0.1
TestParameter, Measurement.Monitor.Unit, SMU2:HR, SMU1:HR, SMU3:HR, SMU4:HR
TestParameter, Measurement.Monitor.Adc, HR ADC, HR ADC, HR ADC, HR ADC
TestParameter, Measurement.Monitor.Measurement, Compliance Side, Compliance Side, Compliance Side, Compliance Side
TestParameter, Measurement.Monitor.RangingMode, LIMITED, LIMITED, LIMITED, LIMITED
TestParameter, Measurement.Monitor.RangeBoundary, 1nA, 1nA, 1nA, 1nA
TestParameter, Measurement.Monitor.RangeRating, BY FULL RANGE, BY FULL RANGE, BY FULL RANGE, BY FULL RANGE
TestParameter, Measurement.Monitor.RangeRatingCoeff, 50, 50, 50, 50
TestParameter, Measurement.Timing.Hold, 0
TestParameter, Measurement.Timing.Delay, 0
TestParameter, Measurement.Adc.HighSpeed.Mode, AUTO
TestParameter, Measurement.Adc.HighSpeed.Coeff, 1
TestParameter, Measurement.Adc.HighResolution.AutoZero, OFF
TestParameter, Measurement.Adc.HighResolution.Mode, AUTO
TestParameter, Measurement.Adc.HighResolution.Coeff, 6
TestParameter, Measurement.WaitTime.Source.Coeff, 1
TestParameter, Measurement.WaitTime.Source.Offset, 0
TestParameter, Measurement.WaitTime.Monitor.Coeff, 1
TestParameter, Measurement.WaitTime.Monitor.Offset, 0
TestParameter, Output.Graph.Enabled, true
TestParameter, Output.Graph.AutoScaling, false
TestParameter, Output.Graph.XAxis.Data, vg
TestParameter, Output.Graph.XAxis.Scale, Linear
TestParameter, Output.Graph.XAxis.Left, 0
TestParameter, Output.Graph.XAxis.Right, 0.9
TestParameter, Output.Graph.XAxis.RunTimeAutoScale, true
TestParameter, Output.Graph.YAxis.Data, ib
TestParameter, Output.Graph.YAxis.Scale, Linear
TestParameter, Output.Graph.YAxis.Bottom, -0.1
TestParameter, Output.Graph.YAxis.Top, 0.1
TestParameter, Output.Graph.YAxis.Group, 
TestParameter, Output.Graph.YAxis.RunTimeAutoScale, true
TestParameter, AutoAnalysis.Interpolation, false
TestParameter, AutoAnalysis.Var2StepCount, 1
TestParameter, AutoAnalysis.Var2StepScript, 
TestParameter, AutoAnalysis.Line1.Enabled, false
TestParameter, AutoAnalysis.Line1.Type, 1
TestParameter, AutoAnalysis.Line1.Fix, True
TestParameter, AutoAnalysis.Line1.YAxis, 0
TestParameter, AutoAnalysis.Line1.Point1.Type, 0
TestParameter, AutoAnalysis.Line1.Point1.XY.X, 
TestParameter, AutoAnalysis.Line1.Point1.XY.Y, 
TestParameter, AutoAnalysis.Line1.Point1.Data.Var, 
TestParameter, AutoAnalysis.Line1.Point1.Data.Condition, 
TestParameter, AutoAnalysis.Line1.Point1.Data.Start, false
TestParameter, AutoAnalysis.Line1.Point1.Data.StartVar, 
TestParameter, AutoAnalysis.Line1.Point1.Data.StartCondition, 
TestParameter, AutoAnalysis.Line1.Point2.Type, 0
TestParameter, AutoAnalysis.Line1.Point2.XY.X, 
TestParameter, AutoAnalysis.Line1.Point2.XY.Y, 
TestParameter, AutoAnalysis.Line1.Point2.Data.Var, 
TestParameter, AutoAnalysis.Line1.Point2.Data.Condition, 
TestParameter, AutoAnalysis.Line1.Point2.Data.Start, false
TestParameter, AutoAnalysis.Line1.Point2.Data.StartVar, 
TestParameter, AutoAnalysis.Line1.Point2.Data.StartCondition, 
TestParameter, AutoAnalysis.Line1.GradientExpr, 0
TestParameter, AutoAnalysis.Line2.Enabled, false
TestParameter, AutoAnalysis.Line2.Type, 1
TestParameter, AutoAnalysis.Line2.Fix, True
TestParameter, AutoAnalysis.Line2.YAxis, 0
TestParameter, AutoAnalysis.Line2.Point1.Type, 0
TestParameter, AutoAnalysis.Line2.Point1.XY.X, 
TestParameter, AutoAnalysis.Line2.Point1.XY.Y, 
TestParameter, AutoAnalysis.Line2.Point1.Data.Var, 
TestParameter, AutoAnalysis.Line2.Point1.Data.Condition, 
TestParameter, AutoAnalysis.Line2.Point1.Data.Start, false
TestParameter, AutoAnalysis.Line2.Point1.Data.StartVar, 
TestParameter, AutoAnalysis.Line2.Point1.Data.StartCondition, 
TestParameter, AutoAnalysis.Line2.Point2.Type, 0
TestParameter, AutoAnalysis.Line2.Point2.XY.X, 
TestParameter, AutoAnalysis.Line2.Point2.XY.Y, 
TestParameter, AutoAnalysis.Line2.Point2.Data.Var, 
TestParameter, AutoAnalysis.Line2.Point2.Data.Condition, 
TestParameter, AutoAnalysis.Line2.Point2.Data.Start, false
TestParameter, AutoAnalysis.Line2.Point2.Data.StartVar, 
TestParameter, AutoAnalysis.Line2.Point2.Data.StartCondition, 
TestParameter, AutoAnalysis.Line2.GradientExpr, 0
TestParameter, AutoAnalysis.Marker.Enabled, false
TestParameter, AutoAnalysis.Marker.Data.Var, 
TestParameter, AutoAnalysis.Marker.Data.Condition, 
TestParameter, AutoAnalysis.Marker.Data.Start, false
TestParameter, AutoAnalysis.Marker.Data.StartVar, 
TestParameter, AutoAnalysis.Marker.Data.StartCondition, 
MetaData, TestRecord.EntryPoint, true
MetaData, TestRecord.RecordTime, 01/16/2024 16:39:49
MetaData, TestRecord.TestTarget, P-0.22-0.35-298K
MetaData, TestRecord.IterationIndex, 3
MetaData, TestRecord.Preservation, true
MetaData, TestRecord.Flag, 
MetaData, TestRecord.Remarks, 
MetaData, TestRecord.LinkKey, ce868a56-3ff5-4012-9e49-3138bf2ca563
MetaData, TestRecord.Parameters, 
Dimension1, 331, 331
Dimension2, 6, 6
DataName, vg, ib
DataValue, 0, -6.8300000000000006E-12
DataValue, -0.01, 6.5800000000000006E-12
DataValue, -0.02, 1.0100000000000001E-11
DataValue, -0.03, -2.9800000000000002E-12
DataValue, -0.04, 7.91E-12
DataValue, -0.05, 9.1000000000000012E-12
DataValue, -0.06, -2.4500000000000003E-12
DataValue, -0.07, 9.24E-12
DataValue, -0.08, 8.2900000000000012E-12
DataValue, -0.09, -1.79E-12
DataValue, -0.1, 1.2680000000000002E-11
DataValue, -0.11, 7.16E-12
DataValue, -0.12, 1.91E-12
DataValue, -0.13, 1.351E-11
DataValue, -0.14, 6.8400000000000007E-12
DataValue, -0.15, 5.02E-12
DataValue, -0.16, 1.5070000000000003E-11
DataValue, -0.17, 5.75E-12
DataValue, -0.18, 5.79E-12
DataValue, -0.19, 1.3970000000000001E-11
DataValue, -0.2, -8.1000000000000008E-13
DataValue, -0.21, 8.44E-12
DataValue, -0.22, 1.2480000000000002E-11
DataValue, -0.23, -2.59E-12
DataValue, -0.24, 8.15E-12
DataValue, -0.25, 1.037E-11
DataValue, -0.26, -3.4100000000000002E-12
DataValue, -0.27, 8.44E-12
DataValue, -0.28, 9.8900000000000009E-12
DataValue, -0.29, -2.29E-12
DataValue, -0.3, 7.5800000000000012E-12
DataValue, -0.31, 1.3370000000000001E-11
DataValue, -0.32, 1.46E-12
DataValue, -0.33, 7.81E-12
DataValue, -0.34, 1.5320000000000002E-11
DataValue, -0.35000000000000003, 1.5300000000000001E-12
DataValue, -0.36, 8.3700000000000009E-12
DataValue, -0.37, 1.475E-11
DataValue, -0.38, -1E-13
DataValue, -0.39, 8.61E-12
DataValue, -0.4, 1.2450000000000001E-11
DataValue, -0.41000000000000003, -2.04E-12
DataValue, -0.42, 8.480000000000001E-12
DataValue, -0.43, 1.1250000000000002E-11
DataValue, -0.44, -3.1200000000000004E-12
DataValue, -0.45, 8.0800000000000011E-12
DataValue, -0.46, 1.0230000000000001E-11
DataValue, -0.47000000000000003, -2.26E-12
DataValue, -0.48, 9.03E-12
DataValue, -0.49, 7.84E-12
DataValue, -0.5, -1.6E-12
DataValue, -0.51, 1.0740000000000002E-11
DataValue, -0.52, 9.33E-12
DataValue, -0.53, 2.0000000000000003E-14
DataValue, -0.54, 1.2870000000000002E-11
DataValue, -0.55, 7.9600000000000008E-12
DataValue, -0.56, 1.7000000000000002E-12
DataValue, -0.57000000000000006, 1.482E-11
DataValue, -0.58, 8.7000000000000013E-12
DataValue, -0.59, -1.03E-12
DataValue, -0.6, 8.84E-12
DataValue, -0.61, 1.017E-11
DataValue, -0.62, -1.55E-12
DataValue, -0.63, 1.014E-11
DataValue, -0.64, 9.290000000000001E-12
DataValue, -0.65, -6.0000000000000007E-13
DataValue, -0.66, 1.1020000000000001E-11
DataValue, -0.67, 8.4000000000000014E-12
DataValue, -0.68, 2.4300000000000003E-12
DataValue, -0.69000000000000006, 1.3030000000000001E-11
DataValue, -0.70000000000000007, 7.43E-12
DataValue, -0.71, 4.4900000000000005E-12
DataValue, -0.72, 1.51E-11
DataValue, -0.73, 6.55E-12
DataValue, -0.74, 5.6800000000000008E-12
DataValue, -0.75, 1.53E-11
DataValue, -0.76, 7.12E-12
DataValue, -0.77, 6.36E-12
DataValue, -0.78, 1.5650000000000002E-11
DataValue, -0.79, 5.4600000000000006E-12
DataValue, -0.8, 7.93E-12
DataValue, -0.81, 1.632E-11
DataValue, -0.82000000000000006, 7.1400000000000007E-12
DataValue, -0.83000000000000007, 3.02E-12
DataValue, -0.84, 1.218E-11
DataValue, -0.85, 9.3200000000000015E-12
DataValue, -0.86, 2.4000000000000004E-13
DataValue, -0.87, 9.46E-12
DataValue, -0.88, 1.1620000000000001E-11
DataValue, -0.89, -1.74E-12
DataValue, -0.9, 8.21E-12
DataValue, -0.91, 1.2350000000000001E-11
DataValue, -0.92, 1.6100000000000002E-12
DataValue, -0.93, 7.55E-12
DataValue, -0.94000000000000006, 1.5560000000000002E-11
DataValue, -0.95000000000000007, 6.7200000000000004E-12
DataValue, -0.96, 8.02E-12
DataValue, -0.97, 1.5270000000000003E-11
DataValue, -0.98, 4.6600000000000007E-12
DataValue, -0.99, 6.1600000000000004E-12
DataValue, -1, 1.454E-11
DataValue, -1.01, 9.53E-12
DataValue, -1.02, -1.95E-12
DataValue, -1.03, 9.24E-12
DataValue, -1.04, 1.16E-11
DataValue, -1.05, -1.83E-12
DataValue, -1.06, 8.24E-12
DataValue, -1.07, 1.4090000000000002E-11
DataValue, -1.08, -4E-13
DataValue, -1.09, 8.1900000000000013E-12
DataValue, -1.1, 1.564E-11
DataValue, -1.11, 4.26E-12
DataValue, -1.12, 5.94E-12
DataValue, -1.1300000000000001, 1.5320000000000002E-11
DataValue, -1.1400000000000001, 8.5000000000000013E-12
DataValue, -1.1500000000000001, 8.4000000000000006E-13
DataValue, -1.16, 1.321E-11
DataValue, -1.17, 9.2100000000000013E-12
DataValue, -1.18, -1.8200000000000003E-12
DataValue, -1.19, 8.82E-12
DataValue, -1.2, 1.3550000000000001E-11
DataValue, -1.21, -2.9000000000000003E-13
DataValue, -1.22, 8.680000000000001E-12
DataValue, -1.23, 1.559E-11
DataValue, -1.24, 7.92E-12
DataValue, -1.25, 2.34E-12
DataValue, -1.26, 1.484E-11
DataValue, -1.27, 8.5900000000000012E-12
DataValue, -1.28, -1.4900000000000001E-12
DataValue, -1.29, 9.2200000000000015E-12
DataValue, -1.3, 1.2650000000000001E-11
DataValue, -1.31, -2.26E-12
DataValue, -1.32, 8.73E-12
DataValue, -1.33, 1.479E-11
DataValue, -1.34, 2.69E-12
DataValue, -1.35, 8.34E-12
DataValue, -1.36, 1.393E-11
DataValue, -1.37, 6.7E-12
DataValue, -1.3800000000000001, 5.1000000000000005E-12
DataValue, -1.3900000000000001, 1.528E-11
DataValue, -1.4000000000000001, 9.7100000000000012E-12
DataValue, -1.41, 1.7E-13
DataValue, -1.42, 8.66E-12
DataValue, -1.43, 1.1330000000000001E-11
DataValue, -1.44, -2.3000000000000003E-12
DataValue, -1.45, 9.47E-12
DataValue, -1.46, 1.057E-11
DataValue, -1.47, -2.04E-12
DataValue, -1.48, 8.21E-12
DataValue, -1.49, 1.4450000000000001E-11
DataValue, -1.5, 3.58E-12
DataValue, -1.51, 7.9800000000000011E-12
DataValue, -1.52, 1.613E-11
DataValue, -1.53, 8E-12
DataValue, -1.54, 6.0200000000000006E-12
DataValue, -1.55, 1.404E-11
DataValue, -1.56, 7.26E-12
DataValue, -1.57, 3.4700000000000004E-12
DataValue, -1.58, 1.1970000000000002E-11
DataValue, -1.59, 1.1040000000000001E-11
DataValue, -1.6, -2.1200000000000003E-12
DataValue, -1.61, 8.06E-12
DataValue, -1.62, 1.2460000000000001E-11
DataValue, -1.6300000000000001, 1.64E-12
DataValue, -1.6400000000000001, 9.4000000000000011E-12
DataValue, -1.6500000000000001, 1.4870000000000003E-11
DataValue, -1.6600000000000001, 1.7600000000000002E-12
DataValue, -1.67, 7.53E-12
DataValue, -1.68, 1.6560000000000002E-11
DataValue, -1.69, 6.4700000000000005E-12
DataValue, -1.7, 4.9600000000000007E-12
DataValue, -1.71, 1.3350000000000001E-11
DataValue, -1.72, 9.1800000000000009E-12
DataValue, -1.73, -1.8400000000000002E-12
DataValue, -1.74, 1.109E-11
DataValue, -1.75, 1.1440000000000001E-11
DataValue, -1.76, -2.3300000000000004E-12
DataValue, -1.77, 9.4000000000000011E-12
DataValue, -1.78, 1.4470000000000001E-11
DataValue, -1.79, -2.0700000000000003E-12
DataValue, -1.8, 8.7100000000000015E-12
DataValue, -1.81, 1.4740000000000002E-11
DataValue, -1.82, 5.6700000000000007E-12
DataValue, -1.83, 7.52E-12
DataValue, -1.84, 1.5830000000000002E-11
DataValue, -1.85, 7.0300000000000005E-12
DataValue, -1.86, 4.62E-12
DataValue, -1.87, 1.432E-11
DataValue, -1.8800000000000001, 9.8000000000000011E-12
DataValue, -1.8900000000000001, 8.300000000000001E-13
DataValue, -1.9000000000000001, 9.97E-12
DataValue, -1.9100000000000001, 8.8100000000000014E-12
DataValue, -1.92, -1.7200000000000001E-12
DataValue, -1.93, 9.7900000000000009E-12
DataValue, -1.94, 1.2540000000000001E-11
DataValue, -1.95, 7.9900000000000013E-12
DataValue, -1.96, 7.75E-12
DataValue, -1.97, 1.586E-11
DataValue, -1.98, 5.8300000000000008E-12
DataValue, -1.99, 7.770000000000001E-12
DataValue, -2, 1.615E-11
DataValue, -2.0100000000000002, 3.6400000000000006E-12
DataValue, -2.02, 8.26E-12
DataValue, -2.0300000000000002, 1.2740000000000001E-11
DataValue, -2.04, -2.6300000000000003E-12
DataValue, -2.05, 8.84E-12
DataValue, -2.06, 1.171E-11
DataValue, -2.07, -1.7500000000000002E-12
DataValue, -2.08, 9.54E-12
DataValue, -2.09, 1.097E-11
DataValue, -2.1, -9.6000000000000015E-13
DataValue, -2.11, 1.049E-11
DataValue, -2.12, 9.65E-12
DataValue, -2.13, 6.1E-13
DataValue, -2.14, 1.2780000000000002E-11
DataValue, -2.15, 9.17E-12
DataValue, -2.16, 2.74E-12
DataValue, -2.17, 1.3440000000000001E-11
DataValue, -2.18, 6.19E-12
DataValue, -2.19, 8.33E-12
DataValue, -2.2, 1.69E-11
DataValue, -2.21, 4.4000000000000006E-12
DataValue, -2.22, 9.490000000000001E-12
DataValue, -2.23, 1.559E-11
DataValue, -2.24, 1.6E-12
DataValue, -2.25, 9.2100000000000013E-12
DataValue, -2.2600000000000002, 1.3450000000000001E-11
DataValue, -2.27, -1.4800000000000002E-12
DataValue, -2.2800000000000002, 9.36E-12
DataValue, -2.29, 1.1250000000000002E-11
DataValue, -2.3000000000000003, -1.88E-12
DataValue, -2.31, 9.1000000000000012E-12
DataValue, -2.32, 1.5340000000000002E-11
DataValue, -2.33, 3.8300000000000004E-12
DataValue, -2.34, 7.8800000000000012E-12
DataValue, -2.35, 1.577E-11
DataValue, -2.36, 6.7400000000000008E-12
DataValue, -2.37, 6.0600000000000004E-12
DataValue, -2.38, 1.5030000000000002E-11
DataValue, -2.39, 1.008E-11
DataValue, -2.4, -1.4800000000000002E-12
DataValue, -2.41, 1.13E-11
DataValue, -2.42, 1.126E-11
DataValue, -2.43, -1.46E-12
DataValue, -2.44, 9.7100000000000012E-12
DataValue, -2.45, 1.5120000000000002E-11
DataValue, -2.46, -1.9900000000000002E-12
DataValue, -2.47, 9.57E-12
DataValue, -2.48, 1.6850000000000002E-11
DataValue, -2.49, 7.0800000000000005E-12
DataValue, -2.5, 5.4100000000000006E-12
DataValue, -2.5100000000000002, 1.6960000000000002E-11
DataValue, -2.52, 8.96E-12
DataValue, -2.5300000000000002, 2.3000000000000003E-12
DataValue, -2.54, 1.3360000000000001E-11
DataValue, -2.5500000000000003, 9.9900000000000009E-12
DataValue, -2.56, -6.5000000000000006E-13
DataValue, -2.57, 9.85E-12
DataValue, -2.58, 1.249E-11
DataValue, -2.59, -2.8800000000000002E-12
DataValue, -2.6, 9.8200000000000014E-12
DataValue, -2.61, 1.571E-11
DataValue, -2.62, 2.1500000000000003E-12
DataValue, -2.63, 9.0900000000000011E-12
DataValue, -2.64, 1.6030000000000002E-11
DataValue, -2.65, 7.7800000000000012E-12
DataValue, -2.66, 3.3100000000000002E-12
DataValue, -2.67, 1.6E-11
DataValue, -2.68, 9.490000000000001E-12
DataValue, -2.69, 1.04E-12
DataValue, -2.7, 1.096E-11
DataValue, -2.71, 1.2250000000000001E-11
DataValue, -2.72, -1.09E-12
DataValue, -2.73, 9.14E-12
DataValue, -2.74, 1.218E-11
DataValue, -2.75, 7.7000000000000005E-13
DataValue, -2.7600000000000002, 9.65E-12
DataValue, -2.77, 1.4380000000000001E-11
DataValue, -2.7800000000000002, 4.16E-12
DataValue, -2.79, 7.9800000000000011E-12
DataValue, -2.8000000000000003, 4.26E-12
DataValue, -2.81, 9.37E-12
DataValue, -2.82, 1.5960000000000002E-11
DataValue, -2.83, 1.6200000000000002E-12
DataValue, -2.84, 1.027E-11
DataValue, -2.85, 1.581E-11
DataValue, -2.86, -4.9E-13
DataValue, -2.87, 9.190000000000001E-12
DataValue, -2.88, 1.3250000000000001E-11
DataValue, -2.89, -8.9E-13
DataValue, -2.9, 9.98E-12
DataValue, -2.91, 1.239E-11
DataValue, -2.92, -1.7600000000000002E-12
DataValue, -2.93, 1.039E-11
DataValue, -2.94, 1.1130000000000001E-11
DataValue, -2.95, -5.9E-13
DataValue, -2.96, 1.128E-11
DataValue, -2.97, 1.0420000000000001E-11
DataValue, -2.98, 1.98E-12
DataValue, -2.99, 1.3260000000000001E-11
DataValue, -3, 9.7300000000000016E-12
DataValue, -3.0100000000000002, 3.9900000000000006E-12
DataValue, -3.02, 1.54E-11
DataValue, -3.0300000000000002, 8.32E-12
DataValue, -3.04, 5.99E-12
DataValue, -3.0500000000000003, 1.653E-11
DataValue, -3.06, 8.0900000000000013E-12
DataValue, -3.0700000000000003, 7.6800000000000012E-12
DataValue, -3.08, 1.7380000000000002E-11
DataValue, -3.09, 6.2200000000000006E-12
DataValue, -3.1, 9.8000000000000011E-12
DataValue, -3.11, 1.664E-11
DataValue, -3.12, 3.0600000000000003E-12
DataValue, -3.13, 1.0600000000000001E-11
DataValue, -3.14, 1.541E-11
DataValue, -3.15, -4.8000000000000008E-13
DataValue, -3.16, 8.580000000000001E-12
DataValue, -3.17, 1.3880000000000001E-11
DataValue, -3.18, -1.4300000000000002E-12
DataValue, -3.19, 9.8900000000000009E-12
DataValue, -3.2, 1.2880000000000002E-11
DataValue, -3.21, -1.5000000000000002E-13
DataValue, -3.22, 9.5100000000000013E-12
DataValue, -3.23, 1.695E-11
DataValue, -3.24, 8.23E-12
DataValue, -3.25, 4.5000000000000006E-12
DataValue, -3.2600000000000002, 1.2730000000000001E-11
DataValue, -3.27, 9.64E-12
DataValue, -3.2800000000000002, 1.36E-12
DataValue, -3.29, 1.079E-11
DataValue, -3.3000000000000003, 1.1320000000000001E-11
DataValue, 0, 8.1000000000000008E-13
DataValue, -0.01, 1.402E-11
DataValue, -0.02, -5.7E-13
DataValue, -0.03, 6.5E-12
DataValue, -0.04, 7.670000000000001E-12
DataValue, -0.05, -1.5400000000000001E-12
DataValue, -0.06, 1.29E-11
DataValue, -0.07, 3.2400000000000003E-12
DataValue, -0.08, 6.0100000000000004E-12
DataValue, -0.09, 9.87E-12
DataValue, -0.1, -4.07E-12
DataValue, -0.11, 1.057E-11
DataValue, -0.12, 4.77E-12
DataValue, -0.13, 5.7300000000000008E-12
DataValue, -0.14, 1.191E-11
DataValue, -0.15, -4.13E-12
DataValue, -0.16, 7.92E-12
DataValue, -0.17, 5.79E-12
DataValue, -0.18, 3.58E-12
DataValue, -0.19, 1.341E-11
DataValue, -0.2, -2.29E-12
DataValue, -0.21, 7.55E-12
DataValue, -0.22, 7.92E-12
DataValue, -0.23, 1.8000000000000002E-12
DataValue, -0.24, 1.3250000000000001E-11
DataValue, -0.25, -5.5000000000000008E-13
DataValue, -0.26, 7.3700000000000011E-12
DataValue, -0.27, 9.02E-12
DataValue, -0.28, -9.3E-13
DataValue, -0.29, 1.3060000000000001E-11
DataValue, -0.3, -1.0500000000000002E-12
DataValue, -0.31, 5.9700000000000006E-12
DataValue, -0.32, 7.31E-12
DataValue, -0.33, -1.2900000000000002E-12
DataValue, -0.34, 1.3290000000000002E-11
DataValue, -0.35000000000000003, 2.4500000000000003E-12
DataValue, -0.36, 6.46E-12
DataValue, -0.37, 1.2E-11
DataValue, -0.38, -4.6000000000000006E-12
DataValue, -0.39, 6.56E-12
DataValue, -0.4, 7.3800000000000013E-12
DataValue, -0.41000000000000003, 3.1100000000000003E-12
