
SetupTitle, PMOS-id-vg-vbs@vds=-0.05
PrimitiveTest, I/V Sweep
TestParameter, Context.MainFrame, B1500A
TestParameter, Channel.UnitType, SMU, SMU, SMU, SMU
TestParameter, Channel.Unit, SMU2:HR, SMU1:HR, SMU3:HR, SMU4:HR
TestParameter, Channel.IName, ib, is, ig, id
TestParameter, Channel.VName, vb, vs, vg, vd
TestParameter, Channel.Mode, V, COMMON, V, V
TestParameter, Channel.Func, VAR2, CONST, VAR1, CONST
TestParameter, Channel.Index, 
TestParameter, Channel.Time, 
TestParameter, Measurement.Port.Unit, SMU2:HR, SMU1:HR, SMU3:HR, SMU4:HR
TestParameter, Measurement.Port.SeriesResistor, NONE, NONE, NONE, NONE
TestParameter, Measurement.Port.Filter, ON, ON, ON, ON
TestParameter, Measurement.Port.OutputVoltageComparison, 0, 0, 0, 0
TestParameter, Measurement.Primary.Locus, Single
TestParameter, Measurement.Primary.Scale, LINEAR
TestParameter, Measurement.Primary.Start, 0.5
TestParameter, Measurement.Primary.Stop, -3.3000000000000003
TestParameter, Measurement.Primary.Step, -0.01
TestParameter, Measurement.Primary.Compliance, 0.001
TestParameter, Measurement.Primary.PowerCompliance, 0
TestParameter, Measurement.Aborting.Condition, SKIP AT ANY ABNORMAL
TestParameter, Measurement.PostOutput.Value, START
TestParameter, Measurement.PostOutput.Retention, OFF
TestParameter, Measurement.Secondary.Start, 0
TestParameter, Measurement.Secondary.Count, 7
TestParameter, Measurement.Secondary.Step, 0.6
TestParameter, Measurement.Secondary.Compliance, 0.1
TestParameter, Measurement.Secondary.PowerCompliance, 0
TestParameter, Measurement.Bias.Source, 0, 0, 0.5, -0.05
TestParameter, Measurement.Bias.Compliance, 0.1, 0.1, 0.001, 0.1
TestParameter, Measurement.Monitor.Unit, SMU2:HR, SMU1:HR, SMU3:HR, SMU4:HR
TestParameter, Measurement.Monitor.Adc, HR ADC, HR ADC, HR ADC, HR ADC
TestParameter, Measurement.Monitor.Measurement, Compliance Side, Compliance Side, Compliance Side, Compliance Side
TestParameter, Measurement.Monitor.RangingMode, LIMITED, LIMITED, LIMITED, LIMITED
TestParameter, Measurement.Monitor.RangeBoundary, 1nA, 1nA, 1nA, 1nA
TestParameter, Measurement.Monitor.RangeRating, BY FULL RANGE, BY FULL RANGE, BY FULL RANGE, BY FULL RANGE
TestParameter, Measurement.Monitor.RangeRatingCoeff, 50, 50, 50, 50
TestParameter, Measurement.Timing.Hold, 0
TestParameter, Measurement.Timing.Delay, 0
TestParameter, Measurement.Adc.HighSpeed.Mode, AUTO
TestParameter, Measurement.Adc.HighSpeed.Coeff, 1
TestParameter, Measurement.Adc.HighResolution.AutoZero, OFF
TestParameter, Measurement.Adc.HighResolution.Mode, AUTO
TestParameter, Measurement.Adc.HighResolution.Coeff, 6
TestParameter, Measurement.WaitTime.Source.Coeff, 1
TestParameter, Measurement.WaitTime.Source.Offset, 0
TestParameter, Measurement.WaitTime.Monitor.Coeff, 1
TestParameter, Measurement.WaitTime.Monitor.Offset, 0
TestParameter, Output.Graph.Enabled, true
TestParameter, Output.Graph.AutoScaling, false
TestParameter, Output.Graph.XAxis.Data, vg
TestParameter, Output.Graph.XAxis.Scale, Linear
TestParameter, Output.Graph.XAxis.Left, 0
TestParameter, Output.Graph.XAxis.Right, 0.9
TestParameter, Output.Graph.XAxis.RunTimeAutoScale, true
TestParameter, Output.Graph.YAxis.Data, id
TestParameter, Output.Graph.YAxis.Scale, Linear
TestParameter, Output.Graph.YAxis.Bottom, -0.1
TestParameter, Output.Graph.YAxis.Top, 0.1
TestParameter, Output.Graph.YAxis.Group, 
TestParameter, Output.Graph.YAxis.RunTimeAutoScale, true
TestParameter, AutoAnalysis.Interpolation, false
TestParameter, AutoAnalysis.Var2StepCount, 1
TestParameter, AutoAnalysis.Var2StepScript, 
TestParameter, AutoAnalysis.Line1.Enabled, false
TestParameter, AutoAnalysis.Line1.Type, 1
TestParameter, AutoAnalysis.Line1.Fix, True
TestParameter, AutoAnalysis.Line1.YAxis, 0
TestParameter, AutoAnalysis.Line1.Point1.Type, 0
TestParameter, AutoAnalysis.Line1.Point1.XY.X, 
TestParameter, AutoAnalysis.Line1.Point1.XY.Y, 
TestParameter, AutoAnalysis.Line1.Point1.Data.Var, 
TestParameter, AutoAnalysis.Line1.Point1.Data.Condition, 
TestParameter, AutoAnalysis.Line1.Point1.Data.Start, false
TestParameter, AutoAnalysis.Line1.Point1.Data.StartVar, 
TestParameter, AutoAnalysis.Line1.Point1.Data.StartCondition, 
TestParameter, AutoAnalysis.Line1.Point2.Type, 0
TestParameter, AutoAnalysis.Line1.Point2.XY.X, 
TestParameter, AutoAnalysis.Line1.Point2.XY.Y, 
TestParameter, AutoAnalysis.Line1.Point2.Data.Var, 
TestParameter, AutoAnalysis.Line1.Point2.Data.Condition, 
TestParameter, AutoAnalysis.Line1.Point2.Data.Start, false
TestParameter, AutoAnalysis.Line1.Point2.Data.StartVar, 
TestParameter, AutoAnalysis.Line1.Point2.Data.StartCondition, 
TestParameter, AutoAnalysis.Line1.GradientExpr, 0
TestParameter, AutoAnalysis.Line2.Enabled, false
TestParameter, AutoAnalysis.Line2.Type, 1
TestParameter, AutoAnalysis.Line2.Fix, True
TestParameter, AutoAnalysis.Line2.YAxis, 0
TestParameter, AutoAnalysis.Line2.Point1.Type, 0
TestParameter, AutoAnalysis.Line2.Point1.XY.X, 
TestParameter, AutoAnalysis.Line2.Point1.XY.Y, 
TestParameter, AutoAnalysis.Line2.Point1.Data.Var, 
TestParameter, AutoAnalysis.Line2.Point1.Data.Condition, 
TestParameter, AutoAnalysis.Line2.Point1.Data.Start, false
TestParameter, AutoAnalysis.Line2.Point1.Data.StartVar, 
TestParameter, AutoAnalysis.Line2.Point1.Data.StartCondition, 
TestParameter, AutoAnalysis.Line2.Point2.Type, 0
TestParameter, AutoAnalysis.Line2.Point2.XY.X, 
TestParameter, AutoAnalysis.Line2.Point2.XY.Y, 
TestParameter, AutoAnalysis.Line2.Point2.Data.Var, 
TestParameter, AutoAnalysis.Line2.Point2.Data.Condition, 
TestParameter, AutoAnalysis.Line2.Point2.Data.Start, false
TestParameter, AutoAnalysis.Line2.Point2.Data.StartVar, 
TestParameter, AutoAnalysis.Line2.Point2.Data.StartCondition, 
TestParameter, AutoAnalysis.Line2.GradientExpr, 0
TestParameter, AutoAnalysis.Marker.Enabled, false
TestParameter, AutoAnalysis.Marker.Data.Var, 
TestParameter, AutoAnalysis.Marker.Data.Condition, 
TestParameter, AutoAnalysis.Marker.Data.Start, false
TestParameter, AutoAnalysis.Marker.Data.StartVar, 
TestParameter, AutoAnalysis.Marker.Data.StartCondition, 
MetaData, TestRecord.EntryPoint, true
MetaData, TestRecord.RecordTime, 01/16/2024 16:37:49
MetaData, TestRecord.TestTarget, P-0.22-0.35-298K
MetaData, TestRecord.IterationIndex, 3
MetaData, TestRecord.Preservation, true
MetaData, TestRecord.Flag, 
MetaData, TestRecord.Remarks, 
MetaData, TestRecord.LinkKey, f301b5c8-d965-4760-a6f3-a7f3192c6fcf
MetaData, TestRecord.Parameters, 
Dimension1, 381, 381
Dimension2, 7, 7
DataName, vg, id
DataValue, 0.5, -7.2000000000000006E-13
DataValue, 0.49, -1.1000000000000001E-13
DataValue, 0.48, -9.94E-12
DataValue, 0.47000000000000003, 6.6E-13
DataValue, 0.46, -1.26E-12
DataValue, 0.45, -8.82E-12
DataValue, 0.44, 3.51E-12
DataValue, 0.43, -2.03E-12
DataValue, 0.42, -6.9800000000000006E-12
DataValue, 0.41000000000000003, 5.38E-12
DataValue, 0.4, -2.2200000000000002E-12
DataValue, 0.39, -5.29E-12
DataValue, 0.38, 6.7900000000000008E-12
DataValue, 0.37, -1.64E-12
DataValue, 0.36, -3.5500000000000004E-12
DataValue, 0.35000000000000003, 6.8800000000000006E-12
DataValue, 0.34, -1.8700000000000003E-12
DataValue, 0.33, -3.6200000000000003E-12
DataValue, 0.32, 7.07E-12
DataValue, 0.31, -4.2500000000000007E-12
DataValue, 0.3, -1.79E-12
DataValue, 0.29, 5.07E-12
DataValue, 0.28, -6.6900000000000008E-12
DataValue, 0.27, -1.5200000000000002E-12
DataValue, 0.26, 4.02E-12
DataValue, 0.25, -8.86E-12
DataValue, 0.24, -1.32E-12
DataValue, 0.23, 1.8700000000000003E-12
DataValue, 0.22, -9.8000000000000011E-12
DataValue, 0.21, -1.0600000000000001E-12
DataValue, 0.2, 1.2000000000000001E-12
DataValue, 0.19, -9.7900000000000009E-12
DataValue, 0.18, 5.1E-13
DataValue, 0.17, -9.8E-13
DataValue, 0.16, -9.35E-12
DataValue, 0.15, 1.91E-12
DataValue, 0.14, -1.23E-12
DataValue, 0.13, -7.9900000000000013E-12
DataValue, 0.12, 3.02E-12
DataValue, 0.11, -6.2000000000000008E-13
DataValue, 0.1, -9.7100000000000012E-12
DataValue, 0.09, 2.2200000000000002E-12
DataValue, 0.08, -1.1500000000000002E-12
DataValue, 0.07, -8.54E-12
DataValue, 0.06, 4.3400000000000005E-12
DataValue, 0.05, -1.96E-12
DataValue, 0.04, -6.7400000000000008E-12
DataValue, 0.03, 6.86E-12
DataValue, 0.02, -2.11E-12
DataValue, 0.01, -3.5900000000000003E-12
DataValue, 0, 6.8300000000000006E-12
DataValue, -0.01, -3.4500000000000004E-12
DataValue, -0.02, -2.29E-12
DataValue, -0.03, 5.8200000000000006E-12
DataValue, -0.04, -5.9E-12
DataValue, -0.05, -1.4700000000000002E-12
DataValue, -0.06, 4.7600000000000007E-12
DataValue, -0.07, -7.6900000000000014E-12
DataValue, -0.08, -1.5700000000000002E-12
DataValue, -0.09, 5.89E-12
DataValue, -0.1, -2.9600000000000003E-12
DataValue, -0.11, -3.97E-12
DataValue, -0.12, 6.6700000000000005E-12
DataValue, -0.13, -1.86E-12
DataValue, -0.14, -6.1300000000000007E-12
DataValue, -0.15, 6.65E-12
DataValue, -0.16, -1.5300000000000001E-12
DataValue, -0.17, -7.2300000000000005E-12
DataValue, -0.18, 1.93E-12
DataValue, -0.19, -4.9E-13
DataValue, -0.2, -9.77E-12
DataValue, -0.21, -5.8000000000000005E-13
DataValue, -0.22, 1.5300000000000001E-12
DataValue, -0.23, -8.13E-12
DataValue, -0.24, -1.4300000000000002E-12
DataValue, -0.25, 3.63E-12
DataValue, -0.26, -9.2100000000000013E-12
DataValue, -0.27, -1.3300000000000002E-12
DataValue, -0.28, 6.19E-12
DataValue, -0.29, -3.6900000000000006E-12
DataValue, -0.3, -3.4900000000000003E-12
DataValue, -0.31, 7.1300000000000005E-12
DataValue, -0.32, -1.9900000000000002E-12
DataValue, -0.33, -8.36E-12
DataValue, -0.34, 4.87E-12
DataValue, -0.35000000000000003, -1.5200000000000002E-12
DataValue, -0.36, -8.7100000000000015E-12
DataValue, -0.37, 2.3000000000000003E-13
DataValue, -0.38, 7E-14
DataValue, -0.39, -9.88E-12
DataValue, -0.4, -1.2800000000000002E-12
DataValue, -0.41000000000000003, 5.7200000000000007E-12
DataValue, -0.42, -8.54E-12
DataValue, -0.43, -1.79E-12
DataValue, -0.44, 5.64E-12
DataValue, -0.45, -3.0100000000000003E-12
DataValue, -0.46, -4.2000000000000007E-12
DataValue, -0.47000000000000003, 7.0000000000000009E-12
DataValue, -0.48, -1.88E-12
DataValue, -0.49, -5.3000000000000004E-12
DataValue, -0.5, 4.8600000000000007E-12
DataValue, -0.51, -1.2900000000000002E-12
DataValue, -0.52, -7.670000000000001E-12
DataValue, -0.53, 8.6000000000000007E-13
DataValue, -0.54, -9.5E-13
DataValue, -0.55, -1.029E-11
DataValue, -0.56, -1.4900000000000001E-12
DataValue, -0.57000000000000006, 1.9400000000000002E-12
DataValue, -0.58, -8.42E-12
DataValue, -0.59, -1.79E-12
DataValue, -0.6, 3.51E-12
DataValue, -0.61, -5.43E-12
DataValue, -0.62, -2.34E-12
DataValue, -0.63, 6.5300000000000007E-12
DataValue, -0.64, -2.8100000000000003E-12
DataValue, -0.65, -5.6600000000000005E-12
DataValue, -0.66, 3.75E-12
DataValue, -0.67, -2.5300000000000003E-12
DataValue, -0.68, -9.54E-12
DataValue, -0.69000000000000006, -1.5400000000000001E-12
DataValue, -0.70000000000000007, -3.1E-12
DataValue, -0.71, -1.1870000000000002E-11
DataValue, -0.72, -3.0800000000000002E-12
DataValue, -0.73, -8.8000000000000009E-13
DataValue, -0.74, -1.1930000000000001E-11
DataValue, -0.75, -6.26E-12
DataValue, -0.76, -1.79E-12
DataValue, -0.77, -1.3750000000000001E-11
DataValue, -0.78, -1.1950000000000001E-11
DataValue, -0.79, -4.83E-12
DataValue, -0.8, -1.748E-11
DataValue, -0.81, -2.223E-11
DataValue, -0.82000000000000006, -1.639E-11
DataValue, -0.83000000000000007, -2.983E-11
DataValue, -0.84, -4.258E-11
DataValue, -0.85, -3.925E-11
DataValue, -0.86, -5.5150000000000005E-11
DataValue, -0.87, -7.9000000000000012E-11
DataValue, -0.88, -8.746E-11
DataValue, -0.89, -1.0508000000000001E-10
DataValue, -0.9, -1.4504000000000002E-10
DataValue, -0.91, -1.7048000000000002E-10
DataValue, -0.92, -2.134E-10
DataValue, -0.93, -2.7165000000000004E-10
DataValue, -0.94000000000000006, -3.3774E-10
DataValue, -0.95000000000000007, -4.0798E-10
DataValue, -0.96, -5.1911000000000008E-10
DataValue, -0.97, -6.5620000000000007E-10
DataValue, -0.98, -7.9694E-10
DataValue, -0.99, -1.00696E-09
DataValue, -1, -1.3231E-09
DataValue, -1.01, -1.5595E-09
DataValue, -1.02, -1.9511E-09
DataValue, -1.03, -2.4038E-09
DataValue, -1.04, -2.9501E-09
DataValue, -1.05, -3.5857E-09
DataValue, -1.06, -4.3817E-09
DataValue, -1.07, -5.3533E-09
DataValue, -1.08, -6.4945E-09
DataValue, -1.09, -7.8424E-09
DataValue, -1.1, -9.4498E-09
DataValue, -1.11, -1.18174E-08
DataValue, -1.12, -1.4019399999999998E-08
DataValue, -1.1300000000000001, -1.6548999999999998E-08
DataValue, -1.1400000000000001, -1.9509999999999997E-08
DataValue, -1.1500000000000001, -2.27872E-08
DataValue, -1.16, -2.6537599999999997E-08
DataValue, -1.17, -3.0706199999999995E-08
DataValue, -1.18, -3.52934E-08
DataValue, -1.19, -4.02298E-08
DataValue, -1.2, -4.5763E-08
DataValue, -1.21, -5.1722E-08
DataValue, -1.22, -5.8339199999999995E-08
DataValue, -1.23, -6.50932E-08
DataValue, -1.24, -7.23432E-08
DataValue, -1.25, -8.0176999999999991E-08
DataValue, -1.26, -8.84036E-08
DataValue, -1.27, -9.68566E-08
DataValue, -1.28, -1.0588339999999999E-07
DataValue, -1.29, -1.1512E-07
DataValue, -1.3, -1.249E-07
DataValue, -1.31, -1.3364E-07
DataValue, -1.32, -1.4382E-07
DataValue, -1.33, -1.5432E-07
DataValue, -1.34, -1.6542E-07
DataValue, -1.35, -1.7674E-07
DataValue, -1.36, -1.881E-07
DataValue, -1.37, -1.9992E-07
DataValue, -1.3800000000000001, -2.1161999999999999E-07
DataValue, -1.3900000000000001, -2.2368E-07
DataValue, -1.4000000000000001, -2.3554E-07
DataValue, -1.41, -2.4884E-07
DataValue, -1.42, -2.6192E-07
DataValue, -1.43, -2.7476E-07
DataValue, -1.44, -2.8754E-07
DataValue, -1.45, -3.0098E-07
DataValue, -1.46, -3.1466E-07
DataValue, -1.47, -3.2876E-07
DataValue, -1.48, -3.427E-07
DataValue, -1.49, -3.5712E-07
DataValue, -1.5, -3.7154E-07
DataValue, -1.51, -3.8625999999999997E-07
DataValue, -1.52, -4.0124E-07
DataValue, -1.53, -4.1654E-07
DataValue, -1.54, -4.3224E-07
DataValue, -1.55, -4.4792E-07
DataValue, -1.56, -4.6266E-07
DataValue, -1.57, -4.7848E-07
DataValue, -1.58, -4.9386E-07
DataValue, -1.59, -5.095E-07
DataValue, -1.6, -5.241E-07
DataValue, -1.61, -5.42E-07
DataValue, -1.62, -5.581E-07
DataValue, -1.6300000000000001, -5.7442E-07
DataValue, -1.6400000000000001, -5.889E-07
DataValue, -1.6500000000000001, -6.0554E-07
DataValue, -1.6600000000000001, -6.2178E-07
DataValue, -1.67, -6.3842E-07
DataValue, -1.68, -6.5452E-07
DataValue, -1.69, -6.7149999999999994E-07
DataValue, -1.7, -6.862E-07
DataValue, -1.71, -7.0226E-07
DataValue, -1.72, -7.1906E-07
DataValue, -1.73, -7.3264E-07
DataValue, -1.74, -7.512E-07
DataValue, -1.75, -7.6762E-07
DataValue, -1.76, -7.8374E-07
DataValue, -1.77, -8.0122E-07
DataValue, -1.78, -8.175E-07
DataValue, -1.79, -8.3408E-07
DataValue, -1.8, -8.4972E-07
DataValue, -1.81, -8.6754E-07
DataValue, -1.82, -8.8452E-07
DataValue, -1.83, -9.0106E-07
DataValue, -1.84, -9.1704E-07
DataValue, -1.85, -9.3342E-07
DataValue, -1.86, -9.5038E-07
DataValue, -1.87, -9.6674E-07
DataValue, -1.8800000000000001, -9.83E-07
DataValue, -1.8900000000000001, -9.9994E-07
DataValue, -1.9000000000000001, -1.01632E-06
DataValue, -1.9100000000000001, -1.0318799999999999E-06
DataValue, -1.92, -1.04882E-06
DataValue, -1.93, -1.06458E-06
DataValue, -1.94, -1.08064E-06
DataValue, -1.95, -1.0975999999999999E-06
DataValue, -1.96, -1.1116999999999999E-06
DataValue, -1.97, -1.12894E-06
DataValue, -1.98, -1.14516E-06
DataValue, -1.99, -1.1646E-06
DataValue, -2, -1.1786E-06
DataValue, -2.0100000000000002, -1.1937000000000001E-06
DataValue, -2.02, -1.2101E-06
DataValue, -2.0300000000000002, -1.2259000000000002E-06
DataValue, -2.04, -1.2414E-06
DataValue, -2.05, -1.2551E-06
DataValue, -2.06, -1.2725E-06
DataValue, -2.07, -1.2873000000000002E-06
DataValue, -2.08, -1.3023000000000002E-06
DataValue, -2.09, -1.3188000000000002E-06
DataValue, -2.1, -1.3334000000000002E-06
DataValue, -2.11, -1.3507E-06
DataValue, -2.12, -1.3662000000000002E-06
DataValue, -2.13, -1.3797E-06
DataValue, -2.14, -1.3927000000000002E-06
DataValue, -2.15, -1.4084000000000001E-06
DataValue, -2.16, -1.4231000000000002E-06
DataValue, -2.17, -1.4379000000000002E-06
DataValue, -2.18, -1.4536000000000002E-06
DataValue, -2.19, -1.4684000000000002E-06
DataValue, -2.2, -1.4840000000000001E-06
DataValue, -2.21, -1.4973E-06
DataValue, -2.22, -1.5114E-06
DataValue, -2.23, -1.5266000000000001E-06
DataValue, -2.24, -1.5405000000000001E-06
DataValue, -2.25, -1.5557000000000002E-06
DataValue, -2.2600000000000002, -1.5701000000000002E-06
DataValue, -2.27, -1.5834000000000002E-06
DataValue, -2.2800000000000002, -1.5987000000000003E-06
DataValue, -2.29, -1.6129000000000003E-06
DataValue, -2.3000000000000003, -1.6257000000000002E-06
DataValue, -2.31, -1.6397000000000002E-06
DataValue, -2.32, -1.6551000000000003E-06
DataValue, -2.33, -1.6678000000000002E-06
DataValue, -2.34, -1.6819000000000002E-06
DataValue, -2.35, -1.6970000000000002E-06
DataValue, -2.36, -1.7100000000000001E-06
DataValue, -2.37, -1.7254000000000002E-06
DataValue, -2.38, -1.7398000000000003E-06
DataValue, -2.39, -1.7513E-06
DataValue, -2.4, -1.7642000000000002E-06
DataValue, -2.41, -1.7780000000000002E-06
DataValue, -2.42, -1.7918000000000002E-06
DataValue, -2.43, -1.8036000000000002E-06
DataValue, -2.44, -1.8181000000000002E-06
DataValue, -2.45, -1.8312000000000001E-06
DataValue, -2.46, -1.8428000000000002E-06
DataValue, -2.47, -1.8576000000000002E-06
DataValue, -2.48, -1.8710000000000002E-06
DataValue, -2.49, -1.8837000000000003E-06
DataValue, -2.5, -1.8961000000000002E-06
DataValue, -2.5100000000000002, -1.9101E-06
DataValue, -2.52, -1.9233000000000003E-06
DataValue, -2.5300000000000002, -1.9349000000000003E-06
DataValue, -2.54, -1.9476E-06
DataValue, -2.5500000000000003, -1.9602000000000003E-06
DataValue, -2.56, -1.969E-06
DataValue, -2.57, -1.9851000000000003E-06
DataValue, -2.58, -1.9988000000000002E-06
DataValue, -2.59, -2.0110000000000003E-06
DataValue, -2.6, -2.0228000000000004E-06
DataValue, -2.61, -2.035E-06
DataValue, -2.62, -2.0478E-06
DataValue, -2.63, -2.0607E-06
DataValue, -2.64, -2.0719E-06
DataValue, -2.65, -2.0839E-06
DataValue, -2.66, -2.0944000000000002E-06
DataValue, -2.67, -2.1087000000000002E-06
DataValue, -2.68, -2.1195E-06
DataValue, -2.69, -2.131E-06
DataValue, -2.7, -2.1411E-06
DataValue, -2.71, -2.1538E-06
DataValue, -2.72, -2.1674E-06
DataValue, -2.73, -2.1799E-06
DataValue, -2.74, -2.1893000000000004E-06
DataValue, -2.75, -2.2006E-06
DataValue, -2.7600000000000002, -2.2157000000000002E-06
DataValue, -2.77, -2.2275000000000003E-06
DataValue, -2.7800000000000002, -2.2379E-06
DataValue, -2.79, -2.2482000000000003E-06
DataValue, -2.8000000000000003, -2.2595E-06
DataValue, -2.81, -2.2718000000000004E-06
DataValue, -2.82, -2.2833000000000002E-06
DataValue, -2.83, -2.2932000000000003E-06
DataValue, -2.84, -2.3034000000000003E-06
DataValue, -2.85, -2.318E-06
DataValue, -2.86, -2.3249000000000004E-06
DataValue, -2.87, -2.3393E-06
DataValue, -2.88, -2.3491E-06
DataValue, -2.89, -2.3609E-06
DataValue, -2.9, -2.3682E-06
DataValue, -2.91, -2.3809000000000004E-06
DataValue, -2.92, -2.3902000000000004E-06
DataValue, -2.93, -2.4032E-06
DataValue, -2.94, -2.4157000000000004E-06
DataValue, -2.95, -2.4241000000000002E-06
DataValue, -2.96, -2.4342000000000003E-06
DataValue, -2.97, -2.4441000000000005E-06
DataValue, -2.98, -2.4574000000000004E-06
DataValue, -2.99, -2.4667000000000005E-06
DataValue, -3, -2.4766E-06
DataValue, -3.0100000000000002, -2.4906000000000003E-06
DataValue, -3.02, -2.4986E-06
DataValue, -3.0300000000000002, -2.5062000000000002E-06
DataValue, -3.04, -2.5178000000000003E-06
DataValue, -3.0500000000000003, -2.5307E-06
DataValue, -3.06, -2.5382E-06
DataValue, -3.0700000000000003, -2.5488E-06
DataValue, -3.08, -2.5605000000000003E-06
DataValue, -3.09, -2.5715000000000003E-06
DataValue, -3.1, -2.5789000000000004E-06
DataValue, -3.11, -2.5878000000000004E-06
DataValue, -3.12, -2.5992000000000005E-06
DataValue, -3.13, -2.606E-06
DataValue, -3.14, -2.6198000000000003E-06
DataValue, -3.15, -2.6302000000000002E-06
DataValue, -3.16, -2.6404E-06
DataValue, -3.17, -2.6492000000000004E-06
DataValue, -3.18, -2.6595E-06
DataValue, -3.19, -2.6688E-06
