
SetupTitle, PMOS-id-vg-vbs@vds=-0.05
PrimitiveTest, I/V Sweep
TestParameter, Context.MainFrame, B1500A
TestParameter, Channel.UnitType, SMU, SMU, SMU, SMU
TestParameter, Channel.Unit, SMU2:HR, SMU1:HR, SMU3:HR, SMU4:HR
TestParameter, Channel.IName, ib, is, ig, id
TestParameter, Channel.VName, vb, vs, vg, vd
TestParameter, Channel.Mode, V, COMMON, V, V
TestParameter, Channel.Func, VAR2, CONST, VAR1, CONST
TestParameter, Channel.Index, 
TestParameter, Channel.Time, 
TestParameter, Measurement.Port.Unit, SMU2:HR, SMU1:HR, SMU3:HR, SMU4:HR
TestParameter, Measurement.Port.SeriesResistor, NONE, NONE, NONE, NONE
TestParameter, Measurement.Port.Filter, ON, ON, ON, ON
TestParameter, Measurement.Port.OutputVoltageComparison, 0, 0, 0, 0
TestParameter, Measurement.Primary.Locus, Single
TestParameter, Measurement.Primary.Scale, LINEAR
TestParameter, Measurement.Primary.Start, 0.5
TestParameter, Measurement.Primary.Stop, -3.3000000000000003
TestParameter, Measurement.Primary.Step, -0.01
TestParameter, Measurement.Primary.Compliance, 0.001
TestParameter, Measurement.Primary.PowerCompliance, 0
TestParameter, Measurement.Aborting.Condition, SKIP AT ANY ABNORMAL
TestParameter, Measurement.PostOutput.Value, START
TestParameter, Measurement.PostOutput.Retention, OFF
TestParameter, Measurement.Secondary.Start, 0
TestParameter, Measurement.Secondary.Count, 7
TestParameter, Measurement.Secondary.Step, 0.6
TestParameter, Measurement.Secondary.Compliance, 0.1
TestParameter, Measurement.Secondary.PowerCompliance, 0
TestParameter, Measurement.Bias.Source, 0, 0, 0.5, -0.05
TestParameter, Measurement.Bias.Compliance, 0.1, 0.1, 0.001, 0.1
TestParameter, Measurement.Monitor.Unit, SMU2:HR, SMU1:HR, SMU3:HR, SMU4:HR
TestParameter, Measurement.Monitor.Adc, HR ADC, HR ADC, HR ADC, HR ADC
TestParameter, Measurement.Monitor.Measurement, Compliance Side, Compliance Side, Compliance Side, Compliance Side
TestParameter, Measurement.Monitor.RangingMode, LIMITED, LIMITED, LIMITED, LIMITED
TestParameter, Measurement.Monitor.RangeBoundary, 1nA, 1nA, 1nA, 1nA
TestParameter, Measurement.Monitor.RangeRating, BY FULL RANGE, BY FULL RANGE, BY FULL RANGE, BY FULL RANGE
TestParameter, Measurement.Monitor.RangeRatingCoeff, 50, 50, 50, 50
TestParameter, Measurement.Timing.Hold, 0
TestParameter, Measurement.Timing.Delay, 0
TestParameter, Measurement.Adc.HighSpeed.Mode, AUTO
TestParameter, Measurement.Adc.HighSpeed.Coeff, 1
TestParameter, Measurement.Adc.HighResolution.AutoZero, OFF
TestParameter, Measurement.Adc.HighResolution.Mode, AUTO
TestParameter, Measurement.Adc.HighResolution.Coeff, 6
TestParameter, Measurement.WaitTime.Source.Coeff, 1
TestParameter, Measurement.WaitTime.Source.Offset, 0
TestParameter, Measurement.WaitTime.Monitor.Coeff, 1
TestParameter, Measurement.WaitTime.Monitor.Offset, 0
TestParameter, Output.Graph.Enabled, true
TestParameter, Output.Graph.AutoScaling, false
TestParameter, Output.Graph.XAxis.Data, vg
TestParameter, Output.Graph.XAxis.Scale, Linear
TestParameter, Output.Graph.XAxis.Left, 0
TestParameter, Output.Graph.XAxis.Right, 0.9
TestParameter, Output.Graph.XAxis.RunTimeAutoScale, true
TestParameter, Output.Graph.YAxis.Data, id
TestParameter, Output.Graph.YAxis.Scale, Linear
TestParameter, Output.Graph.YAxis.Bottom, -0.1
TestParameter, Output.Graph.YAxis.Top, 0.1
TestParameter, Output.Graph.YAxis.Group, 
TestParameter, Output.Graph.YAxis.RunTimeAutoScale, true
TestParameter, AutoAnalysis.Interpolation, false
TestParameter, AutoAnalysis.Var2StepCount, 1
TestParameter, AutoAnalysis.Var2StepScript, 
TestParameter, AutoAnalysis.Line1.Enabled, false
TestParameter, AutoAnalysis.Line1.Type, 1
TestParameter, AutoAnalysis.Line1.Fix, True
TestParameter, AutoAnalysis.Line1.YAxis, 0
TestParameter, AutoAnalysis.Line1.Point1.Type, 0
TestParameter, AutoAnalysis.Line1.Point1.XY.X, 
TestParameter, AutoAnalysis.Line1.Point1.XY.Y, 
TestParameter, AutoAnalysis.Line1.Point1.Data.Var, 
TestParameter, AutoAnalysis.Line1.Point1.Data.Condition, 
TestParameter, AutoAnalysis.Line1.Point1.Data.Start, false
TestParameter, AutoAnalysis.Line1.Point1.Data.StartVar, 
TestParameter, AutoAnalysis.Line1.Point1.Data.StartCondition, 
TestParameter, AutoAnalysis.Line1.Point2.Type, 0
TestParameter, AutoAnalysis.Line1.Point2.XY.X, 
TestParameter, AutoAnalysis.Line1.Point2.XY.Y, 
TestParameter, AutoAnalysis.Line1.Point2.Data.Var, 
TestParameter, AutoAnalysis.Line1.Point2.Data.Condition, 
TestParameter, AutoAnalysis.Line1.Point2.Data.Start, false
TestParameter, AutoAnalysis.Line1.Point2.Data.StartVar, 
TestParameter, AutoAnalysis.Line1.Point2.Data.StartCondition, 
TestParameter, AutoAnalysis.Line1.GradientExpr, 0
TestParameter, AutoAnalysis.Line2.Enabled, false
TestParameter, AutoAnalysis.Line2.Type, 1
TestParameter, AutoAnalysis.Line2.Fix, True
TestParameter, AutoAnalysis.Line2.YAxis, 0
TestParameter, AutoAnalysis.Line2.Point1.Type, 0
TestParameter, AutoAnalysis.Line2.Point1.XY.X, 
TestParameter, AutoAnalysis.Line2.Point1.XY.Y, 
TestParameter, AutoAnalysis.Line2.Point1.Data.Var, 
TestParameter, AutoAnalysis.Line2.Point1.Data.Condition, 
TestParameter, AutoAnalysis.Line2.Point1.Data.Start, false
TestParameter, AutoAnalysis.Line2.Point1.Data.StartVar, 
TestParameter, AutoAnalysis.Line2.Point1.Data.StartCondition, 
TestParameter, AutoAnalysis.Line2.Point2.Type, 0
TestParameter, AutoAnalysis.Line2.Point2.XY.X, 
TestParameter, AutoAnalysis.Line2.Point2.XY.Y, 
TestParameter, AutoAnalysis.Line2.Point2.Data.Var, 
TestParameter, AutoAnalysis.Line2.Point2.Data.Condition, 
TestParameter, AutoAnalysis.Line2.Point2.Data.Start, false
TestParameter, AutoAnalysis.Line2.Point2.Data.StartVar, 
TestParameter, AutoAnalysis.Line2.Point2.Data.StartCondition, 
TestParameter, AutoAnalysis.Line2.GradientExpr, 0
TestParameter, AutoAnalysis.Marker.Enabled, false
TestParameter, AutoAnalysis.Marker.Data.Var, 
TestParameter, AutoAnalysis.Marker.Data.Condition, 
TestParameter, AutoAnalysis.Marker.Data.Start, false
TestParameter, AutoAnalysis.Marker.Data.StartVar, 
TestParameter, AutoAnalysis.Marker.Data.StartCondition, 
MetaData, TestRecord.EntryPoint, true
MetaData, TestRecord.RecordTime, 01/16/2024 16:02:21
MetaData, TestRecord.TestTarget, P-0.22-0.35-298K
MetaData, TestRecord.IterationIndex, 2
MetaData, TestRecord.Preservation, true
MetaData, TestRecord.Flag, 
MetaData, TestRecord.Remarks, 
MetaData, TestRecord.LinkKey, 7af79217-256f-42e5-8d67-663ecc160a91
MetaData, TestRecord.Parameters, 
Dimension1, 381, 381
Dimension2, 7, 7
DataName, vg, id
DataValue, 0.5, -2.19E-12
DataValue, 0.49, -6.3800000000000007E-12
DataValue, 0.48, 5.79E-12
DataValue, 0.47000000000000003, -1.79E-12
DataValue, 0.46, -4.7600000000000007E-12
DataValue, 0.45, 6.2200000000000006E-12
DataValue, 0.44, -1.93E-12
DataValue, 0.43, -3.2400000000000003E-12
DataValue, 0.42, 6.3900000000000008E-12
DataValue, 0.41000000000000003, -2.92E-12
DataValue, 0.4, -2.52E-12
DataValue, 0.39, 5.55E-12
DataValue, 0.38, -4.4900000000000005E-12
DataValue, 0.37, -1.7100000000000002E-12
DataValue, 0.36, 4.4900000000000005E-12
DataValue, 0.35000000000000003, -7.1800000000000005E-12
DataValue, 0.34, -1.6800000000000001E-12
DataValue, 0.33, 2.87E-12
DataValue, 0.32, -8.5900000000000012E-12
DataValue, 0.31, -1.5700000000000002E-12
DataValue, 0.3, 1.55E-12
DataValue, 0.29, -9.85E-12
DataValue, 0.28, -1.32E-12
DataValue, 0.27, 2.0000000000000003E-14
DataValue, 0.26, -9.54E-12
DataValue, 0.25, -3.0000000000000003E-13
DataValue, 0.24, -6.1E-13
DataValue, 0.23, -8.9100000000000014E-12
DataValue, 0.22, 1.65E-12
DataValue, 0.21, -1.4300000000000002E-12
DataValue, 0.2, -8.2700000000000009E-12
DataValue, 0.19, 5.2200000000000008E-12
DataValue, 0.18, -1.85E-12
DataValue, 0.17, -5.18E-12
DataValue, 0.16, 6.5800000000000006E-12
DataValue, 0.15, -2.1500000000000003E-12
DataValue, 0.14, -3.5500000000000004E-12
DataValue, 0.13, 6.7700000000000004E-12
DataValue, 0.12, -2.6000000000000002E-12
DataValue, 0.11, -2.6100000000000004E-12
DataValue, 0.1, 6.1200000000000006E-12
DataValue, 0.09, -4.56E-12
DataValue, 0.08, -2.2200000000000002E-12
DataValue, 0.07, 6.7200000000000004E-12
DataValue, 0.06, -2.8300000000000003E-12
DataValue, 0.05, -2.39E-12
DataValue, 0.04, 5.53E-12
DataValue, 0.03, -4.6100000000000008E-12
DataValue, 0.02, -1.9200000000000003E-12
DataValue, 0.01, 6.5400000000000008E-12
DataValue, 0, -4.1000000000000007E-12
DataValue, -0.01, -2.0200000000000003E-12
DataValue, -0.02, 4.6900000000000004E-12
DataValue, -0.03, -7.0500000000000009E-12
DataValue, -0.04, -1.4900000000000001E-12
DataValue, -0.05, 3.4700000000000004E-12
DataValue, -0.06, -8.64E-12
DataValue, -0.07, -1.4300000000000002E-12
DataValue, -0.08, 1.2900000000000002E-12
DataValue, -0.09, -9.4200000000000015E-12
DataValue, -0.1, -1.23E-12
DataValue, -0.11, 4.2000000000000003E-13
DataValue, -0.12, -9.5000000000000011E-12
DataValue, -0.13, -1.5E-12
DataValue, -0.14, 3.95E-12
DataValue, -0.15, -5.8800000000000008E-12
DataValue, -0.16, -2.9E-12
DataValue, -0.17, 5.3200000000000008E-12
DataValue, -0.18, -2.9800000000000002E-12
DataValue, -0.19, -4.3000000000000007E-12
DataValue, -0.2, 5.53E-12
DataValue, -0.21, -1.9900000000000002E-12
DataValue, -0.22, -7.81E-12
DataValue, -0.23, 5.2E-13
DataValue, -0.24, -9.2000000000000012E-13
DataValue, -0.25, -1.076E-11
DataValue, -0.26, -2.6000000000000002E-12
DataValue, -0.27, -7.4000000000000008E-13
DataValue, -0.28, -1.0600000000000001E-11
DataValue, -0.29, -4.72E-12
DataValue, -0.3, 1.6100000000000002E-12
DataValue, -0.31, -7.61E-12
DataValue, -0.32, -9.23E-12
DataValue, -0.33, -1.0500000000000002E-12
DataValue, -0.34, -1.078E-11
DataValue, -0.35000000000000003, -1.866E-11
DataValue, -0.36, -1.4450000000000001E-11
DataValue, -0.37, -1.961E-11
DataValue, -0.38, -3.266E-11
DataValue, -0.39, -3.088E-11
DataValue, -0.4, -3.7120000000000003E-11
DataValue, -0.41000000000000003, -5.7130000000000007E-11
DataValue, -0.42, -6.3650000000000008E-11
DataValue, -0.43, -7.5370000000000007E-11
DataValue, -0.44, -1.1014000000000001E-10
DataValue, -0.45, -1.3103E-10
DataValue, -0.46, -1.5912000000000002E-10
DataValue, -0.47000000000000003, -2.1294000000000002E-10
DataValue, -0.48, -2.7003E-10
DataValue, -0.49, -3.3627E-10
DataValue, -0.5, -4.3216000000000004E-10
DataValue, -0.51, -5.5161E-10
DataValue, -0.52, -6.8344000000000007E-10
DataValue, -0.53, -8.6687E-10
DataValue, -0.54, -1.1246100000000001E-09
DataValue, -0.55, -1.4689E-09
DataValue, -0.56, -1.7389E-09
DataValue, -0.57000000000000006, -2.1774E-09
DataValue, -0.58, -2.7208E-09
DataValue, -0.59, -3.3721E-09
DataValue, -0.6, -4.2055E-09
DataValue, -0.61, -5.209E-09
DataValue, -0.62, -6.5861E-09
DataValue, -0.63, -7.886E-09
DataValue, -0.64, -9.604E-09
DataValue, -0.65, -1.2436799999999998E-08
DataValue, -0.66, -1.4842799999999998E-08
DataValue, -0.67, -1.7895999999999997E-08
DataValue, -0.68, -2.14244E-08
DataValue, -0.69000000000000006, -2.5403399999999998E-08
DataValue, -0.70000000000000007, -2.9997999999999995E-08
DataValue, -0.71, -3.50424E-08
DataValue, -0.72, -4.0925799999999994E-08
DataValue, -0.73, -4.7427999999999993E-08
DataValue, -0.74, -5.4619199999999992E-08
DataValue, -0.75, -6.23938E-08
DataValue, -0.76, -7.08658E-08
DataValue, -0.77, -7.9916999999999987E-08
DataValue, -0.78, -8.953E-08
DataValue, -0.79, -9.98076E-08
DataValue, -0.8, -1.1099099999999999E-07
DataValue, -0.81, -1.2248E-07
DataValue, -0.82000000000000006, -1.3438E-07
DataValue, -0.83000000000000007, -1.4658E-07
DataValue, -0.84, -1.5944E-07
DataValue, -0.85, -1.7284E-07
DataValue, -0.86, -1.8656E-07
DataValue, -0.87, -2.0036E-07
DataValue, -0.88, -2.145E-07
DataValue, -0.89, -2.2832E-07
DataValue, -0.9, -2.4409999999999997E-07
DataValue, -0.91, -2.5916E-07
DataValue, -0.92, -2.7424E-07
DataValue, -0.93, -2.8986E-07
DataValue, -0.94000000000000006, -3.0546E-07
DataValue, -0.95000000000000007, -3.2094E-07
DataValue, -0.96, -3.3686E-07
DataValue, -0.97, -3.531E-07
DataValue, -0.98, -3.6918E-07
DataValue, -0.99, -3.8546E-07
DataValue, -1, -4.0138E-07
DataValue, -1.01, -4.1795999999999997E-07
DataValue, -1.02, -4.3394E-07
DataValue, -1.03, -4.5045999999999997E-07
DataValue, -1.04, -4.671E-07
DataValue, -1.05, -4.8214E-07
DataValue, -1.06, -4.9974E-07
DataValue, -1.07, -5.1667999999999994E-07
DataValue, -1.08, -5.3338E-07
DataValue, -1.09, -5.5026E-07
DataValue, -1.1, -5.6662E-07
DataValue, -1.11, -5.8308E-07
DataValue, -1.12, -5.9987999999999994E-07
DataValue, -1.1300000000000001, -6.168E-07
DataValue, -1.1400000000000001, -6.3328E-07
DataValue, -1.1500000000000001, -6.4976E-07
DataValue, -1.16, -6.6652E-07
DataValue, -1.17, -6.8348E-07
DataValue, -1.18, -7.0002E-07
DataValue, -1.19, -7.1642E-07
DataValue, -1.2, -7.3346E-07
DataValue, -1.21, -7.4973999999999994E-07
DataValue, -1.22, -7.6592E-07
DataValue, -1.23, -7.8208E-07
DataValue, -1.24, -7.9926E-07
DataValue, -1.25, -8.1462E-07
DataValue, -1.26, -8.3236E-07
DataValue, -1.27, -8.4888E-07
DataValue, -1.28, -8.6571999999999995E-07
DataValue, -1.29, -8.8164E-07
DataValue, -1.3, -8.9791999999999993E-07
DataValue, -1.31, -9.1435999999999994E-07
DataValue, -1.32, -9.3128E-07
DataValue, -1.33, -9.47E-07
DataValue, -1.34, -9.6288E-07
DataValue, -1.35, -9.8008E-07
DataValue, -1.36, -9.9592E-07
DataValue, -1.37, -1.01176E-06
DataValue, -1.3800000000000001, -1.02816E-06
DataValue, -1.3900000000000001, -1.0447599999999999E-06
DataValue, -1.4000000000000001, -1.05962E-06
DataValue, -1.41, -1.07568E-06
DataValue, -1.42, -1.0926E-06
DataValue, -1.43, -1.10766E-06
DataValue, -1.44, -1.12396E-06
DataValue, -1.45, -1.1400999999999999E-06
DataValue, -1.46, -1.1585000000000002E-06
DataValue, -1.47, -1.1745000000000002E-06
DataValue, -1.48, -1.1895000000000002E-06
DataValue, -1.49, -1.2057000000000002E-06
DataValue, -1.5, -1.2213E-06
DataValue, -1.51, -1.2363000000000001E-06
DataValue, -1.52, -1.2521E-06
DataValue, -1.53, -1.2682000000000002E-06
DataValue, -1.54, -1.2832E-06
DataValue, -1.55, -1.2983000000000001E-06
DataValue, -1.56, -1.3139E-06
DataValue, -1.57, -1.3294000000000001E-06
DataValue, -1.58, -1.3431000000000001E-06
DataValue, -1.59, -1.3592E-06
DataValue, -1.6, -1.3743000000000001E-06
DataValue, -1.61, -1.3893000000000002E-06
DataValue, -1.62, -1.4041000000000002E-06
DataValue, -1.6300000000000001, -1.4192000000000001E-06
DataValue, -1.6400000000000001, -1.4342000000000002E-06
DataValue, -1.6500000000000001, -1.4482000000000002E-06
DataValue, -1.6600000000000001, -1.4628000000000002E-06
DataValue, -1.67, -1.4786000000000001E-06
DataValue, -1.68, -1.4929000000000001E-06
DataValue, -1.69, -1.5062E-06
DataValue, -1.7, -1.5217000000000002E-06
DataValue, -1.71, -1.5360000000000002E-06
DataValue, -1.72, -1.5499000000000002E-06
DataValue, -1.73, -1.5644000000000002E-06
DataValue, -1.74, -1.5789000000000003E-06
DataValue, -1.75, -1.5931000000000003E-06
DataValue, -1.76, -1.6056000000000001E-06
DataValue, -1.77, -1.6204000000000002E-06
DataValue, -1.78, -1.6354000000000003E-06
DataValue, -1.79, -1.6484000000000002E-06
DataValue, -1.8, -1.6624000000000002E-06
DataValue, -1.81, -1.6765000000000002E-06
DataValue, -1.82, -1.6906000000000002E-06
DataValue, -1.83, -1.7036E-06
DataValue, -1.84, -1.7170000000000003E-06
DataValue, -1.85, -1.7316E-06
DataValue, -1.86, -1.7450000000000002E-06
DataValue, -1.87, -1.7578000000000001E-06
DataValue, -1.8800000000000001, -1.7718000000000001E-06
DataValue, -1.8900000000000001, -1.7855E-06
DataValue, -1.9000000000000001, -1.7977000000000002E-06
DataValue, -1.9100000000000001, -1.8110000000000001E-06
DataValue, -1.92, -1.8255000000000001E-06
DataValue, -1.93, -1.8384000000000003E-06
DataValue, -1.94, -1.8510000000000002E-06
DataValue, -1.95, -1.8643E-06
DataValue, -1.96, -1.8778000000000003E-06
DataValue, -1.97, -1.8892000000000003E-06
DataValue, -1.98, -1.9030000000000003E-06
DataValue, -1.99, -1.9169000000000002E-06
DataValue, -2, -1.929E-06
DataValue, -2.0100000000000002, -1.9407000000000003E-06
DataValue, -2.02, -1.9547E-06
DataValue, -2.0300000000000002, -1.9672000000000004E-06
DataValue, -2.04, -1.9786E-06
DataValue, -2.05, -1.9926E-06
DataValue, -2.06, -2.0038E-06
DataValue, -2.07, -2.0165E-06
DataValue, -2.08, -2.0292000000000004E-06
DataValue, -2.09, -2.0404000000000004E-06
DataValue, -2.1, -2.0528E-06
DataValue, -2.11, -2.0664000000000002E-06
DataValue, -2.12, -2.0780000000000003E-06
DataValue, -2.13, -2.0901E-06
DataValue, -2.14, -2.1028E-06
DataValue, -2.15, -2.115E-06
DataValue, -2.16, -2.1249E-06
DataValue, -2.17, -2.1386E-06
DataValue, -2.18, -2.1503000000000004E-06
DataValue, -2.19, -2.1622000000000002E-06
DataValue, -2.2, -2.1749E-06
DataValue, -2.21, -2.1872000000000004E-06
DataValue, -2.22, -2.1979E-06
DataValue, -2.23, -2.2101000000000002E-06
DataValue, -2.24, -2.222E-06
DataValue, -2.25, -2.2331000000000003E-06
DataValue, -2.2600000000000002, -2.2436000000000004E-06
DataValue, -2.27, -2.2566E-06
DataValue, -2.2800000000000002, -2.2679000000000003E-06
DataValue, -2.29, -2.2795000000000004E-06
DataValue, -2.3000000000000003, -2.2912E-06
DataValue, -2.31, -2.3037E-06
DataValue, -2.32, -2.3144000000000002E-06
DataValue, -2.33, -2.325E-06
DataValue, -2.34, -2.3358E-06
DataValue, -2.35, -2.3487E-06
DataValue, -2.36, -2.3597E-06
DataValue, -2.37, -2.3693000000000003E-06
DataValue, -2.38, -2.3817000000000004E-06
DataValue, -2.39, -2.3930000000000002E-06
DataValue, -2.4, -2.4032E-06
DataValue, -2.41, -2.4142E-06
DataValue, -2.42, -2.4261000000000004E-06
DataValue, -2.43, -2.4367000000000003E-06
DataValue, -2.44, -2.4471000000000003E-06
DataValue, -2.45, -2.4581000000000002E-06
DataValue, -2.46, -2.4691000000000002E-06
DataValue, -2.47, -2.4796000000000004E-06
DataValue, -2.48, -2.4921000000000002E-06
DataValue, -2.49, -2.5026000000000004E-06
DataValue, -2.5, -2.5104E-06
DataValue, -2.5100000000000002, -2.5221000000000004E-06
DataValue, -2.52, -2.5336E-06
DataValue, -2.5300000000000002, -2.5434E-06
DataValue, -2.54, -2.5536000000000004E-06
DataValue, -2.5500000000000003, -2.5655000000000003E-06
DataValue, -2.56, -2.5748000000000003E-06
DataValue, -2.57, -2.5852000000000003E-06
DataValue, -2.58, -2.5962000000000002E-06
DataValue, -2.59, -2.6062E-06
DataValue, -2.6, -2.6160000000000004E-06
DataValue, -2.61, -2.6282E-06
DataValue, -2.62, -2.6368000000000003E-06
DataValue, -2.63, -2.6459000000000004E-06
DataValue, -2.64, -2.6581000000000004E-06
DataValue, -2.65, -2.6683000000000004E-06
DataValue, -2.66, -2.6772000000000004E-06
DataValue, -2.67, -2.6867000000000005E-06
DataValue, -2.68, -2.6979000000000005E-06
DataValue, -2.69, -2.7077000000000004E-06
DataValue, -2.7, -2.7167E-06
DataValue, -2.71, -2.7277E-06
DataValue, -2.72, -2.7387E-06
DataValue, -2.73, -2.7468E-06
DataValue, -2.74, -2.7578E-06
DataValue, -2.75, -2.7680000000000004E-06
DataValue, -2.7600000000000002, -2.7771000000000005E-06
DataValue, -2.77, -2.7861000000000003E-06
DataValue, -2.7800000000000002, -2.7972E-06
DataValue, -2.79, -2.8065E-06
DataValue, -2.8000000000000003, -2.8156E-06
DataValue, -2.81, -2.8246000000000005E-06
DataValue, -2.82, -2.8351E-06
DataValue, -2.83, -2.8440000000000002E-06
DataValue, -2.84, -2.8521E-06
DataValue, -2.85, -2.8636000000000004E-06
DataValue, -2.86, -2.8736000000000003E-06
DataValue, -2.87, -2.8812000000000005E-06
DataValue, -2.88, -2.8909E-06
DataValue, -2.89, -2.9006000000000002E-06
DataValue, -2.9, -2.9106E-06
DataValue, -2.91, -2.9186000000000003E-06
DataValue, -2.92, -2.9284E-06
DataValue, -2.93, -2.9386E-06
DataValue, -2.94, -2.9461000000000005E-06
DataValue, -2.95, -2.9552E-06
DataValue, -2.96, -2.9664E-06
DataValue, -2.97, -2.9743000000000005E-06
DataValue, -2.98, -2.9818000000000004E-06
DataValue, -2.99, -2.9932000000000004E-06
DataValue, -3, -3.0031E-06
DataValue, -3.0100000000000002, -3.0097E-06
DataValue, -3.02, -3.0181000000000004E-06
DataValue, -3.0300000000000002, -3.0289000000000003E-06
DataValue, -3.04, -3.0382000000000004E-06
DataValue, -3.0500000000000003, -3.0457000000000003E-06
DataValue, -3.06, -3.0550000000000004E-06
DataValue, -3.0700000000000003, -3.0658000000000004E-06
DataValue, -3.08, -3.0731000000000003E-06
DataValue, -3.09, -3.0823E-06
