
SetupTitle, NMOS-id-vd-vgs@vbs=-3.3
PrimitiveTest, I/V Sweep
TestParameter, Context.MainFrame, B1500A
TestParameter, Channel.UnitType, SMU, SMU, SMU, SMU
TestParameter, Channel.Unit, SMU2:HR, SMU1:HR, SMU3:HR, SMU4:HR
TestParameter, Channel.IName, ib, is, ig, id
TestParameter, Channel.VName, vb, vs, vg, vd
TestParameter, Channel.Mode, V, COMMON, V, V
TestParameter, Channel.Func, CONST, CONST, VAR2, VAR1
TestParameter, Channel.Index, 
TestParameter, Channel.Time, 
TestParameter, Measurement.Port.Unit, SMU2:HR, SMU1:HR, SMU3:HR, SMU4:HR
TestParameter, Measurement.Port.SeriesResistor, NONE, NONE, NONE, NONE
TestParameter, Measurement.Port.Filter, ON, ON, ON, ON
TestParameter, Measurement.Port.OutputVoltageComparison, 0, 0, 0, 0
TestParameter, Measurement.Primary.Locus, Single
TestParameter, Measurement.Primary.Scale, LINEAR
TestParameter, Measurement.Primary.Start, 0
TestParameter, Measurement.Primary.Stop, 3.3000000000000003
TestParameter, Measurement.Primary.Step, 0.01
TestParameter, Measurement.Primary.Compliance, 0.1
TestParameter, Measurement.Primary.PowerCompliance, 0
TestParameter, Measurement.Aborting.Condition, SKIP AT ANY ABNORMAL
TestParameter, Measurement.PostOutput.Value, START
TestParameter, Measurement.PostOutput.Retention, OFF
TestParameter, Measurement.Secondary.Start, 0.3
TestParameter, Measurement.Secondary.Count, 6
TestParameter, Measurement.Secondary.Step, 0.6
TestParameter, Measurement.Secondary.Compliance, 0.1
TestParameter, Measurement.Secondary.PowerCompliance, 0
TestParameter, Measurement.Bias.Source, -3.3000000000000003, 0, 0.3, 0
TestParameter, Measurement.Bias.Compliance, 0.1, 0.1, 0.1, 0.1
TestParameter, Measurement.Monitor.Unit, SMU2:HR, SMU1:HR, SMU3:HR, SMU4:HR
TestParameter, Measurement.Monitor.Adc, HR ADC, HR ADC, HR ADC, HR ADC
TestParameter, Measurement.Monitor.Measurement, Compliance Side, Compliance Side, Compliance Side, Compliance Side
TestParameter, Measurement.Monitor.RangingMode, LIMITED, LIMITED, LIMITED, LIMITED
TestParameter, Measurement.Monitor.RangeBoundary, 1nA, 1nA, 1nA, 1nA
TestParameter, Measurement.Monitor.RangeRating, BY FULL RANGE, BY FULL RANGE, BY FULL RANGE, BY FULL RANGE
TestParameter, Measurement.Monitor.RangeRatingCoeff, 50, 50, 50, 50
TestParameter, Measurement.Timing.Hold, 0
TestParameter, Measurement.Timing.Delay, 0
TestParameter, Measurement.Adc.HighSpeed.Mode, AUTO
TestParameter, Measurement.Adc.HighSpeed.Coeff, 1
TestParameter, Measurement.Adc.HighResolution.AutoZero, OFF
TestParameter, Measurement.Adc.HighResolution.Mode, AUTO
TestParameter, Measurement.Adc.HighResolution.Coeff, 6
TestParameter, Measurement.WaitTime.Source.Coeff, 1
TestParameter, Measurement.WaitTime.Source.Offset, 0
TestParameter, Measurement.WaitTime.Monitor.Coeff, 1
TestParameter, Measurement.WaitTime.Monitor.Offset, 0
TestParameter, Output.Graph.Enabled, true
TestParameter, Output.Graph.AutoScaling, false
TestParameter, Output.Graph.XAxis.Data, vd
TestParameter, Output.Graph.XAxis.Scale, Linear
TestParameter, Output.Graph.XAxis.Left, 0
TestParameter, Output.Graph.XAxis.Right, 1
TestParameter, Output.Graph.XAxis.RunTimeAutoScale, true
TestParameter, Output.Graph.YAxis.Data, id
TestParameter, Output.Graph.YAxis.Scale, Linear
TestParameter, Output.Graph.YAxis.Bottom, -0.1
TestParameter, Output.Graph.YAxis.Top, 0.1
TestParameter, Output.Graph.YAxis.Group, 
TestParameter, Output.Graph.YAxis.RunTimeAutoScale, true
TestParameter, AutoAnalysis.Interpolation, false
TestParameter, AutoAnalysis.Var2StepCount, 1
TestParameter, AutoAnalysis.Var2StepScript, 
TestParameter, AutoAnalysis.Line1.Enabled, false
TestParameter, AutoAnalysis.Line1.Type, 1
TestParameter, AutoAnalysis.Line1.Fix, True
TestParameter, AutoAnalysis.Line1.YAxis, 0
TestParameter, AutoAnalysis.Line1.Point1.Type, 0
TestParameter, AutoAnalysis.Line1.Point1.XY.X, 
TestParameter, AutoAnalysis.Line1.Point1.XY.Y, 
TestParameter, AutoAnalysis.Line1.Point1.Data.Var, 
TestParameter, AutoAnalysis.Line1.Point1.Data.Condition, 
TestParameter, AutoAnalysis.Line1.Point1.Data.Start, false
TestParameter, AutoAnalysis.Line1.Point1.Data.StartVar, 
TestParameter, AutoAnalysis.Line1.Point1.Data.StartCondition, 
TestParameter, AutoAnalysis.Line1.Point2.Type, 0
TestParameter, AutoAnalysis.Line1.Point2.XY.X, 
TestParameter, AutoAnalysis.Line1.Point2.XY.Y, 
TestParameter, AutoAnalysis.Line1.Point2.Data.Var, 
TestParameter, AutoAnalysis.Line1.Point2.Data.Condition, 
TestParameter, AutoAnalysis.Line1.Point2.Data.Start, false
TestParameter, AutoAnalysis.Line1.Point2.Data.StartVar, 
TestParameter, AutoAnalysis.Line1.Point2.Data.StartCondition, 
TestParameter, AutoAnalysis.Line1.GradientExpr, 0
TestParameter, AutoAnalysis.Line2.Enabled, false
TestParameter, AutoAnalysis.Line2.Type, 1
TestParameter, AutoAnalysis.Line2.Fix, True
TestParameter, AutoAnalysis.Line2.YAxis, 0
TestParameter, AutoAnalysis.Line2.Point1.Type, 0
TestParameter, AutoAnalysis.Line2.Point1.XY.X, 
TestParameter, AutoAnalysis.Line2.Point1.XY.Y, 
TestParameter, AutoAnalysis.Line2.Point1.Data.Var, 
TestParameter, AutoAnalysis.Line2.Point1.Data.Condition, 
TestParameter, AutoAnalysis.Line2.Point1.Data.Start, false
TestParameter, AutoAnalysis.Line2.Point1.Data.StartVar, 
TestParameter, AutoAnalysis.Line2.Point1.Data.StartCondition, 
TestParameter, AutoAnalysis.Line2.Point2.Type, 0
TestParameter, AutoAnalysis.Line2.Point2.XY.X, 
TestParameter, AutoAnalysis.Line2.Point2.XY.Y, 
TestParameter, AutoAnalysis.Line2.Point2.Data.Var, 
TestParameter, AutoAnalysis.Line2.Point2.Data.Condition, 
TestParameter, AutoAnalysis.Line2.Point2.Data.Start, false
TestParameter, AutoAnalysis.Line2.Point2.Data.StartVar, 
TestParameter, AutoAnalysis.Line2.Point2.Data.StartCondition, 
TestParameter, AutoAnalysis.Line2.GradientExpr, 0
TestParameter, AutoAnalysis.Marker.Enabled, false
TestParameter, AutoAnalysis.Marker.Data.Var, 
TestParameter, AutoAnalysis.Marker.Data.Condition, 
TestParameter, AutoAnalysis.Marker.Data.Start, false
TestParameter, AutoAnalysis.Marker.Data.StartVar, 
TestParameter, AutoAnalysis.Marker.Data.StartCondition, 
MetaData, TestRecord.EntryPoint, true
MetaData, TestRecord.RecordTime, 01/16/2024 15:25:17
MetaData, TestRecord.TestTarget, N-1-0.35-298K
MetaData, TestRecord.IterationIndex, 3
MetaData, TestRecord.Preservation, true
MetaData, TestRecord.Flag, 
MetaData, TestRecord.Remarks, 
MetaData, TestRecord.LinkKey, 2fb5aff7-8720-4501-b9c6-867f01b58719
MetaData, TestRecord.Parameters, 
Dimension1, 331, 331
Dimension2, 6, 6
DataName, vd, id
DataValue, 0, 6.2800000000000007E-12
DataValue, 0.01, 8.3700000000000009E-12
DataValue, 0.02, 7.34E-12
DataValue, 0.03, 7.9900000000000013E-12
DataValue, 0.04, 7.7E-12
DataValue, 0.05, 7.93E-12
DataValue, 0.06, 7.72E-12
DataValue, 0.07, 7.5600000000000009E-12
DataValue, 0.08, 7.72E-12
DataValue, 0.09, 6.8900000000000007E-12
DataValue, 0.1, 8.7000000000000013E-12
DataValue, 0.11, 6.4700000000000005E-12
DataValue, 0.12, 9.36E-12
DataValue, 0.13, 5.5E-12
DataValue, 0.14, 1.049E-11
DataValue, 0.15, 3.86E-12
DataValue, 0.16, 1.2220000000000001E-11
DataValue, 0.17, 2.0500000000000004E-12
DataValue, 0.18, 1.3980000000000001E-11
DataValue, 0.19, 9.3E-13
DataValue, 0.2, 1.4560000000000003E-11
DataValue, 0.21, -1.7E-13
DataValue, 0.22, 1.6E-11
DataValue, 0.23, -2.7E-13
DataValue, 0.24, 1.5520000000000002E-11
DataValue, 0.25, -1.7E-13
DataValue, 0.26, 1.5120000000000002E-11
DataValue, 0.27, 8E-13
DataValue, 0.28, 1.312E-11
DataValue, 0.29, 3.3100000000000002E-12
DataValue, 0.3, 1.1020000000000001E-11
DataValue, 0.31, 5.4500000000000004E-12
DataValue, 0.32, 9.17E-12
DataValue, 0.33, 7.11E-12
DataValue, 0.34, 8.52E-12
DataValue, 0.35000000000000003, 7.26E-12
DataValue, 0.36, 8.070000000000001E-12
DataValue, 0.37, 7.5800000000000012E-12
DataValue, 0.38, 8.34E-12
DataValue, 0.39, 7.870000000000001E-12
DataValue, 0.4, 7.85E-12
DataValue, 0.41000000000000003, 8.0900000000000013E-12
DataValue, 0.42, 7.2800000000000013E-12
DataValue, 0.43, 8.42E-12
DataValue, 0.44, 7.34E-12
DataValue, 0.45, 8.97E-12
DataValue, 0.46, 7.0500000000000009E-12
DataValue, 0.47000000000000003, 8.4000000000000014E-12
DataValue, 0.48, 8.15E-12
DataValue, 0.49, 8.26E-12
DataValue, 0.5, 7.75E-12
DataValue, 0.51, 8.680000000000001E-12
DataValue, 0.52, 6.8900000000000007E-12
DataValue, 0.53, 9.6000000000000011E-12
DataValue, 0.54, 6.4400000000000008E-12
DataValue, 0.55, 1.056E-11
DataValue, 0.56, 4.79E-12
DataValue, 0.57000000000000006, 1.1430000000000001E-11
DataValue, 0.58, 3.7E-12
DataValue, 0.59, 1.333E-11
DataValue, 0.6, 2.13E-12
DataValue, 0.61, 1.457E-11
DataValue, 0.62, 8.2E-13
DataValue, 0.63, 1.5450000000000002E-11
DataValue, 0.64, 1.0000000000000002E-14
DataValue, 0.65, 1.621E-11
DataValue, 0.66, -1.9000000000000002E-13
DataValue, 0.67, 1.6140000000000002E-11
DataValue, 0.68, -1E-13
DataValue, 0.69000000000000006, 1.5070000000000003E-11
DataValue, 0.70000000000000007, 2.0500000000000004E-12
DataValue, 0.71, 1.2580000000000002E-11
DataValue, 0.72, 4.56E-12
DataValue, 0.73, 1.067E-11
DataValue, 0.74, 6.6300000000000006E-12
DataValue, 0.75, 9.12E-12
DataValue, 0.76, 7.54E-12
DataValue, 0.77, 8.62E-12
DataValue, 0.78, 8.3900000000000012E-12
DataValue, 0.79, 8.53E-12
DataValue, 0.8, 8.21E-12
DataValue, 0.81, 8.64E-12
DataValue, 0.82000000000000006, 8.92E-12
DataValue, 0.83000000000000007, 8.1000000000000014E-12
DataValue, 0.84, 9.4200000000000015E-12
DataValue, 0.85, 7.4E-12
DataValue, 0.86, 9.3100000000000013E-12
DataValue, 0.87, 8.5700000000000008E-12
DataValue, 0.88, 8.82E-12
DataValue, 0.89, 8.02E-12
DataValue, 0.9, 8.42E-12
DataValue, 0.91, 8.06E-12
DataValue, 0.92, 9.23E-12
DataValue, 0.93, 7.5E-12
DataValue, 0.94000000000000006, 9.9100000000000012E-12
DataValue, 0.95000000000000007, 6.6200000000000005E-12
DataValue, 0.96, 1.0630000000000001E-11
DataValue, 0.97, 5.1100000000000006E-12
DataValue, 0.98, 1.218E-11
DataValue, 0.99, 3.53E-12
DataValue, 1, 1.0300000000000001E-11
DataValue, 1.01, 5.84E-12
DataValue, 1.02, 1.14E-11
DataValue, 1.03, 4.72E-12
DataValue, 1.04, 1.3150000000000001E-11
DataValue, 1.05, 2.8900000000000004E-12
DataValue, 1.06, 1.486E-11
DataValue, 1.07, 1.4800000000000002E-12
DataValue, 1.08, 1.604E-11
DataValue, 1.09, 6.6E-13
DataValue, 1.1, 1.4760000000000003E-11
DataValue, 1.11, 1.6200000000000002E-12
DataValue, 1.12, 1.641E-11
DataValue, 1.1300000000000001, 5.6E-13
DataValue, 1.1400000000000001, 1.6760000000000002E-11
DataValue, 1.1500000000000001, 7E-13
DataValue, 1.16, 1.7180000000000002E-11
DataValue, 1.17, 6.3E-13
DataValue, 1.18, 1.5980000000000003E-11
DataValue, 1.19, 2.11E-12
DataValue, 1.2, 1.403E-11
DataValue, 1.21, 4.4500000000000006E-12
DataValue, 1.22, 1.2340000000000001E-11
DataValue, 1.23, 7.1300000000000005E-12
DataValue, 1.24, 9.8200000000000014E-12
DataValue, 1.25, 8.55E-12
DataValue, 1.26, 9.26E-12
DataValue, 1.27, 9.1800000000000009E-12
DataValue, 1.28, 9.05E-12
DataValue, 1.29, 8.11E-12
DataValue, 1.3, 9.44E-12
DataValue, 1.31, 8.7100000000000015E-12
DataValue, 1.32, 9.0000000000000012E-12
DataValue, 1.33, 8.84E-12
DataValue, 1.34, 9.1000000000000012E-12
DataValue, 1.35, 9.06E-12
DataValue, 1.36, 9.07E-12
DataValue, 1.37, 9.33E-12
DataValue, 1.3800000000000001, 8.7100000000000015E-12
DataValue, 1.3900000000000001, 9.76E-12
DataValue, 1.4000000000000001, 8.01E-12
DataValue, 1.41, 1.0230000000000001E-11
DataValue, 1.42, 7.0800000000000005E-12
DataValue, 1.43, 1.1430000000000001E-11
DataValue, 1.44, 6.4800000000000007E-12
DataValue, 1.45, 1.28E-11
DataValue, 1.46, 4.67E-12
DataValue, 1.47, 1.413E-11
DataValue, 1.48, 3.2700000000000004E-12
DataValue, 1.49, 1.601E-11
DataValue, 1.5, 1.9200000000000003E-12
DataValue, 1.51, 1.7380000000000002E-11
DataValue, 1.52, 1.4800000000000002E-12
DataValue, 1.53, 1.726E-11
DataValue, 1.54, 8.1000000000000008E-13
DataValue, 1.55, 1.757E-11
DataValue, 1.56, 1.1900000000000002E-12
DataValue, 1.57, 1.692E-11
DataValue, 1.58, 3.46E-12
DataValue, 1.59, 1.351E-11
DataValue, 1.6, 6.2300000000000007E-12
DataValue, 1.61, 1.1660000000000002E-11
DataValue, 1.62, 8.36E-12
DataValue, 1.6300000000000001, 1.017E-11
DataValue, 1.6400000000000001, 9.5100000000000013E-12
DataValue, 1.6500000000000001, 9.8200000000000014E-12
DataValue, 1.6600000000000001, 9.55E-12
DataValue, 1.67, 9.57E-12
DataValue, 1.68, 9.85E-12
DataValue, 1.69, 9.56E-12
DataValue, 1.7, 1.025E-11
DataValue, 1.71, 9.05E-12
DataValue, 1.72, 1.0920000000000001E-11
DataValue, 1.73, 8.06E-12
DataValue, 1.74, 1.219E-11
DataValue, 1.75, 6.6300000000000006E-12
DataValue, 1.76, 1.3290000000000002E-11
DataValue, 1.77, 5.1000000000000005E-12
DataValue, 1.78, 1.511E-11
DataValue, 1.79, 3.5900000000000003E-12
DataValue, 1.8, 1.652E-11
DataValue, 1.81, 2.3200000000000002E-12
DataValue, 1.82, 1.7340000000000002E-11
DataValue, 1.83, 1.59E-12
DataValue, 1.84, 1.815E-11
DataValue, 1.85, 1.6E-12
DataValue, 1.86, 1.792E-11
DataValue, 1.87, 1.8900000000000002E-12
DataValue, 1.8800000000000001, 1.7250000000000002E-11
DataValue, 1.8900000000000001, 3.46E-12
DataValue, 1.9000000000000001, 1.5360000000000002E-11
DataValue, 1.9100000000000001, 5.7E-12
DataValue, 1.92, 1.331E-11
DataValue, 1.93, 8.01E-12
DataValue, 1.94, 1.1650000000000002E-11
DataValue, 1.95, 9.74E-12
DataValue, 1.96, 1.0330000000000001E-11
DataValue, 1.97, 1.004E-11
DataValue, 1.98, 1.068E-11
DataValue, 1.99, 1.0090000000000001E-11
DataValue, 2, 1.0030000000000002E-11
DataValue, 2.0100000000000002, 1.065E-11
DataValue, 2.02, 1.029E-11
DataValue, 2.0300000000000002, 1.0710000000000001E-11
DataValue, 2.04, 1.0200000000000001E-11
DataValue, 2.05, 1.1220000000000001E-11
DataValue, 2.06, 8.8100000000000014E-12
DataValue, 2.07, 1.221E-11
DataValue, 2.08, 8.13E-12
DataValue, 2.09, 1.3380000000000002E-11
DataValue, 2.1, 6.65E-12
DataValue, 2.11, 1.5270000000000003E-11
DataValue, 2.12, 4.93E-12
DataValue, 2.13, 1.6760000000000002E-11
DataValue, 2.14, 2.9900000000000004E-12
DataValue, 2.15, 1.712E-11
DataValue, 2.16, 2.8400000000000004E-12
DataValue, 2.17, 1.808E-11
DataValue, 2.18, 2.3000000000000003E-12
DataValue, 2.19, 1.879E-11
DataValue, 2.2, 2.39E-12
DataValue, 2.21, 1.8800000000000002E-11
DataValue, 2.22, 2.95E-12
DataValue, 2.23, 1.7310000000000003E-11
DataValue, 2.24, 4.8600000000000007E-12
DataValue, 2.25, 1.464E-11
DataValue, 2.2600000000000002, 7.9600000000000008E-12
DataValue, 2.27, 1.26E-11
DataValue, 2.2800000000000002, 9.8000000000000011E-12
DataValue, 2.29, 1.1630000000000001E-11
DataValue, 2.3000000000000003, 1.075E-11
DataValue, 2.31, 1.1210000000000001E-11
DataValue, 2.32, 1.098E-11
DataValue, 2.33, 1.1360000000000002E-11
DataValue, 2.34, 1.1240000000000001E-11
DataValue, 2.35, 1.0730000000000001E-11
DataValue, 2.36, 1.1430000000000001E-11
DataValue, 2.37, 1.0340000000000002E-11
DataValue, 2.38, 1.262E-11
DataValue, 2.39, 9.63E-12
DataValue, 2.4, 1.3370000000000001E-11
DataValue, 2.41, 9.5200000000000014E-12
DataValue, 2.42, 1.331E-11
DataValue, 2.43, 8.1700000000000009E-12
DataValue, 2.44, 1.46E-11
DataValue, 2.45, 6.9000000000000009E-12
DataValue, 2.46, 1.571E-11
DataValue, 2.47, 5.65E-12
DataValue, 2.48, 1.3770000000000001E-11
DataValue, 2.49, 8.24E-12
DataValue, 2.5, 1.529E-11
DataValue, 2.5100000000000002, 6.7400000000000008E-12
DataValue, 2.52, 1.677E-11
DataValue, 2.5300000000000002, 5.0100000000000007E-12
DataValue, 2.54, 1.814E-11
DataValue, 2.5500000000000003, 3.92E-12
DataValue, 2.56, 1.923E-11
DataValue, 2.57, 3.23E-12
DataValue, 2.58, 1.937E-11
DataValue, 2.59, 3.51E-12
DataValue, 2.6, 1.945E-11
DataValue, 2.61, 3.76E-12
DataValue, 2.62, 1.9780000000000002E-11
DataValue, 2.63, 4.31E-12
DataValue, 2.64, 1.874E-11
DataValue, 2.65, 3.5900000000000003E-12
DataValue, 2.66, 1.967E-11
DataValue, 2.67, 3.33E-12
DataValue, 2.68, 1.9580000000000002E-11
DataValue, 2.69, 3.53E-12
DataValue, 2.7, 1.992E-11
DataValue, 2.71, 3.7900000000000006E-12
DataValue, 2.72, 1.9910000000000002E-11
DataValue, 2.73, 4.8000000000000005E-12
DataValue, 2.74, 1.8400000000000002E-11
DataValue, 2.75, 6.4300000000000007E-12
DataValue, 2.7600000000000002, 1.612E-11
DataValue, 2.77, 8.87E-12
DataValue, 2.7800000000000002, 1.4490000000000002E-11
DataValue, 2.79, 1.109E-11
DataValue, 2.8000000000000003, 1.313E-11
DataValue, 2.81, 1.21E-11
DataValue, 2.82, 1.2730000000000001E-11
DataValue, 2.83, 1.2630000000000001E-11
DataValue, 2.84, 1.262E-11
DataValue, 2.85, 1.2270000000000002E-11
DataValue, 2.86, 1.2270000000000002E-11
DataValue, 2.87, 1.2540000000000001E-11
DataValue, 2.88, 1.221E-11
DataValue, 2.89, 1.323E-11
DataValue, 2.9, 1.075E-11
DataValue, 2.91, 1.4080000000000001E-11
DataValue, 2.92, 9.8900000000000009E-12
DataValue, 2.93, 1.5340000000000002E-11
DataValue, 2.94, 8.680000000000001E-12
DataValue, 2.95, 1.693E-11
DataValue, 2.96, 6.8300000000000006E-12
DataValue, 2.97, 1.875E-11
DataValue, 2.98, 5.2600000000000006E-12
DataValue, 2.99, 1.994E-11
DataValue, 3, 4.9600000000000007E-12
DataValue, 3.0100000000000002, 2.036E-11
DataValue, 3.02, 4.7500000000000006E-12
DataValue, 3.0300000000000002, 1.97E-11
DataValue, 3.04, 5.2500000000000004E-12
DataValue, 3.0500000000000003, 2.052E-11
DataValue, 3.06, 4.84E-12
DataValue, 3.0700000000000003, 2.063E-11
DataValue, 3.08, 5.09E-12
DataValue, 3.09, 2.1260000000000003E-11
DataValue, 3.1, 4.63E-12
DataValue, 3.11, 2.065E-11
DataValue, 3.12, 4.43E-12
DataValue, 3.13, 2.136E-11
DataValue, 3.14, 4.56E-12
DataValue, 3.15, 2.092E-11
DataValue, 3.16, 5.1200000000000008E-12
DataValue, 3.17, 2.1080000000000003E-11
DataValue, 3.18, 5.43E-12
DataValue, 3.19, 2.0330000000000002E-11
DataValue, 3.2, 6.8400000000000007E-12
DataValue, 3.21, 1.8600000000000002E-11
DataValue, 3.22, 5.34E-12
DataValue, 3.23, 2.0020000000000002E-11
DataValue, 3.24, 6.92E-12
DataValue, 3.25, 1.841E-11
DataValue, 3.2600000000000002, 1.007E-11
DataValue, 3.27, 1.611E-11
DataValue, 3.2800000000000002, 1.211E-11
DataValue, 3.29, 1.454E-11
DataValue, 3.3000000000000003, 1.3090000000000002E-11
DataValue, 0, 7.63E-12
DataValue, 0.01, 7.27E-12
DataValue, 0.02, 7.5700000000000011E-12
DataValue, 0.03, 7.4700000000000011E-12
DataValue, 0.04, 6.91E-12
DataValue, 0.05, 8.16E-12
DataValue, 0.06, 6.2200000000000006E-12
DataValue, 0.07, 9.0800000000000009E-12
DataValue, 0.08, 5.33E-12
DataValue, 0.09, 9.86E-12
DataValue, 0.1, 4E-12
DataValue, 0.11, 1.171E-11
DataValue, 0.12, 2.2200000000000002E-12
DataValue, 0.13, 1.3350000000000001E-11
DataValue, 0.14, 1.1000000000000002E-12
DataValue, 0.15, 1.458E-11
DataValue, 0.16, 2.5000000000000003E-12
DataValue, 0.17, 1.352E-11
DataValue, 0.18, 9.000000000000001E-13
DataValue, 0.19, 1.4360000000000001E-11
DataValue, 0.2, -1.5000000000000002E-13
DataValue, 0.21, 1.571E-11
DataValue, 0.22, 1.2900000000000002E-12
DataValue, 0.23, 1.414E-11
DataValue, 0.24, 2E-13
DataValue, 0.25, 1.5160000000000002E-11
DataValue, 0.26, -2.7E-13
DataValue, 0.27, 1.5650000000000002E-11
DataValue, 0.28, -5E-13
DataValue, 0.29, 1.555E-11
DataValue, 0.3, -1.0000000000000002E-14
DataValue, 0.31, 1.511E-11
DataValue, 0.32, 1.6800000000000001E-12
DataValue, 0.33, 1.3080000000000002E-11
DataValue, 0.34, 3.9300000000000004E-12
DataValue, 0.35000000000000003, 1.028E-11
DataValue, 0.36, 5.9800000000000008E-12
DataValue, 0.37, 8.93E-12
DataValue, 0.38, 7.54E-12
DataValue, 0.39, 8.23E-12
DataValue, 0.4, 6.1300000000000007E-12
DataValue, 0.41000000000000003, 8.9900000000000011E-12
DataValue, 0.42, 7.5E-12
DataValue, 0.43, 8.43E-12
DataValue, 0.44, 7.94E-12
DataValue, 0.45, 8.12E-12
DataValue, 0.46, 8.02E-12
DataValue, 0.47000000000000003, 8.34E-12
DataValue, 0.48, 8.22E-12
DataValue, 0.49, 7.82E-12
DataValue, 0.5, 8.66E-12
DataValue, 0.51, 7.0300000000000005E-12
DataValue, 0.52, 9.43E-12
DataValue, 0.53, 6.14E-12
DataValue, 0.54, 1.0850000000000002E-11
DataValue, 0.55, 4.7500000000000006E-12
DataValue, 0.56, 1.281E-11
DataValue, 0.57000000000000006, 2.59E-12
DataValue, 0.58, 1.3970000000000001E-11
DataValue, 0.59, 1.36E-12
DataValue, 0.6, 1.544E-11
DataValue, 0.61, -1.2000000000000002E-13
DataValue, 0.62, 1.63E-11
DataValue, 0.63, -1.8000000000000002E-13
DataValue, 0.64, 1.6580000000000002E-11
DataValue, 0.65, -8.0000000000000013E-14
