
SetupTitle, NMOS-isub-vg-vds@vbs=0
PrimitiveTest, I/V Sweep
TestParameter, Context.MainFrame, B1500A
TestParameter, Channel.UnitType, SMU, SMU, SMU, SMU
TestParameter, Channel.Unit, SMU2:HR, SMU1:HR, SMU3:HR, SMU4:HR
TestParameter, Channel.IName, ib, is, ig, id
TestParameter, Channel.VName, vb, vs, vg, vd
TestParameter, Channel.Mode, V, COMMON, V, V
TestParameter, Channel.Func, CONST, CONST, VAR1, VAR2
TestParameter, Channel.Index, 
TestParameter, Channel.Time, 
TestParameter, Measurement.Port.Unit, SMU2:HR, SMU1:HR, SMU3:HR, SMU4:HR
TestParameter, Measurement.Port.SeriesResistor, NONE, NONE, NONE, NONE
TestParameter, Measurement.Port.Filter, ON, ON, ON, ON
TestParameter, Measurement.Port.OutputVoltageComparison, 0, 0, 0, 0
TestParameter, Measurement.Primary.Locus, Single
TestParameter, Measurement.Primary.Scale, LINEAR
TestParameter, Measurement.Primary.Start, 0
TestParameter, Measurement.Primary.Stop, 3.3000000000000003
TestParameter, Measurement.Primary.Step, 0.01
TestParameter, Measurement.Primary.Compliance, 0.001
TestParameter, Measurement.Primary.PowerCompliance, 0
TestParameter, Measurement.Aborting.Condition, SKIP AT ANY ABNORMAL
TestParameter, Measurement.PostOutput.Value, START
TestParameter, Measurement.PostOutput.Retention, OFF
TestParameter, Measurement.Secondary.Start, 0.3
TestParameter, Measurement.Secondary.Count, 6
TestParameter, Measurement.Secondary.Step, 0.6
TestParameter, Measurement.Secondary.Compliance, 0.1
TestParameter, Measurement.Secondary.PowerCompliance, 0
TestParameter, Measurement.Bias.Source, 0, 0, 0, 0.3
TestParameter, Measurement.Bias.Compliance, 0.1, 0.1, 0.001, 0.1
TestParameter, Measurement.Monitor.Unit, SMU2:HR, SMU1:HR, SMU3:HR, SMU4:HR
TestParameter, Measurement.Monitor.Adc, HR ADC, HR ADC, HR ADC, HR ADC
TestParameter, Measurement.Monitor.Measurement, Compliance Side, Compliance Side, Compliance Side, Compliance Side
TestParameter, Measurement.Monitor.RangingMode, LIMITED, LIMITED, LIMITED, LIMITED
TestParameter, Measurement.Monitor.RangeBoundary, 1nA, 1nA, 1nA, 1nA
TestParameter, Measurement.Monitor.RangeRating, BY FULL RANGE, BY FULL RANGE, BY FULL RANGE, BY FULL RANGE
TestParameter, Measurement.Monitor.RangeRatingCoeff, 50, 50, 50, 50
TestParameter, Measurement.Timing.Hold, 0
TestParameter, Measurement.Timing.Delay, 0
TestParameter, Measurement.Adc.HighSpeed.Mode, AUTO
TestParameter, Measurement.Adc.HighSpeed.Coeff, 1
TestParameter, Measurement.Adc.HighResolution.AutoZero, OFF
TestParameter, Measurement.Adc.HighResolution.Mode, AUTO
TestParameter, Measurement.Adc.HighResolution.Coeff, 6
TestParameter, Measurement.WaitTime.Source.Coeff, 1
TestParameter, Measurement.WaitTime.Source.Offset, 0
TestParameter, Measurement.WaitTime.Monitor.Coeff, 1
TestParameter, Measurement.WaitTime.Monitor.Offset, 0
TestParameter, Output.Graph.Enabled, true
TestParameter, Output.Graph.AutoScaling, false
TestParameter, Output.Graph.XAxis.Data, vg
TestParameter, Output.Graph.XAxis.Scale, Linear
TestParameter, Output.Graph.XAxis.Left, 0
TestParameter, Output.Graph.XAxis.Right, 0.9
TestParameter, Output.Graph.XAxis.RunTimeAutoScale, true
TestParameter, Output.Graph.YAxis.Data, ib
TestParameter, Output.Graph.YAxis.Scale, Linear
TestParameter, Output.Graph.YAxis.Bottom, -0.1
TestParameter, Output.Graph.YAxis.Top, 0.1
TestParameter, Output.Graph.YAxis.Group, 
TestParameter, Output.Graph.YAxis.RunTimeAutoScale, true
TestParameter, AutoAnalysis.Interpolation, false
TestParameter, AutoAnalysis.Var2StepCount, 1
TestParameter, AutoAnalysis.Var2StepScript, 
TestParameter, AutoAnalysis.Line1.Enabled, false
TestParameter, AutoAnalysis.Line1.Type, 1
TestParameter, AutoAnalysis.Line1.Fix, True
TestParameter, AutoAnalysis.Line1.YAxis, 0
TestParameter, AutoAnalysis.Line1.Point1.Type, 0
TestParameter, AutoAnalysis.Line1.Point1.XY.X, 
TestParameter, AutoAnalysis.Line1.Point1.XY.Y, 
TestParameter, AutoAnalysis.Line1.Point1.Data.Var, 
TestParameter, AutoAnalysis.Line1.Point1.Data.Condition, 
TestParameter, AutoAnalysis.Line1.Point1.Data.Start, false
TestParameter, AutoAnalysis.Line1.Point1.Data.StartVar, 
TestParameter, AutoAnalysis.Line1.Point1.Data.StartCondition, 
TestParameter, AutoAnalysis.Line1.Point2.Type, 0
TestParameter, AutoAnalysis.Line1.Point2.XY.X, 
TestParameter, AutoAnalysis.Line1.Point2.XY.Y, 
TestParameter, AutoAnalysis.Line1.Point2.Data.Var, 
TestParameter, AutoAnalysis.Line1.Point2.Data.Condition, 
TestParameter, AutoAnalysis.Line1.Point2.Data.Start, false
TestParameter, AutoAnalysis.Line1.Point2.Data.StartVar, 
TestParameter, AutoAnalysis.Line1.Point2.Data.StartCondition, 
TestParameter, AutoAnalysis.Line1.GradientExpr, 0
TestParameter, AutoAnalysis.Line2.Enabled, false
TestParameter, AutoAnalysis.Line2.Type, 1
TestParameter, AutoAnalysis.Line2.Fix, True
TestParameter, AutoAnalysis.Line2.YAxis, 0
TestParameter, AutoAnalysis.Line2.Point1.Type, 0
TestParameter, AutoAnalysis.Line2.Point1.XY.X, 
TestParameter, AutoAnalysis.Line2.Point1.XY.Y, 
TestParameter, AutoAnalysis.Line2.Point1.Data.Var, 
TestParameter, AutoAnalysis.Line2.Point1.Data.Condition, 
TestParameter, AutoAnalysis.Line2.Point1.Data.Start, false
TestParameter, AutoAnalysis.Line2.Point1.Data.StartVar, 
TestParameter, AutoAnalysis.Line2.Point1.Data.StartCondition, 
TestParameter, AutoAnalysis.Line2.Point2.Type, 0
TestParameter, AutoAnalysis.Line2.Point2.XY.X, 
TestParameter, AutoAnalysis.Line2.Point2.XY.Y, 
TestParameter, AutoAnalysis.Line2.Point2.Data.Var, 
TestParameter, AutoAnalysis.Line2.Point2.Data.Condition, 
TestParameter, AutoAnalysis.Line2.Point2.Data.Start, false
TestParameter, AutoAnalysis.Line2.Point2.Data.StartVar, 
TestParameter, AutoAnalysis.Line2.Point2.Data.StartCondition, 
TestParameter, AutoAnalysis.Line2.GradientExpr, 0
TestParameter, AutoAnalysis.Marker.Enabled, false
TestParameter, AutoAnalysis.Marker.Data.Var, 
TestParameter, AutoAnalysis.Marker.Data.Condition, 
TestParameter, AutoAnalysis.Marker.Data.Start, false
TestParameter, AutoAnalysis.Marker.Data.StartVar, 
TestParameter, AutoAnalysis.Marker.Data.StartCondition, 
MetaData, TestRecord.EntryPoint, true
MetaData, TestRecord.RecordTime, 01/16/2024 15:53:07
MetaData, TestRecord.TestTarget, N-1-1-298K
MetaData, TestRecord.IterationIndex, 19
MetaData, TestRecord.Preservation, true
MetaData, TestRecord.Flag, 
MetaData, TestRecord.Remarks, 
MetaData, TestRecord.LinkKey, 6ce092bc-5f71-4104-9772-033dbdbaf4ab
MetaData, TestRecord.Parameters, 
Dimension1, 331, 331
Dimension2, 6, 6
DataName, vg, ib
DataValue, 0, -2.7560000000000003E-11
DataValue, 0.01, -3.4900000000000004E-11
DataValue, 0.02, -3.169E-11
DataValue, 0.03, -3.274E-11
DataValue, 0.04, -3.577E-11
DataValue, 0.05, -3.3090000000000005E-11
DataValue, 0.06, -3.4980000000000005E-11
DataValue, 0.07, -3.599E-11
DataValue, 0.08, -3.241E-11
DataValue, 0.09, -2.8610000000000002E-11
DataValue, 0.1, -3.722E-11
DataValue, 0.11, -3.073E-11
DataValue, 0.12, -3.168E-11
DataValue, 0.13, -3.529E-11
DataValue, 0.14, -2.7630000000000002E-11
DataValue, 0.15, -3.404E-11
DataValue, 0.16, -3.231E-11
DataValue, 0.17, -2.913E-11
DataValue, 0.18, -3.46E-11
DataValue, 0.19, -3.198E-11
DataValue, 0.2, -3.0930000000000003E-11
DataValue, 0.21, -3.125E-11
DataValue, 0.22, -3.4250000000000005E-11
DataValue, 0.23, -3.0870000000000006E-11
DataValue, 0.24, -3.6440000000000005E-11
DataValue, 0.25, -3.4650000000000004E-11
DataValue, 0.26, -2.6180000000000004E-11
DataValue, 0.27, -3.5810000000000004E-11
DataValue, 0.28, -3.466E-11
DataValue, 0.29, -3.224E-11
DataValue, 0.3, -3.7200000000000005E-11
DataValue, 0.31, -3.208E-11
DataValue, 0.32, -3.488E-11
DataValue, 0.33, -3.51E-11
DataValue, 0.34, -3.339E-11
DataValue, 0.35000000000000003, -3.3710000000000006E-11
DataValue, 0.36, -3.6660000000000006E-11
DataValue, 0.37, -3.3080000000000004E-11
DataValue, 0.38, -2.8620000000000004E-11
DataValue, 0.39, -3.6550000000000006E-11
DataValue, 0.4, -3.1780000000000006E-11
DataValue, 0.41000000000000003, -3.23E-11
DataValue, 0.42, -3.499E-11
DataValue, 0.43, -2.7450000000000003E-11
DataValue, 0.44, -3.2650000000000005E-11
DataValue, 0.45, -3.821E-11
DataValue, 0.46, -3.2350000000000003E-11
DataValue, 0.47000000000000003, -3.477E-11
DataValue, 0.48, -3.3300000000000004E-11
DataValue, 0.49, -3.2250000000000005E-11
DataValue, 0.5, -3.416E-11
DataValue, 0.51, -3.6760000000000004E-11
DataValue, 0.52, -3.2060000000000004E-11
DataValue, 0.53, -3.084E-11
DataValue, 0.54, -3.813E-11
DataValue, 0.55, -3.4980000000000005E-11
DataValue, 0.56, -2.853E-11
DataValue, 0.57000000000000006, -3.551E-11
DataValue, 0.58, -3.284E-11
DataValue, 0.59, -2.7710000000000004E-11
DataValue, 0.6, -3.424E-11
DataValue, 0.61, -3.737E-11
DataValue, 0.62, -3.092E-11
DataValue, 0.63, -3.347E-11
DataValue, 0.64, -3.4500000000000004E-11
DataValue, 0.65, -3.223E-11
DataValue, 0.66, -3.5340000000000004E-11
DataValue, 0.67, -3.453E-11
DataValue, 0.68, -3.393E-11
DataValue, 0.69000000000000006, -3.1450000000000005E-11
DataValue, 0.70000000000000007, -3.678E-11
DataValue, 0.71, -3.51E-11
DataValue, 0.72, -2.5830000000000003E-11
DataValue, 0.73, -3.594E-11
DataValue, 0.74, -3.5960000000000004E-11
DataValue, 0.75, -2.7960000000000003E-11
DataValue, 0.76, -3.5240000000000006E-11
DataValue, 0.77, -3.9600000000000004E-11
DataValue, 0.78, -3.149E-11
DataValue, 0.79, -3.584E-11
DataValue, 0.8, -3.5380000000000005E-11
DataValue, 0.81, -3.3740000000000004E-11
DataValue, 0.82000000000000006, -3.3410000000000004E-11
DataValue, 0.83000000000000007, -3.659E-11
DataValue, 0.84, -3.5420000000000005E-11
DataValue, 0.85, -3.1450000000000005E-11
DataValue, 0.86, -3.415E-11
DataValue, 0.87, -3.4210000000000004E-11
DataValue, 0.88, -2.558E-11
DataValue, 0.89, -3.3090000000000005E-11
DataValue, 0.9, -3.5090000000000005E-11
DataValue, 0.91, -2.7190000000000002E-11
DataValue, 0.92, -3.386E-11
DataValue, 0.93, -3.4790000000000003E-11
DataValue, 0.94000000000000006, -3.215E-11
DataValue, 0.95000000000000007, -3.6220000000000005E-11
DataValue, 0.96, -3.343E-11
DataValue, 0.97, -3.343E-11
DataValue, 0.98, -3.3740000000000004E-11
DataValue, 0.99, -3.682E-11
DataValue, 1, -3.478E-11
DataValue, 1.01, -3.2140000000000005E-11
DataValue, 1.02, -3.744E-11
DataValue, 1.03, -3.4800000000000005E-11
DataValue, 1.04, -3.0130000000000003E-11
DataValue, 1.05, -3.5380000000000005E-11
DataValue, 1.06, -3.256E-11
DataValue, 1.07, -2.947E-11
DataValue, 1.08, -3.361E-11
DataValue, 1.09, -3.0500000000000005E-11
DataValue, 1.1, -2.967E-11
DataValue, 1.11, -3.372E-11
DataValue, 1.12, -3.1590000000000004E-11
DataValue, 1.1300000000000001, -3.045E-11
DataValue, 1.1400000000000001, -3.1700000000000004E-11
DataValue, 1.1500000000000001, -3.6510000000000005E-11
DataValue, 1.16, -3.26E-11
DataValue, 1.17, -2.932E-11
DataValue, 1.18, -3.7820000000000005E-11
DataValue, 1.19, -3.318E-11
DataValue, 1.2, -3.3310000000000006E-11
DataValue, 1.21, -3.733E-11
DataValue, 1.22, -3.361E-11
DataValue, 1.23, -2.864E-11
DataValue, 1.24, -3.0750000000000004E-11
DataValue, 1.25, -3.517E-11
DataValue, 1.26, -3.328E-11
DataValue, 1.27, -3.0140000000000005E-11
DataValue, 1.28, -3.172E-11
DataValue, 1.29, -3.3700000000000004E-11
DataValue, 1.3, -3.008E-11
DataValue, 1.31, -3.6150000000000006E-11
DataValue, 1.32, -3.4910000000000005E-11
DataValue, 1.33, -3.149E-11
DataValue, 1.34, -3.7010000000000003E-11
DataValue, 1.35, -3.0830000000000005E-11
DataValue, 1.36, -3.506E-11
DataValue, 1.37, -3.861E-11
DataValue, 1.3800000000000001, -3.1740000000000005E-11
DataValue, 1.3900000000000001, -3.4320000000000004E-11
DataValue, 1.4000000000000001, -3.339E-11
DataValue, 1.41, -3.253E-11
DataValue, 1.42, -3.255E-11
DataValue, 1.43, -3.58E-11
DataValue, 1.44, -3.2210000000000004E-11
DataValue, 1.45, -3.121E-11
DataValue, 1.46, -3.497E-11
DataValue, 1.47, -3.1560000000000005E-11
DataValue, 1.48, -3.1050000000000005E-11
DataValue, 1.49, -3.7970000000000006E-11
DataValue, 1.5, -2.884E-11
DataValue, 1.51, -3.507E-11
DataValue, 1.52, -3.773E-11
DataValue, 1.53, -3.04E-11
DataValue, 1.54, -3.4430000000000004E-11
DataValue, 1.55, -3.5590000000000003E-11
DataValue, 1.56, -3.292E-11
DataValue, 1.57, -3.172E-11
DataValue, 1.58, -3.02E-11
DataValue, 1.59, -3.2690000000000006E-11
DataValue, 1.6, -3.1410000000000004E-11
DataValue, 1.61, -3.033E-11
DataValue, 1.62, -3.8300000000000006E-11
DataValue, 1.6300000000000001, -3.2910000000000006E-11
DataValue, 1.6400000000000001, -3.3190000000000004E-11
DataValue, 1.6500000000000001, -3.8410000000000006E-11
DataValue, 1.6600000000000001, -3.328E-11
DataValue, 1.67, -3.4650000000000004E-11
DataValue, 1.68, -3.8440000000000005E-11
DataValue, 1.69, -3.085E-11
DataValue, 1.7, -3.379E-11
DataValue, 1.71, -3.562E-11
DataValue, 1.72, -3.391E-11
DataValue, 1.73, -3.1780000000000006E-11
DataValue, 1.74, -3.114E-11
DataValue, 1.75, -3.4730000000000006E-11
DataValue, 1.76, -3.099E-11
DataValue, 1.77, -3.2250000000000005E-11
DataValue, 1.78, -3.606E-11
DataValue, 1.79, -3.224E-11
DataValue, 1.8, -3.2860000000000003E-11
DataValue, 1.81, -3.903E-11
DataValue, 1.82, -2.8910000000000003E-11
DataValue, 1.83, -3.572E-11
DataValue, 1.84, -3.761E-11
DataValue, 1.85, -3.6000000000000005E-11
DataValue, 1.86, -3.529E-11
DataValue, 1.87, -3.3780000000000005E-11
DataValue, 1.8800000000000001, -3.6150000000000006E-11
DataValue, 1.8900000000000001, -3.744E-11
DataValue, 1.9000000000000001, -3.284E-11
DataValue, 1.9100000000000001, -3.012E-11
DataValue, 1.92, -3.781E-11
DataValue, 1.93, -3.314E-11
DataValue, 1.94, -3.4290000000000005E-11
DataValue, 1.95, -3.7170000000000006E-11
DataValue, 1.96, -2.9620000000000003E-11
DataValue, 1.97, -3.4580000000000005E-11
DataValue, 1.98, -3.9100000000000006E-11
DataValue, 1.99, -3.071E-11
DataValue, 2, -3.3710000000000006E-11
DataValue, 2.0100000000000002, -3.5850000000000004E-11
DataValue, 2.02, -3.424E-11
DataValue, 2.0300000000000002, -3.492E-11
DataValue, 2.04, -3.6070000000000004E-11
DataValue, 2.05, -3.2800000000000006E-11
DataValue, 2.06, -2.993E-11
DataValue, 2.07, -3.6040000000000006E-11
DataValue, 2.08, -3.289E-11
DataValue, 2.09, -3.2180000000000005E-11
DataValue, 2.1, -3.7340000000000004E-11
DataValue, 2.11, -3.1880000000000004E-11
DataValue, 2.12, -3.463E-11
DataValue, 2.13, -3.861E-11
DataValue, 2.14, -3.204E-11
DataValue, 2.15, -3.06E-11
DataValue, 2.16, -3.482E-11
DataValue, 2.17, -3.219E-11
DataValue, 2.18, -3.08E-11
DataValue, 2.19, -3.15E-11
DataValue, 2.2, -3.4250000000000005E-11
DataValue, 2.21, -3.172E-11
DataValue, 2.22, -3.092E-11
DataValue, 2.23, -3.8580000000000004E-11
DataValue, 2.24, -3.3230000000000004E-11
DataValue, 2.25, -3.27E-11
DataValue, 2.2600000000000002, -3.741E-11
DataValue, 2.27, -3.515E-11
DataValue, 2.2800000000000002, -3.071E-11
DataValue, 2.29, -3.449E-11
DataValue, 2.3000000000000003, -2.92E-11
DataValue, 2.31, -3.0360000000000006E-11
DataValue, 2.32, -3.401E-11
DataValue, 2.33, -3.42E-11
DataValue, 2.34, -3.0900000000000004E-11
DataValue, 2.35, -3.394E-11
DataValue, 2.36, -3.7120000000000003E-11
DataValue, 2.37, -3.244E-11
DataValue, 2.38, -3.2430000000000005E-11
DataValue, 2.39, -3.7820000000000005E-11
DataValue, 2.4, -2.7850000000000003E-11
DataValue, 2.41, -3.573E-11
DataValue, 2.42, -3.4280000000000003E-11
DataValue, 2.43, -3.1950000000000003E-11
DataValue, 2.44, -3.65E-11
DataValue, 2.45, -3.267E-11
DataValue, 2.46, -3.404E-11
DataValue, 2.47, -3.5810000000000004E-11
DataValue, 2.48, -3.481E-11
DataValue, 2.49, -3.124E-11
DataValue, 2.5, -3.1010000000000005E-11
DataValue, 2.5100000000000002, -3.5E-11
DataValue, 2.52, -3.2940000000000005E-11
DataValue, 2.5300000000000002, -3.799E-11
DataValue, 2.54, -3.5090000000000005E-11
DataValue, 2.5500000000000003, -3.311E-11
DataValue, 2.56, -3.7680000000000006E-11
DataValue, 2.57, -3.158E-11
DataValue, 2.58, -3.594E-11
DataValue, 2.59, -3.7560000000000004E-11
DataValue, 2.6, -3.193E-11
DataValue, 2.61, -3.6110000000000005E-11
DataValue, 2.62, -3.638E-11
DataValue, 2.63, -3.35E-11
DataValue, 2.64, -3.539E-11
DataValue, 2.65, -3.7520000000000003E-11
DataValue, 2.66, -3.2580000000000005E-11
DataValue, 2.67, -3.102E-11
DataValue, 2.68, -3.642E-11
DataValue, 2.69, -2.978E-11
DataValue, 2.7, -3.379E-11
DataValue, 2.71, -3.4430000000000004E-11
DataValue, 2.72, -2.837E-11
DataValue, 2.73, -3.3560000000000005E-11
DataValue, 2.74, -2.982E-11
DataValue, 2.75, -3.1260000000000004E-11
DataValue, 2.7600000000000002, -3.59E-11
DataValue, 2.77, -3.3700000000000004E-11
DataValue, 2.7800000000000002, -3.128E-11
DataValue, 2.79, -3.273E-11
DataValue, 2.8000000000000003, -3.602E-11
DataValue, 2.81, -3.263E-11
DataValue, 2.82, -3.777E-11
DataValue, 2.83, -3.566E-11
DataValue, 2.84, -3.351E-11
DataValue, 2.85, -3.759E-11
DataValue, 2.86, -3.0720000000000005E-11
DataValue, 2.87, -3.4910000000000005E-11
DataValue, 2.88, -3.8110000000000005E-11
DataValue, 2.89, -3.226E-11
DataValue, 2.9, -3.438E-11
DataValue, 2.91, -3.495E-11
DataValue, 2.92, -3.27E-11
DataValue, 2.93, -3.548E-11
DataValue, 2.94, -3.543E-11
DataValue, 2.95, -3.3820000000000006E-11
DataValue, 2.96, -3.2680000000000004E-11
DataValue, 2.97, -3.901E-11
DataValue, 2.98, -3.5230000000000004E-11
DataValue, 2.99, -3.023E-11
DataValue, 3, -3.617E-11
DataValue, 3.0100000000000002, -3.492E-11
DataValue, 3.02, -2.997E-11
DataValue, 3.0300000000000002, -3.438E-11
DataValue, 3.04, -3.344E-11
DataValue, 3.0500000000000003, -3.262E-11
DataValue, 3.06, -3.419E-11
DataValue, 3.0700000000000003, -3.3160000000000005E-11
DataValue, 3.08, -3.1920000000000005E-11
DataValue, 3.09, -3.3740000000000004E-11
DataValue, 3.1, -3.791E-11
DataValue, 3.11, -3.379E-11
DataValue, 3.12, -3.474E-11
DataValue, 3.13, -4.0450000000000006E-11
DataValue, 3.14, -3.4620000000000006E-11
DataValue, 3.15, -3.255E-11
DataValue, 3.16, -3.9380000000000004E-11
DataValue, 3.17, -3.6720000000000003E-11
DataValue, 3.18, -3.448E-11
DataValue, 3.19, -3.5230000000000004E-11
DataValue, 3.2, -3.081E-11
DataValue, 3.21, -3.3700000000000004E-11
DataValue, 3.22, -3.554E-11
DataValue, 3.23, -3.369E-11
DataValue, 3.24, -3.332E-11
DataValue, 3.25, -3.6250000000000004E-11
DataValue, 3.2600000000000002, -4.0190000000000005E-11
DataValue, 3.27, -3.5310000000000005E-11
DataValue, 3.2800000000000002, -3.23E-11
DataValue, 3.29, -3.998E-11
DataValue, 3.3000000000000003, -3.751E-11
DataValue, 0, -2.9950000000000004E-11
DataValue, 0.01, -3.131E-11
DataValue, 0.02, -2.7380000000000003E-11
DataValue, 0.03, -3.2690000000000006E-11
DataValue, 0.04, -3.2250000000000005E-11
DataValue, 0.05, -3.1120000000000005E-11
DataValue, 0.06, -3.256E-11
DataValue, 0.07, -2.8210000000000002E-11
DataValue, 0.08, -2.927E-11
DataValue, 0.09, -3.066E-11
DataValue, 0.1, -2.96E-11
DataValue, 0.11, -3.4680000000000003E-11
DataValue, 0.12, -2.5850000000000003E-11
DataValue, 0.13, -3.1520000000000005E-11
DataValue, 0.14, -2.817E-11
DataValue, 0.15, -3.122E-11
DataValue, 0.16, -3.0970000000000004E-11
DataValue, 0.17, -3.0100000000000005E-11
DataValue, 0.18, -2.9410000000000005E-11
DataValue, 0.19, -3.117E-11
DataValue, 0.2, -2.8730000000000004E-11
DataValue, 0.21, -3.5750000000000006E-11
DataValue, 0.22, -3.1700000000000004E-11
DataValue, 0.23, -3.067E-11
DataValue, 0.24, -3.059E-11
DataValue, 0.25, -2.837E-11
DataValue, 0.26, -3.499E-11
DataValue, 0.27, -3.052E-11
DataValue, 0.28, -3.052E-11
DataValue, 0.29, -3.176E-11
DataValue, 0.3, -2.958E-11
DataValue, 0.31, -2.797E-11
DataValue, 0.32, -3.1440000000000003E-11
DataValue, 0.33, -3.0250000000000005E-11
DataValue, 0.34, -3.602E-11
DataValue, 0.35000000000000003, -2.968E-11
DataValue, 0.36, -3.0460000000000004E-11
DataValue, 0.37, -3.099E-11
DataValue, 0.38, -2.964E-11
DataValue, 0.39, -3.463E-11
DataValue, 0.4, -2.9840000000000004E-11
DataValue, 0.41000000000000003, -3.0750000000000004E-11
DataValue, 0.42, -3.0540000000000005E-11
DataValue, 0.43, -3.018E-11
DataValue, 0.44, -3.427E-11
DataValue, 0.45, -2.964E-11
DataValue, 0.46, -2.8220000000000004E-11
DataValue, 0.47000000000000003, -3.0640000000000004E-11
DataValue, 0.48, -2.724E-11
DataValue, 0.49, -3.4620000000000006E-11
DataValue, 0.5, -2.7500000000000002E-11
DataValue, 0.51, -3.121E-11
