
SetupTitle, NMOS-id-vg-vbs@vds=3.3
PrimitiveTest, I/V Sweep
TestParameter, Context.MainFrame, B1500A
TestParameter, Channel.UnitType, SMU, SMU, SMU, SMU
TestParameter, Channel.Unit, SMU2:HR, SMU1:HR, SMU3:HR, SMU4:HR
TestParameter, Channel.IName, ib, is, ig, id
TestParameter, Channel.VName, vb, vs, vg, vd
TestParameter, Channel.Mode, V, COMMON, V, V
TestParameter, Channel.Func, VAR2, CONST, VAR1, CONST
TestParameter, Channel.Index, 
TestParameter, Channel.Time, 
TestParameter, Measurement.Port.Unit, SMU2:HR, SMU1:HR, SMU3:HR, SMU4:HR
TestParameter, Measurement.Port.SeriesResistor, NONE, NONE, NONE, NONE
TestParameter, Measurement.Port.Filter, ON, ON, ON, ON
TestParameter, Measurement.Port.OutputVoltageComparison, 0, 0, 0, 0
TestParameter, Measurement.Primary.Locus, Single
TestParameter, Measurement.Primary.Scale, LINEAR
TestParameter, Measurement.Primary.Start, -0.5
TestParameter, Measurement.Primary.Stop, 3.3000000000000003
TestParameter, Measurement.Primary.Step, 0.01
TestParameter, Measurement.Primary.Compliance, 0.001
TestParameter, Measurement.Primary.PowerCompliance, 0
TestParameter, Measurement.Aborting.Condition, SKIP AT ANY ABNORMAL
TestParameter, Measurement.PostOutput.Value, START
TestParameter, Measurement.PostOutput.Retention, OFF
TestParameter, Measurement.Secondary.Start, 0
TestParameter, Measurement.Secondary.Count, 7
TestParameter, Measurement.Secondary.Step, -0.6
TestParameter, Measurement.Secondary.Compliance, 0.1
TestParameter, Measurement.Secondary.PowerCompliance, 0
TestParameter, Measurement.Bias.Source, 0, 0, -0.5, 3.3000000000000003
TestParameter, Measurement.Bias.Compliance, 0.1, 0.1, 0.001, 0.1
TestParameter, Measurement.Monitor.Unit, SMU2:HR, SMU1:HR, SMU3:HR, SMU4:HR
TestParameter, Measurement.Monitor.Adc, HR ADC, HR ADC, HR ADC, HR ADC
TestParameter, Measurement.Monitor.Measurement, Compliance Side, Compliance Side, Compliance Side, Compliance Side
TestParameter, Measurement.Monitor.RangingMode, LIMITED, LIMITED, LIMITED, LIMITED
TestParameter, Measurement.Monitor.RangeBoundary, 1nA, 1nA, 1nA, 1nA
TestParameter, Measurement.Monitor.RangeRating, BY FULL RANGE, BY FULL RANGE, BY FULL RANGE, BY FULL RANGE
TestParameter, Measurement.Monitor.RangeRatingCoeff, 50, 50, 50, 50
TestParameter, Measurement.Timing.Hold, 0
TestParameter, Measurement.Timing.Delay, 0
TestParameter, Measurement.Adc.HighSpeed.Mode, AUTO
TestParameter, Measurement.Adc.HighSpeed.Coeff, 1
TestParameter, Measurement.Adc.HighResolution.AutoZero, OFF
TestParameter, Measurement.Adc.HighResolution.Mode, AUTO
TestParameter, Measurement.Adc.HighResolution.Coeff, 6
TestParameter, Measurement.WaitTime.Source.Coeff, 1
TestParameter, Measurement.WaitTime.Source.Offset, 0
TestParameter, Measurement.WaitTime.Monitor.Coeff, 1
TestParameter, Measurement.WaitTime.Monitor.Offset, 0
TestParameter, Output.Graph.Enabled, true
TestParameter, Output.Graph.AutoScaling, false
TestParameter, Output.Graph.XAxis.Data, vg
TestParameter, Output.Graph.XAxis.Scale, Linear
TestParameter, Output.Graph.XAxis.Left, 0
TestParameter, Output.Graph.XAxis.Right, 0.9
TestParameter, Output.Graph.XAxis.RunTimeAutoScale, true
TestParameter, Output.Graph.YAxis.Data, id
TestParameter, Output.Graph.YAxis.Scale, Linear
TestParameter, Output.Graph.YAxis.Bottom, -0.1
TestParameter, Output.Graph.YAxis.Top, 0.1
TestParameter, Output.Graph.YAxis.Group, 
TestParameter, Output.Graph.YAxis.RunTimeAutoScale, true
TestParameter, AutoAnalysis.Interpolation, false
TestParameter, AutoAnalysis.Var2StepCount, 1
TestParameter, AutoAnalysis.Var2StepScript, 
TestParameter, AutoAnalysis.Line1.Enabled, false
TestParameter, AutoAnalysis.Line1.Type, 1
TestParameter, AutoAnalysis.Line1.Fix, True
TestParameter, AutoAnalysis.Line1.YAxis, 0
TestParameter, AutoAnalysis.Line1.Point1.Type, 0
TestParameter, AutoAnalysis.Line1.Point1.XY.X, 
TestParameter, AutoAnalysis.Line1.Point1.XY.Y, 
TestParameter, AutoAnalysis.Line1.Point1.Data.Var, 
TestParameter, AutoAnalysis.Line1.Point1.Data.Condition, 
TestParameter, AutoAnalysis.Line1.Point1.Data.Start, false
TestParameter, AutoAnalysis.Line1.Point1.Data.StartVar, 
TestParameter, AutoAnalysis.Line1.Point1.Data.StartCondition, 
TestParameter, AutoAnalysis.Line1.Point2.Type, 0
TestParameter, AutoAnalysis.Line1.Point2.XY.X, 
TestParameter, AutoAnalysis.Line1.Point2.XY.Y, 
TestParameter, AutoAnalysis.Line1.Point2.Data.Var, 
TestParameter, AutoAnalysis.Line1.Point2.Data.Condition, 
TestParameter, AutoAnalysis.Line1.Point2.Data.Start, false
TestParameter, AutoAnalysis.Line1.Point2.Data.StartVar, 
TestParameter, AutoAnalysis.Line1.Point2.Data.StartCondition, 
TestParameter, AutoAnalysis.Line1.GradientExpr, 0
TestParameter, AutoAnalysis.Line2.Enabled, false
TestParameter, AutoAnalysis.Line2.Type, 1
TestParameter, AutoAnalysis.Line2.Fix, True
TestParameter, AutoAnalysis.Line2.YAxis, 0
TestParameter, AutoAnalysis.Line2.Point1.Type, 0
TestParameter, AutoAnalysis.Line2.Point1.XY.X, 
TestParameter, AutoAnalysis.Line2.Point1.XY.Y, 
TestParameter, AutoAnalysis.Line2.Point1.Data.Var, 
TestParameter, AutoAnalysis.Line2.Point1.Data.Condition, 
TestParameter, AutoAnalysis.Line2.Point1.Data.Start, false
TestParameter, AutoAnalysis.Line2.Point1.Data.StartVar, 
TestParameter, AutoAnalysis.Line2.Point1.Data.StartCondition, 
TestParameter, AutoAnalysis.Line2.Point2.Type, 0
TestParameter, AutoAnalysis.Line2.Point2.XY.X, 
TestParameter, AutoAnalysis.Line2.Point2.XY.Y, 
TestParameter, AutoAnalysis.Line2.Point2.Data.Var, 
TestParameter, AutoAnalysis.Line2.Point2.Data.Condition, 
TestParameter, AutoAnalysis.Line2.Point2.Data.Start, false
TestParameter, AutoAnalysis.Line2.Point2.Data.StartVar, 
TestParameter, AutoAnalysis.Line2.Point2.Data.StartCondition, 
TestParameter, AutoAnalysis.Line2.GradientExpr, 0
TestParameter, AutoAnalysis.Marker.Enabled, false
TestParameter, AutoAnalysis.Marker.Data.Var, 
TestParameter, AutoAnalysis.Marker.Data.Condition, 
TestParameter, AutoAnalysis.Marker.Data.Start, false
TestParameter, AutoAnalysis.Marker.Data.StartVar, 
TestParameter, AutoAnalysis.Marker.Data.StartCondition, 
MetaData, TestRecord.EntryPoint, true
MetaData, TestRecord.RecordTime, 01/16/2024 15:51:46
MetaData, TestRecord.TestTarget, N-1-1-298K
MetaData, TestRecord.IterationIndex, 19
MetaData, TestRecord.Preservation, true
MetaData, TestRecord.Flag, 
MetaData, TestRecord.Remarks, 
MetaData, TestRecord.LinkKey, 130cd35f-6a8d-45b0-9fcd-bb2f039717b8
MetaData, TestRecord.Parameters, 
Dimension1, 381, 381
Dimension2, 7, 7
DataName, vg, id
DataValue, -0.5, 3.35E-12
DataValue, -0.49, 9.54E-12
DataValue, -0.48, 1.515E-11
DataValue, -0.47000000000000003, 1.3300000000000002E-12
DataValue, -0.46, 9.97E-12
DataValue, -0.45, 1.2740000000000001E-11
DataValue, -0.44, 1E-13
DataValue, -0.43, 1.014E-11
DataValue, -0.42, 1.1350000000000002E-11
DataValue, -0.41000000000000003, 2.7E-13
DataValue, -0.4, 1.1210000000000001E-11
DataValue, -0.39, 1.025E-11
DataValue, -0.38, 1.0100000000000001E-12
DataValue, -0.37, 1.3170000000000001E-11
DataValue, -0.36, 9.88E-12
DataValue, -0.35000000000000003, 2.9900000000000004E-12
DataValue, -0.34, 1.6030000000000002E-11
DataValue, -0.33, 9.4100000000000013E-12
DataValue, -0.32, 3.9800000000000004E-12
DataValue, -0.31, 1.3850000000000001E-11
DataValue, -0.3, 1.047E-11
DataValue, -0.29, 2.13E-12
DataValue, -0.28, 1.5010000000000002E-11
DataValue, -0.27, 9.4100000000000013E-12
DataValue, -0.26, 3.3E-12
DataValue, -0.25, 1.6290000000000003E-11
DataValue, -0.24, 1.007E-11
DataValue, -0.23, 2.1200000000000003E-12
DataValue, -0.22, 1.4850000000000002E-11
DataValue, -0.21, 9.490000000000001E-12
DataValue, -0.2, 3.6800000000000005E-12
DataValue, -0.19, 1.8470000000000002E-11
DataValue, -0.18, 8.2900000000000012E-12
DataValue, -0.17, 8.61E-12
DataValue, -0.16, 1.792E-11
DataValue, -0.15, 5.94E-12
DataValue, -0.14, 9.35E-12
DataValue, -0.13, 1.631E-11
DataValue, -0.12, 3.4100000000000002E-12
DataValue, -0.11, 9.77E-12
DataValue, -0.1, 1.119E-11
DataValue, -0.09, 5.2E-13
DataValue, -0.08, 1.18E-11
DataValue, -0.07, 1.017E-11
DataValue, -0.06, 1.85E-12
DataValue, -0.05, 1.4250000000000001E-11
DataValue, -0.04, 9.8900000000000009E-12
DataValue, -0.03, 2.97E-12
DataValue, -0.02, 1.6800000000000003E-11
DataValue, -0.01, 9.7200000000000014E-12
DataValue, 0, 5.8E-12
DataValue, 0.01, 1.8490000000000002E-11
DataValue, 0.02, 8.93E-12
DataValue, 0.03, 4.3500000000000006E-12
DataValue, 0.04, 1.5210000000000002E-11
DataValue, 0.05, 9.9300000000000015E-12
DataValue, 0.06, 1.5E-12
DataValue, 0.07, 1.462E-11
DataValue, 0.08, 9.14E-12
DataValue, 0.09, 5.94E-12
DataValue, 0.1, 1.635E-11
DataValue, 0.11, 1.045E-11
DataValue, 0.12, 2.3000000000000003E-13
DataValue, 0.13, 1.211E-11
DataValue, 0.14, 1.128E-11
DataValue, 0.15, 3.6000000000000003E-13
DataValue, 0.16, 1.007E-11
DataValue, 0.17, 1.4400000000000002E-11
DataValue, 0.18, 3.4900000000000003E-12
DataValue, 0.19, 9.2800000000000008E-12
DataValue, 0.2, 1.7180000000000002E-11
DataValue, 0.21, 8.42E-12
DataValue, 0.22, 7.6800000000000012E-12
DataValue, 0.23, 1.8220000000000003E-11
DataValue, 0.24, 1.059E-11
DataValue, 0.25, 5.75E-12
DataValue, 0.26, 1.77E-11
DataValue, 0.27, 1.0940000000000001E-11
DataValue, 0.28, 5.23E-12
DataValue, 0.29, 1.5920000000000002E-11
DataValue, 0.3, 1.22E-11
DataValue, 0.31, 5.14E-12
DataValue, 0.32, 1.601E-11
DataValue, 0.33, 1.9000000000000002E-11
DataValue, 0.34, 9.53E-12
DataValue, 0.35000000000000003, 2.0570000000000003E-11
DataValue, 0.36, 2.946E-11
DataValue, 0.37, 2.334E-11
DataValue, 0.38, 3.023E-11
DataValue, 0.39, 4.5640000000000003E-11
DataValue, 0.4, 4.4550000000000004E-11
DataValue, 0.41000000000000003, 4.917E-11
DataValue, 0.42, 7.149E-11
DataValue, 0.43, 8.199E-11
DataValue, 0.44, 9.643000000000001E-11
DataValue, 0.45, 1.3266E-10
DataValue, 0.46, 1.6313E-10
DataValue, 0.47000000000000003, 1.9519000000000003E-10
DataValue, 0.48, 2.6106000000000003E-10
DataValue, 0.49, 3.3419E-10
DataValue, 0.5, 4.1747E-10
DataValue, 0.51, 5.3692E-10
DataValue, 0.52, 6.9488000000000009E-10
DataValue, 0.53, 8.7107000000000007E-10
DataValue, 0.54, 1.11742E-09
DataValue, 0.55, 1.5332E-09
DataValue, 0.56, 1.88E-09
DataValue, 0.57000000000000006, 2.3745E-09
DataValue, 0.58, 3.0485E-09
DataValue, 0.59, 3.9213E-09
DataValue, 0.6, 5.0005E-09
DataValue, 0.61, 6.5808E-09
DataValue, 0.62, 8.185E-09
DataValue, 0.63, 1.03982E-08
DataValue, 0.64, 1.3865599999999998E-08
DataValue, 0.65, 1.76032E-08
DataValue, 0.66, 2.2314599999999997E-08
DataValue, 0.67, 2.83022E-08
DataValue, 0.68, 3.56254E-08
DataValue, 0.69000000000000006, 4.4724399999999993E-08
DataValue, 0.70000000000000007, 5.5825399999999994E-08
DataValue, 0.71, 6.9380199999999988E-08
DataValue, 0.72, 8.5646599999999991E-08
DataValue, 0.73, 1.0550939999999999E-07
DataValue, 0.74, 1.288E-07
DataValue, 0.75, 1.56E-07
DataValue, 0.76, 1.8848E-07
DataValue, 0.77, 2.2668E-07
DataValue, 0.78, 2.6994E-07
DataValue, 0.79, 3.1935999999999997E-07
DataValue, 0.8, 3.7536E-07
DataValue, 0.81, 4.3873999999999997E-07
DataValue, 0.82000000000000006, 5.0982E-07
DataValue, 0.83000000000000007, 5.9062E-07
DataValue, 0.84, 6.7968E-07
DataValue, 0.85, 7.77E-07
DataValue, 0.86, 8.8142E-07
DataValue, 0.87, 9.9864E-07
DataValue, 0.88, 1.1247799999999999E-06
DataValue, 0.89, 1.2597000000000002E-06
DataValue, 0.9, 1.4060000000000002E-06
DataValue, 0.91, 1.5657E-06
DataValue, 0.92, 1.7345E-06
DataValue, 0.93, 1.9155E-06
DataValue, 0.94000000000000006, 2.1054E-06
DataValue, 0.95000000000000007, 2.3081000000000004E-06
DataValue, 0.96, 2.5370000000000004E-06
DataValue, 0.97, 2.7535000000000004E-06
DataValue, 0.98, 2.9954E-06
DataValue, 0.99, 3.2383000000000004E-06
DataValue, 1, 3.4997000000000006E-06
DataValue, 1.01, 3.7736E-06
DataValue, 1.02, 4.0621000000000005E-06
DataValue, 1.03, 4.3637E-06
DataValue, 1.04, 4.6797E-06
DataValue, 1.05, 5.0041000000000009E-06
DataValue, 1.06, 5.3424000000000007E-06
DataValue, 1.07, 5.691E-06
DataValue, 1.08, 6.0528000000000007E-06
DataValue, 1.09, 6.4278000000000005E-06
DataValue, 1.1, 6.8221E-06
DataValue, 1.11, 7.2198000000000007E-06
DataValue, 1.12, 7.6335E-06
DataValue, 1.1300000000000001, 8.0563000000000011E-06
DataValue, 1.1400000000000001, 8.4964E-06
DataValue, 1.1500000000000001, 8.9379000000000013E-06
DataValue, 1.16, 9.4043E-06
DataValue, 1.17, 9.8848E-06
DataValue, 1.18, 1.0365100000000002E-05
DataValue, 1.19, 1.0859500000000002E-05
DataValue, 1.2, 1.1377000000000001E-05
DataValue, 1.21, 1.1882E-05
DataValue, 1.22, 1.242E-05
DataValue, 1.23, 1.2964E-05
DataValue, 1.24, 1.3544000000000001E-05
DataValue, 1.25, 1.4102E-05
DataValue, 1.26, 1.4684E-05
DataValue, 1.27, 1.5268E-05
DataValue, 1.28, 1.5876000000000002E-05
DataValue, 1.29, 1.6488000000000002E-05
DataValue, 1.3, 1.7124E-05
DataValue, 1.31, 1.7766E-05
DataValue, 1.32, 1.8418000000000002E-05
DataValue, 1.33, 1.908E-05
DataValue, 1.34, 1.9738E-05
DataValue, 1.35, 2.0426E-05
DataValue, 1.36, 2.1112E-05
DataValue, 1.37, 2.1832E-05
DataValue, 1.3800000000000001, 2.2548E-05
DataValue, 1.3900000000000001, 2.3272E-05
DataValue, 1.4000000000000001, 2.4012E-05
DataValue, 1.41, 2.4758000000000002E-05
DataValue, 1.42, 2.5518000000000002E-05
DataValue, 1.43, 2.6296E-05
DataValue, 1.44, 2.7068000000000002E-05
DataValue, 1.45, 2.7858E-05
DataValue, 1.46, 2.8650000000000002E-05
DataValue, 1.47, 2.9462E-05
DataValue, 1.48, 3.0282000000000002E-05
DataValue, 1.49, 3.1084E-05
DataValue, 1.5, 3.1958E-05
DataValue, 1.51, 3.2816E-05
DataValue, 1.52, 3.3664E-05
DataValue, 1.53, 3.4532E-05
DataValue, 1.54, 3.54E-05
DataValue, 1.55, 3.6294E-05
DataValue, 1.56, 3.72E-05
DataValue, 1.57, 3.8098E-05
DataValue, 1.58, 3.9018E-05
DataValue, 1.59, 3.9936E-05
DataValue, 1.6, 4.0874E-05
DataValue, 1.61, 4.1802000000000004E-05
DataValue, 1.62, 4.2752E-05
DataValue, 1.6300000000000001, 4.3708E-05
DataValue, 1.6400000000000001, 4.4676000000000004E-05
DataValue, 1.6500000000000001, 4.5672E-05
DataValue, 1.6600000000000001, 4.664E-05
DataValue, 1.67, 4.7626E-05
DataValue, 1.68, 4.8626000000000005E-05
DataValue, 1.69, 4.9632E-05
DataValue, 1.7, 5.0642E-05
DataValue, 1.71, 5.1676000000000005E-05
DataValue, 1.72, 5.2698E-05
DataValue, 1.73, 5.3738E-05
DataValue, 1.74, 5.481E-05
DataValue, 1.75, 5.5854000000000004E-05
DataValue, 1.76, 5.6904E-05
DataValue, 1.77, 5.7972E-05
DataValue, 1.78, 5.9044E-05
DataValue, 1.79, 6.012E-05
DataValue, 1.8, 6.1212E-05
DataValue, 1.81, 6.2298E-05
DataValue, 1.82, 6.3414E-05
DataValue, 1.83, 6.4544E-05
DataValue, 1.84, 6.5658E-05
DataValue, 1.85, 6.6772E-05
DataValue, 1.86, 6.7902E-05
DataValue, 1.87, 6.9042000000000007E-05
DataValue, 1.8800000000000001, 7.0182E-05
DataValue, 1.8900000000000001, 7.1316E-05
DataValue, 1.9000000000000001, 7.2486E-05
DataValue, 1.9100000000000001, 7.3648E-05
DataValue, 1.92, 7.4808E-05
DataValue, 1.93, 7.6E-05
DataValue, 1.94, 7.718E-05
DataValue, 1.95, 7.8362E-05
DataValue, 1.96, 7.9556000000000009E-05
DataValue, 1.97, 8.0738E-05
DataValue, 1.98, 8.1928E-05
DataValue, 1.99, 8.3134000000000007E-05
DataValue, 2, 8.4346000000000009E-05
DataValue, 2.0100000000000002, 8.5566E-05
DataValue, 2.02, 8.6804E-05
DataValue, 2.0300000000000002, 8.8028E-05
DataValue, 2.04, 8.9264E-05
DataValue, 2.05, 9.0496000000000009E-05
DataValue, 2.06, 9.1742E-05
DataValue, 2.07, 9.2984E-05
DataValue, 2.08, 9.4246E-05
DataValue, 2.09, 9.5494E-05
DataValue, 2.1, 9.6756E-05
DataValue, 2.11, 9.8034E-05
DataValue, 2.12, 9.9308E-05
DataValue, 2.13, 0.000100588
DataValue, 2.14, 0.00010185600000000001
DataValue, 2.15, 0.000103138
DataValue, 2.16, 0.000104442
DataValue, 2.17, 0.000105724
DataValue, 2.18, 0.00010701000000000001
DataValue, 2.19, 0.000108322
DataValue, 2.2, 0.00010964400000000001
DataValue, 2.21, 0.000110956
DataValue, 2.22, 0.000112256
DataValue, 2.23, 0.00011355600000000001
DataValue, 2.24, 0.000114882
DataValue, 2.25, 0.00011602
DataValue, 2.2600000000000002, 0.00011734000000000001
DataValue, 2.27, 0.00011868000000000001
DataValue, 2.2800000000000002, 0.00012
DataValue, 2.29, 0.00012134000000000001
DataValue, 2.3000000000000003, 0.00012268
DataValue, 2.31, 0.00012404
DataValue, 2.32, 0.0001254
DataValue, 2.33, 0.00012674
DataValue, 2.34, 0.0001281
DataValue, 2.35, 0.00012946
DataValue, 2.36, 0.00013082
DataValue, 2.37, 0.00013214000000000002
DataValue, 2.38, 0.00013354
DataValue, 2.39, 0.0001349
DataValue, 2.4, 0.00013628000000000002
DataValue, 2.41, 0.00013764000000000002
DataValue, 2.42, 0.00013902
DataValue, 2.43, 0.0001404
DataValue, 2.44, 0.00014176
DataValue, 2.45, 0.0001432
DataValue, 2.46, 0.00014456
DataValue, 2.47, 0.00014594
DataValue, 2.48, 0.00014732000000000002
DataValue, 2.49, 0.00014874000000000002
DataValue, 2.5, 0.00015012
DataValue, 2.5100000000000002, 0.00015154
DataValue, 2.52, 0.00015292000000000002
DataValue, 2.5300000000000002, 0.00015432
DataValue, 2.54, 0.00015572
DataValue, 2.5500000000000003, 0.00015714
DataValue, 2.56, 0.00015852000000000002
DataValue, 2.57, 0.00015992
DataValue, 2.58, 0.00016136000000000001
DataValue, 2.59, 0.00016276000000000002
DataValue, 2.6, 0.00016416
DataValue, 2.61, 0.00016560000000000001
DataValue, 2.62, 0.00016700000000000002
DataValue, 2.63, 0.00016842000000000002
DataValue, 2.64, 0.00016986
DataValue, 2.65, 0.00017128
DataValue, 2.66, 0.00017270000000000002
DataValue, 2.67, 0.00017414
DataValue, 2.68, 0.00017554000000000002
DataValue, 2.69, 0.00017696
DataValue, 2.7, 0.00017842000000000002
DataValue, 2.71, 0.00017984
DataValue, 2.72, 0.00018128
DataValue, 2.73, 0.00018270000000000002
DataValue, 2.74, 0.00018412000000000002
DataValue, 2.75, 0.00018556
DataValue, 2.7600000000000002, 0.00018698
DataValue, 2.77, 0.00018844
DataValue, 2.7800000000000002, 0.00018988000000000002
DataValue, 2.79, 0.00019132
DataValue, 2.8000000000000003, 0.00019276000000000002
DataValue, 2.81, 0.0001942
DataValue, 2.82, 0.00019564000000000002
DataValue, 2.83, 0.00019706000000000001
DataValue, 2.84, 0.00019854
DataValue, 2.85, 0.0002
DataValue, 2.86, 0.00020146
DataValue, 2.87, 0.00020290000000000003
DataValue, 2.88, 0.00020432000000000002
DataValue, 2.89, 0.00020576
DataValue, 2.9, 0.00020722
DataValue, 2.91, 0.00020868000000000002
DataValue, 2.92, 0.00021014000000000002
DataValue, 2.93, 0.00021158
DataValue, 2.94, 0.00021304
DataValue, 2.95, 0.00021444000000000001
DataValue, 2.96, 0.00021590000000000002
DataValue, 2.97, 0.00021732
DataValue, 2.98, 0.0002188
DataValue, 2.99, 0.00022026
DataValue, 3, 0.00022172
DataValue, 3.0100000000000002, 0.00022316000000000003
DataValue, 3.02, 0.00022462
DataValue, 3.0300000000000002, 0.00022608
DataValue, 3.04, 0.00022752000000000002
DataValue, 3.0500000000000003, 0.000229
DataValue, 3.06, 0.00023046
DataValue, 3.0700000000000003, 0.00023194
DataValue, 3.08, 0.00023338000000000002
DataValue, 3.09, 0.00023484000000000002
DataValue, 3.1, 0.00023628
DataValue, 3.11, 0.00023776000000000003
DataValue, 3.12, 0.00023924000000000002
DataValue, 3.13, 0.00024070000000000002
DataValue, 3.14, 0.00024214
DataValue, 3.15, 0.0002436
DataValue, 3.16, 0.00024506
DataValue, 3.17, 0.00024652
DataValue, 3.18, 0.00024796000000000003
DataValue, 3.19, 0.00024948
DataValue, 3.2, 0.00025096
DataValue, 3.21, 0.00025242
DataValue, 3.22, 0.00025384
DataValue, 3.23, 0.0002553
DataValue, 3.24, 0.00025678
DataValue, 3.25, 0.00025824
DataValue, 3.2600000000000002, 0.00025966
DataValue, 3.27, 0.00026114000000000004
DataValue, 3.2800000000000002, 0.00026260000000000004
DataValue, 3.29, 0.00026408000000000003
DataValue, 3.3000000000000003, 0.00026552
DataValue, -0.5, 1.9550000000000003E-11
DataValue, -0.49, 7.27E-12
DataValue, -0.48, 1.0440000000000002E-11
DataValue, -0.47000000000000003, 1.24E-11
DataValue, -0.46, 2.29E-12
DataValue, -0.45, 1.81E-11
DataValue, -0.44, 9.68E-12
DataValue, -0.43, 9.88E-12
DataValue, -0.42, 1.4460000000000001E-11
DataValue, -0.41000000000000003, 9.3E-13
DataValue, -0.4, 1.51E-11
DataValue, -0.39, 1.016E-11
DataValue, -0.38, 9.07E-12
DataValue, -0.37, 1.708E-11
DataValue, -0.36, 1.23E-12
DataValue, -0.35000000000000003, 1.3550000000000001E-11
DataValue, -0.34, 1.0020000000000001E-11
DataValue, -0.33, 8.15E-12
DataValue, -0.32, 1.797E-11
