
SetupTitle, NMOS-id-vd-vgs@vbs=-3.3
PrimitiveTest, I/V Sweep
TestParameter, Context.MainFrame, B1500A
TestParameter, Channel.UnitType, SMU, SMU, SMU, SMU
TestParameter, Channel.Unit, SMU2:HR, SMU1:HR, SMU3:HR, SMU4:HR
TestParameter, Channel.IName, ib, is, ig, id
TestParameter, Channel.VName, vb, vs, vg, vd
TestParameter, Channel.Mode, V, COMMON, V, V
TestParameter, Channel.Func, CONST, CONST, VAR2, VAR1
TestParameter, Channel.Index, 
TestParameter, Channel.Time, 
TestParameter, Measurement.Port.Unit, SMU2:HR, SMU1:HR, SMU3:HR, SMU4:HR
TestParameter, Measurement.Port.SeriesResistor, NONE, NONE, NONE, NONE
TestParameter, Measurement.Port.Filter, ON, ON, ON, ON
TestParameter, Measurement.Port.OutputVoltageComparison, 0, 0, 0, 0
TestParameter, Measurement.Primary.Locus, Single
TestParameter, Measurement.Primary.Scale, LINEAR
TestParameter, Measurement.Primary.Start, 0
TestParameter, Measurement.Primary.Stop, 3.3000000000000003
TestParameter, Measurement.Primary.Step, 0.01
TestParameter, Measurement.Primary.Compliance, 0.1
TestParameter, Measurement.Primary.PowerCompliance, 0
TestParameter, Measurement.Aborting.Condition, SKIP AT ANY ABNORMAL
TestParameter, Measurement.PostOutput.Value, START
TestParameter, Measurement.PostOutput.Retention, OFF
TestParameter, Measurement.Secondary.Start, 0.3
TestParameter, Measurement.Secondary.Count, 6
TestParameter, Measurement.Secondary.Step, 0.6
TestParameter, Measurement.Secondary.Compliance, 0.1
TestParameter, Measurement.Secondary.PowerCompliance, 0
TestParameter, Measurement.Bias.Source, -3.3000000000000003, 0, 0.3, 0
TestParameter, Measurement.Bias.Compliance, 0.1, 0.1, 0.1, 0.1
TestParameter, Measurement.Monitor.Unit, SMU2:HR, SMU1:HR, SMU3:HR, SMU4:HR
TestParameter, Measurement.Monitor.Adc, HR ADC, HR ADC, HR ADC, HR ADC
TestParameter, Measurement.Monitor.Measurement, Compliance Side, Compliance Side, Compliance Side, Compliance Side
TestParameter, Measurement.Monitor.RangingMode, LIMITED, LIMITED, LIMITED, LIMITED
TestParameter, Measurement.Monitor.RangeBoundary, 1nA, 1nA, 1nA, 1nA
TestParameter, Measurement.Monitor.RangeRating, BY FULL RANGE, BY FULL RANGE, BY FULL RANGE, BY FULL RANGE
TestParameter, Measurement.Monitor.RangeRatingCoeff, 50, 50, 50, 50
TestParameter, Measurement.Timing.Hold, 0
TestParameter, Measurement.Timing.Delay, 0
TestParameter, Measurement.Adc.HighSpeed.Mode, AUTO
TestParameter, Measurement.Adc.HighSpeed.Coeff, 1
TestParameter, Measurement.Adc.HighResolution.AutoZero, OFF
TestParameter, Measurement.Adc.HighResolution.Mode, AUTO
TestParameter, Measurement.Adc.HighResolution.Coeff, 6
TestParameter, Measurement.WaitTime.Source.Coeff, 1
TestParameter, Measurement.WaitTime.Source.Offset, 0
TestParameter, Measurement.WaitTime.Monitor.Coeff, 1
TestParameter, Measurement.WaitTime.Monitor.Offset, 0
TestParameter, Output.Graph.Enabled, true
TestParameter, Output.Graph.AutoScaling, false
TestParameter, Output.Graph.XAxis.Data, vd
TestParameter, Output.Graph.XAxis.Scale, Linear
TestParameter, Output.Graph.XAxis.Left, 0
TestParameter, Output.Graph.XAxis.Right, 1
TestParameter, Output.Graph.XAxis.RunTimeAutoScale, true
TestParameter, Output.Graph.YAxis.Data, id
TestParameter, Output.Graph.YAxis.Scale, Linear
TestParameter, Output.Graph.YAxis.Bottom, -0.1
TestParameter, Output.Graph.YAxis.Top, 0.1
TestParameter, Output.Graph.YAxis.Group, 
TestParameter, Output.Graph.YAxis.RunTimeAutoScale, true
TestParameter, AutoAnalysis.Interpolation, false
TestParameter, AutoAnalysis.Var2StepCount, 1
TestParameter, AutoAnalysis.Var2StepScript, 
TestParameter, AutoAnalysis.Line1.Enabled, false
TestParameter, AutoAnalysis.Line1.Type, 1
TestParameter, AutoAnalysis.Line1.Fix, True
TestParameter, AutoAnalysis.Line1.YAxis, 0
TestParameter, AutoAnalysis.Line1.Point1.Type, 0
TestParameter, AutoAnalysis.Line1.Point1.XY.X, 
TestParameter, AutoAnalysis.Line1.Point1.XY.Y, 
TestParameter, AutoAnalysis.Line1.Point1.Data.Var, 
TestParameter, AutoAnalysis.Line1.Point1.Data.Condition, 
TestParameter, AutoAnalysis.Line1.Point1.Data.Start, false
TestParameter, AutoAnalysis.Line1.Point1.Data.StartVar, 
TestParameter, AutoAnalysis.Line1.Point1.Data.StartCondition, 
TestParameter, AutoAnalysis.Line1.Point2.Type, 0
TestParameter, AutoAnalysis.Line1.Point2.XY.X, 
TestParameter, AutoAnalysis.Line1.Point2.XY.Y, 
TestParameter, AutoAnalysis.Line1.Point2.Data.Var, 
TestParameter, AutoAnalysis.Line1.Point2.Data.Condition, 
TestParameter, AutoAnalysis.Line1.Point2.Data.Start, false
TestParameter, AutoAnalysis.Line1.Point2.Data.StartVar, 
TestParameter, AutoAnalysis.Line1.Point2.Data.StartCondition, 
TestParameter, AutoAnalysis.Line1.GradientExpr, 0
TestParameter, AutoAnalysis.Line2.Enabled, false
TestParameter, AutoAnalysis.Line2.Type, 1
TestParameter, AutoAnalysis.Line2.Fix, True
TestParameter, AutoAnalysis.Line2.YAxis, 0
TestParameter, AutoAnalysis.Line2.Point1.Type, 0
TestParameter, AutoAnalysis.Line2.Point1.XY.X, 
TestParameter, AutoAnalysis.Line2.Point1.XY.Y, 
TestParameter, AutoAnalysis.Line2.Point1.Data.Var, 
TestParameter, AutoAnalysis.Line2.Point1.Data.Condition, 
TestParameter, AutoAnalysis.Line2.Point1.Data.Start, false
TestParameter, AutoAnalysis.Line2.Point1.Data.StartVar, 
TestParameter, AutoAnalysis.Line2.Point1.Data.StartCondition, 
TestParameter, AutoAnalysis.Line2.Point2.Type, 0
TestParameter, AutoAnalysis.Line2.Point2.XY.X, 
TestParameter, AutoAnalysis.Line2.Point2.XY.Y, 
TestParameter, AutoAnalysis.Line2.Point2.Data.Var, 
TestParameter, AutoAnalysis.Line2.Point2.Data.Condition, 
TestParameter, AutoAnalysis.Line2.Point2.Data.Start, false
TestParameter, AutoAnalysis.Line2.Point2.Data.StartVar, 
TestParameter, AutoAnalysis.Line2.Point2.Data.StartCondition, 
TestParameter, AutoAnalysis.Line2.GradientExpr, 0
TestParameter, AutoAnalysis.Marker.Enabled, false
TestParameter, AutoAnalysis.Marker.Data.Var, 
TestParameter, AutoAnalysis.Marker.Data.Condition, 
TestParameter, AutoAnalysis.Marker.Data.Start, false
TestParameter, AutoAnalysis.Marker.Data.StartVar, 
TestParameter, AutoAnalysis.Marker.Data.StartCondition, 
MetaData, TestRecord.EntryPoint, true
MetaData, TestRecord.RecordTime, 01/16/2024 15:52:49
MetaData, TestRecord.TestTarget, N-1-1-298K
MetaData, TestRecord.IterationIndex, 19
MetaData, TestRecord.Preservation, true
MetaData, TestRecord.Flag, 
MetaData, TestRecord.Remarks, 
MetaData, TestRecord.LinkKey, 0337bdb7-e96c-4666-8c00-2765be4b4a70
MetaData, TestRecord.Parameters, 
Dimension1, 331, 331
Dimension2, 6, 6
DataName, vd, id
DataValue, 0, 1.51E-11
DataValue, 0.01, 2.41E-12
DataValue, 0.02, 1.723E-11
DataValue, 0.03, 1.2800000000000002E-12
DataValue, 0.04, 1.845E-11
DataValue, 0.05, 4.5000000000000005E-13
DataValue, 0.06, 1.845E-11
DataValue, 0.07, 5E-13
DataValue, 0.08, 1.845E-11
DataValue, 0.09, 6.2000000000000008E-13
DataValue, 0.1, 1.732E-11
DataValue, 0.11, 2.5600000000000004E-12
DataValue, 0.12, 1.466E-11
DataValue, 0.13, 6.09E-12
DataValue, 0.14, 1.2480000000000002E-11
DataValue, 0.15, 8.2700000000000009E-12
DataValue, 0.16, 1.0720000000000001E-11
DataValue, 0.17, 9.14E-12
DataValue, 0.18, 1.025E-11
DataValue, 0.19, 9.53E-12
DataValue, 0.2, 9.76E-12
DataValue, 0.21, 9.3000000000000012E-12
DataValue, 0.22, 9.3800000000000008E-12
DataValue, 0.23, 9.5000000000000011E-12
DataValue, 0.24, 9.7300000000000016E-12
DataValue, 0.25, 9.6100000000000013E-12
DataValue, 0.26, 9.68E-12
DataValue, 0.27, 9.6900000000000009E-12
DataValue, 0.28, 9.190000000000001E-12
DataValue, 0.29, 1.128E-11
DataValue, 0.3, 8.56E-12
DataValue, 0.31, 1.18E-11
DataValue, 0.32, 6.41E-12
DataValue, 0.33, 1.4080000000000001E-11
DataValue, 0.34, 4.3500000000000006E-12
DataValue, 0.35000000000000003, 1.6E-11
DataValue, 0.36, 2.6100000000000004E-12
DataValue, 0.37, 1.7400000000000003E-11
DataValue, 0.38, 1.1900000000000002E-12
DataValue, 0.39, 1.9020000000000003E-11
DataValue, 0.4, 5.4E-13
DataValue, 0.41000000000000003, 1.8930000000000003E-11
DataValue, 0.42, 1.12E-12
DataValue, 0.43, 1.81E-11
DataValue, 0.44, 2.14E-12
DataValue, 0.45, 1.652E-11
DataValue, 0.46, 5.23E-12
DataValue, 0.47000000000000003, 1.341E-11
DataValue, 0.48, 7.84E-12
DataValue, 0.49, 1.1110000000000001E-11
DataValue, 0.5, 9.7300000000000016E-12
DataValue, 0.51, 1.047E-11
DataValue, 0.52, 9.67E-12
DataValue, 0.53, 1.015E-11
DataValue, 0.54, 9.87E-12
DataValue, 0.55, 1.0730000000000001E-11
DataValue, 0.56, 9.74E-12
DataValue, 0.57000000000000006, 1.0310000000000001E-11
DataValue, 0.58, 9.8200000000000014E-12
DataValue, 0.59, 1.0210000000000001E-11
DataValue, 0.6, 1.0230000000000001E-11
DataValue, 0.61, 9.54E-12
DataValue, 0.62, 1.0900000000000001E-11
DataValue, 0.63, 9.5900000000000009E-12
DataValue, 0.64, 1.1620000000000001E-11
DataValue, 0.65, 7.83E-12
DataValue, 0.66, 1.2750000000000001E-11
DataValue, 0.67, 5.99E-12
DataValue, 0.68, 1.452E-11
DataValue, 0.69000000000000006, 4.92E-12
DataValue, 0.70000000000000007, 1.372E-11
DataValue, 0.71, 5.5700000000000007E-12
DataValue, 0.72, 1.54E-11
DataValue, 0.73, 3.4000000000000005E-12
DataValue, 0.74, 1.7360000000000002E-11
DataValue, 0.75, 1.59E-12
DataValue, 0.76, 1.896E-11
DataValue, 0.77, 9.5E-13
DataValue, 0.78, 1.9240000000000003E-11
DataValue, 0.79, 1.26E-12
DataValue, 0.8, 1.8760000000000002E-11
DataValue, 0.81, 2.11E-12
DataValue, 0.82000000000000006, 1.724E-11
DataValue, 0.83000000000000007, 2.64E-12
DataValue, 0.84, 1.682E-11
DataValue, 0.85, 4.6100000000000008E-12
DataValue, 0.86, 1.466E-11
DataValue, 0.87, 7.6600000000000009E-12
DataValue, 0.88, 1.2460000000000001E-11
DataValue, 0.89, 9.66E-12
DataValue, 0.9, 1.0720000000000001E-11
DataValue, 0.91, 1.0090000000000001E-11
DataValue, 0.92, 1.087E-11
DataValue, 0.93, 1.0330000000000001E-11
DataValue, 0.94000000000000006, 1.067E-11
DataValue, 0.95000000000000007, 1.096E-11
DataValue, 0.96, 1.0510000000000001E-11
DataValue, 0.97, 1.1420000000000001E-11
DataValue, 0.98, 9.13E-12
DataValue, 0.99, 1.2680000000000002E-11
DataValue, 1, 7.9E-12
DataValue, 1.01, 1.383E-11
DataValue, 1.02, 6.4800000000000007E-12
DataValue, 1.03, 1.577E-11
DataValue, 1.04, 4.7600000000000007E-12
DataValue, 1.05, 1.7360000000000002E-11
DataValue, 1.06, 2.8E-12
DataValue, 1.07, 1.9020000000000003E-11
DataValue, 1.08, 1.8900000000000002E-12
DataValue, 1.09, 1.928E-11
DataValue, 1.1, 1.18E-12
DataValue, 1.11, 1.974E-11
DataValue, 1.12, 1.8700000000000003E-12
DataValue, 1.1300000000000001, 1.841E-11
DataValue, 1.1400000000000001, 4.07E-12
DataValue, 1.1500000000000001, 1.577E-11
DataValue, 1.16, 6.8800000000000006E-12
DataValue, 1.17, 1.4170000000000001E-11
DataValue, 1.18, 8.55E-12
DataValue, 1.19, 1.199E-11
DataValue, 1.2, 1.0240000000000002E-11
DataValue, 1.21, 1.118E-11
DataValue, 1.22, 1.0310000000000001E-11
DataValue, 1.23, 1.159E-11
DataValue, 1.24, 1.075E-11
DataValue, 1.25, 1.1610000000000001E-11
DataValue, 1.26, 1.1340000000000001E-11
DataValue, 1.27, 1.0530000000000001E-11
DataValue, 1.28, 1.1530000000000001E-11
DataValue, 1.29, 1.0000000000000001E-11
DataValue, 1.3, 1.252E-11
DataValue, 1.31, 8.76E-12
DataValue, 1.32, 1.371E-11
DataValue, 1.33, 7.51E-12
DataValue, 1.34, 1.5210000000000002E-11
DataValue, 1.35, 5.7E-12
DataValue, 1.36, 1.1750000000000001E-11
DataValue, 1.37, 1.027E-11
DataValue, 1.3800000000000001, 1.2320000000000001E-11
DataValue, 1.3900000000000001, 9.6200000000000014E-12
DataValue, 1.4000000000000001, 1.353E-11
DataValue, 1.41, 7.9600000000000008E-12
DataValue, 1.42, 1.5360000000000002E-11
DataValue, 1.43, 5.84E-12
DataValue, 1.44, 1.704E-11
DataValue, 1.45, 4.36E-12
DataValue, 1.46, 1.835E-11
DataValue, 1.47, 3.0400000000000004E-12
DataValue, 1.48, 1.832E-11
DataValue, 1.49, 2.9900000000000004E-12
DataValue, 1.5, 1.936E-11
DataValue, 1.51, 2.31E-12
DataValue, 1.52, 2.0090000000000002E-11
DataValue, 1.53, 2.3200000000000002E-12
DataValue, 1.54, 2.003E-11
DataValue, 1.55, 2.9300000000000002E-12
DataValue, 1.56, 1.932E-11
DataValue, 1.57, 4.08E-12
DataValue, 1.58, 1.726E-11
DataValue, 1.59, 7.1400000000000007E-12
DataValue, 1.6, 1.455E-11
DataValue, 1.61, 9.43E-12
DataValue, 1.62, 1.281E-11
DataValue, 1.6300000000000001, 1.1240000000000001E-11
DataValue, 1.6400000000000001, 1.177E-11
DataValue, 1.6500000000000001, 1.1220000000000001E-11
DataValue, 1.6600000000000001, 1.1820000000000001E-11
DataValue, 1.67, 1.139E-11
DataValue, 1.68, 1.158E-11
DataValue, 1.69, 1.1970000000000002E-11
DataValue, 1.7, 1.119E-11
DataValue, 1.71, 1.2840000000000001E-11
DataValue, 1.72, 9.84E-12
DataValue, 1.73, 1.4160000000000001E-11
DataValue, 1.74, 8.34E-12
DataValue, 1.75, 1.5760000000000002E-11
DataValue, 1.76, 6.8500000000000009E-12
DataValue, 1.77, 1.754E-11
DataValue, 1.78, 4.79E-12
DataValue, 1.79, 1.9400000000000002E-11
DataValue, 1.8, 3.38E-12
DataValue, 1.81, 2.0440000000000003E-11
DataValue, 1.82, 2.51E-12
DataValue, 1.83, 2.072E-11
DataValue, 1.84, 2.5600000000000004E-12
DataValue, 1.85, 2.0710000000000002E-11
DataValue, 1.86, 3.13E-12
DataValue, 1.87, 1.97E-11
DataValue, 1.8800000000000001, 3.18E-12
DataValue, 1.8900000000000001, 1.9860000000000003E-11
DataValue, 1.9000000000000001, 5.5700000000000007E-12
DataValue, 1.9100000000000001, 1.7250000000000002E-11
DataValue, 1.92, 8.54E-12
DataValue, 1.93, 1.4270000000000001E-11
DataValue, 1.94, 1.049E-11
DataValue, 1.95, 1.3180000000000002E-11
DataValue, 1.96, 1.168E-11
DataValue, 1.97, 1.2830000000000001E-11
DataValue, 1.98, 1.242E-11
DataValue, 1.99, 1.2170000000000002E-11
DataValue, 2, 1.2680000000000002E-11
DataValue, 2.0100000000000002, 1.2450000000000001E-11
DataValue, 2.02, 1.2940000000000001E-11
DataValue, 2.0300000000000002, 1.1720000000000001E-11
DataValue, 2.04, 1.353E-11
DataValue, 2.05, 9.95E-12
DataValue, 2.06, 1.5380000000000003E-11
DataValue, 2.07, 8.380000000000001E-12
DataValue, 2.08, 1.746E-11
DataValue, 2.09, 6.0800000000000008E-12
DataValue, 2.1, 1.952E-11
DataValue, 2.11, 4.47E-12
DataValue, 2.12, 2.0330000000000002E-11
DataValue, 2.13, 3.3E-12
DataValue, 2.14, 2.13E-11
DataValue, 2.15, 3.35E-12
DataValue, 2.16, 2.156E-11
DataValue, 2.17, 3.6800000000000005E-12
DataValue, 2.18, 2.0910000000000002E-11
DataValue, 2.19, 5.5E-12
DataValue, 2.2, 1.872E-11
DataValue, 2.21, 7.95E-12
DataValue, 2.22, 1.65E-11
DataValue, 2.23, 1.0210000000000001E-11
DataValue, 2.24, 1.453E-11
DataValue, 2.25, 1.228E-11
DataValue, 2.2600000000000002, 1.3360000000000001E-11
DataValue, 2.27, 1.2760000000000001E-11
DataValue, 2.2800000000000002, 1.322E-11
DataValue, 2.29, 1.2870000000000002E-11
DataValue, 2.3000000000000003, 1.3070000000000002E-11
DataValue, 2.31, 1.3260000000000001E-11
DataValue, 2.32, 1.291E-11
DataValue, 2.33, 1.383E-11
DataValue, 2.34, 1.16E-11
DataValue, 2.35, 1.4870000000000003E-11
DataValue, 2.36, 1.038E-11
DataValue, 2.37, 1.6E-11
DataValue, 2.38, 8.77E-12
DataValue, 2.39, 1.7980000000000002E-11
DataValue, 2.4, 1.047E-11
DataValue, 2.41, 1.631E-11
DataValue, 2.42, 8.6900000000000011E-12
DataValue, 2.43, 1.8440000000000003E-11
DataValue, 2.44, 6.31E-12
DataValue, 2.45, 2.0480000000000003E-11
DataValue, 2.46, 4.74E-12
DataValue, 2.47, 2.161E-11
DataValue, 2.48, 4.0400000000000006E-12
DataValue, 2.49, 2.212E-11
DataValue, 2.5, 4.5000000000000006E-12
DataValue, 2.5100000000000002, 2.1990000000000003E-11
DataValue, 2.52, 4.6400000000000004E-12
DataValue, 2.5300000000000002, 2.1680000000000003E-11
DataValue, 2.54, 6.2E-12
DataValue, 2.5500000000000003, 1.87E-11
DataValue, 2.56, 9.77E-12
DataValue, 2.57, 1.622E-11
DataValue, 2.58, 1.2020000000000001E-11
DataValue, 2.59, 1.4630000000000002E-11
DataValue, 2.6, 1.323E-11
DataValue, 2.61, 1.4560000000000003E-11
DataValue, 2.62, 1.3960000000000001E-11
DataValue, 2.63, 1.4360000000000001E-11
DataValue, 2.64, 1.3660000000000001E-11
DataValue, 2.65, 1.4270000000000001E-11
DataValue, 2.66, 1.3550000000000001E-11
DataValue, 2.67, 1.4260000000000001E-11
DataValue, 2.68, 1.391E-11
DataValue, 2.69, 1.4500000000000002E-11
DataValue, 2.7, 1.4070000000000001E-11
DataValue, 2.71, 1.4310000000000002E-11
DataValue, 2.72, 1.4450000000000001E-11
DataValue, 2.73, 1.3780000000000002E-11
DataValue, 2.74, 1.504E-11
DataValue, 2.75, 1.2630000000000001E-11
DataValue, 2.7600000000000002, 1.588E-11
DataValue, 2.77, 1.158E-11
DataValue, 2.7800000000000002, 1.759E-11
DataValue, 2.79, 9.33E-12
DataValue, 2.8000000000000003, 1.95E-11
DataValue, 2.81, 7.6E-12
DataValue, 2.82, 2.1370000000000003E-11
DataValue, 2.83, 5.8300000000000008E-12
DataValue, 2.84, 2.3430000000000003E-11
DataValue, 2.85, 6.4300000000000007E-12
DataValue, 2.86, 2.2570000000000003E-11
DataValue, 2.87, 5.19E-12
DataValue, 2.88, 2.3330000000000002E-11
DataValue, 2.89, 5.34E-12
DataValue, 2.9, 2.338E-11
DataValue, 2.91, 5.8700000000000006E-12
DataValue, 2.92, 2.3500000000000003E-11
DataValue, 2.93, 5.5100000000000006E-12
DataValue, 2.94, 2.3590000000000003E-11
DataValue, 2.95, 6.41E-12
DataValue, 2.96, 2.2040000000000002E-11
DataValue, 2.97, 8.580000000000001E-12
DataValue, 2.98, 1.9820000000000002E-11
DataValue, 2.99, 1.0950000000000002E-11
DataValue, 3, 1.7400000000000003E-11
DataValue, 3.0100000000000002, 1.1830000000000001E-11
DataValue, 3.02, 1.653E-11
DataValue, 3.0300000000000002, 1.4080000000000001E-11
DataValue, 3.04, 1.677E-11
DataValue, 3.0500000000000003, 1.4350000000000001E-11
DataValue, 3.06, 1.6200000000000003E-11
DataValue, 3.0700000000000003, 1.4410000000000002E-11
DataValue, 3.08, 1.5580000000000003E-11
DataValue, 3.09, 1.5010000000000002E-11
DataValue, 3.1, 1.56E-11
DataValue, 3.11, 1.5120000000000002E-11
DataValue, 3.12, 1.5720000000000002E-11
DataValue, 3.13, 1.528E-11
DataValue, 3.14, 1.5670000000000002E-11
DataValue, 3.15, 1.582E-11
DataValue, 3.16, 1.4940000000000002E-11
DataValue, 3.17, 1.626E-11
DataValue, 3.18, 1.4170000000000001E-11
DataValue, 3.19, 1.783E-11
DataValue, 3.2, 1.239E-11
DataValue, 3.21, 1.976E-11
DataValue, 3.22, 1.088E-11
DataValue, 3.23, 2.156E-11
DataValue, 3.24, 8.65E-12
DataValue, 3.25, 2.345E-11
DataValue, 3.2600000000000002, 7.1900000000000007E-12
DataValue, 3.27, 2.471E-11
DataValue, 3.2800000000000002, 6.7500000000000009E-12
DataValue, 3.29, 2.476E-11
DataValue, 3.3000000000000003, 7.3800000000000013E-12
DataValue, 0, 5.8100000000000005E-12
DataValue, 0.01, 1.0910000000000001E-11
DataValue, 0.02, 8.680000000000001E-12
DataValue, 0.03, 9.9900000000000009E-12
DataValue, 0.04, 9.05E-12
DataValue, 0.05, 9.98E-12
DataValue, 0.06, 9.3200000000000015E-12
DataValue, 0.07, 9.64E-12
DataValue, 0.08, 9.6200000000000014E-12
DataValue, 0.09, 9.55E-12
DataValue, 0.1, 1.0010000000000001E-11
DataValue, 0.11, 8.97E-12
DataValue, 0.12, 1.1130000000000001E-11
DataValue, 0.13, 7.53E-12
DataValue, 0.14, 1.2150000000000001E-11
DataValue, 0.15, 6.2200000000000006E-12
DataValue, 0.16, 1.4300000000000002E-11
DataValue, 0.17, 4.53E-12
DataValue, 0.18, 1.561E-11
DataValue, 0.19, 2.03E-12
DataValue, 0.2, 1.721E-11
DataValue, 0.21, 1.37E-12
DataValue, 0.22, 1.8760000000000002E-11
DataValue, 0.23, 6.2000000000000008E-13
DataValue, 0.24, 1.9020000000000003E-11
DataValue, 0.25, 3.1000000000000004E-13
DataValue, 0.26, 1.815E-11
DataValue, 0.27, 1.59E-12
DataValue, 0.28, 1.719E-11
DataValue, 0.29, 3.4400000000000003E-12
DataValue, 0.3, 1.444E-11
DataValue, 0.31, 6.56E-12
DataValue, 0.32, 1.464E-11
DataValue, 0.33, 7.3800000000000013E-12
DataValue, 0.34, 1.2020000000000001E-11
DataValue, 0.35000000000000003, 9.0900000000000011E-12
DataValue, 0.36, 1.0530000000000001E-11
DataValue, 0.37, 9.3100000000000013E-12
DataValue, 0.38, 1.0230000000000001E-11
DataValue, 0.39, 9.3000000000000012E-12
DataValue, 0.4, 1.0230000000000001E-11
DataValue, 0.41000000000000003, 9.67E-12
DataValue, 0.42, 1.039E-11
DataValue, 0.43, 9.67E-12
DataValue, 0.44, 9.9900000000000009E-12
DataValue, 0.45, 9.8900000000000009E-12
DataValue, 0.46, 1.006E-11
DataValue, 0.47000000000000003, 1.066E-11
DataValue, 0.48, 9.54E-12
DataValue, 0.49, 1.0730000000000001E-11
DataValue, 0.5, 8.33E-12
DataValue, 0.51, 1.1840000000000001E-11
DataValue, 0.52, 7.06E-12
DataValue, 0.53, 1.3750000000000001E-11
DataValue, 0.54, 5.7E-12
DataValue, 0.55, 1.5450000000000002E-11
DataValue, 0.56, 3.3400000000000003E-12
