
SetupTitle, NMOS-id-vd-vgs@vbs=-3.3
PrimitiveTest, I/V Sweep
TestParameter, Context.MainFrame, B1500A
TestParameter, Channel.UnitType, SMU, SMU, SMU, SMU
TestParameter, Channel.Unit, SMU2:HR, SMU1:HR, SMU3:HR, SMU4:HR
TestParameter, Channel.IName, ib, is, ig, id
TestParameter, Channel.VName, vb, vs, vg, vd
TestParameter, Channel.Mode, V, COMMON, V, V
TestParameter, Channel.Func, CONST, CONST, VAR2, VAR1
TestParameter, Channel.Index, 
TestParameter, Channel.Time, 
TestParameter, Measurement.Port.Unit, SMU2:HR, SMU1:HR, SMU3:HR, SMU4:HR
TestParameter, Measurement.Port.SeriesResistor, NONE, NONE, NONE, NONE
TestParameter, Measurement.Port.Filter, ON, ON, ON, ON
TestParameter, Measurement.Port.OutputVoltageComparison, 0, 0, 0, 0
TestParameter, Measurement.Primary.Locus, Single
TestParameter, Measurement.Primary.Scale, LINEAR
TestParameter, Measurement.Primary.Start, 0
TestParameter, Measurement.Primary.Stop, 3.3000000000000003
TestParameter, Measurement.Primary.Step, 0.01
TestParameter, Measurement.Primary.Compliance, 0.1
TestParameter, Measurement.Primary.PowerCompliance, 0
TestParameter, Measurement.Aborting.Condition, SKIP AT ANY ABNORMAL
TestParameter, Measurement.PostOutput.Value, START
TestParameter, Measurement.PostOutput.Retention, OFF
TestParameter, Measurement.Secondary.Start, 0.3
TestParameter, Measurement.Secondary.Count, 6
TestParameter, Measurement.Secondary.Step, 0.6
TestParameter, Measurement.Secondary.Compliance, 0.1
TestParameter, Measurement.Secondary.PowerCompliance, 0
TestParameter, Measurement.Bias.Source, -3.3000000000000003, 0, 0.3, 0
TestParameter, Measurement.Bias.Compliance, 0.1, 0.1, 0.1, 0.1
TestParameter, Measurement.Monitor.Unit, SMU2:HR, SMU1:HR, SMU3:HR, SMU4:HR
TestParameter, Measurement.Monitor.Adc, HR ADC, HR ADC, HR ADC, HR ADC
TestParameter, Measurement.Monitor.Measurement, Compliance Side, Compliance Side, Compliance Side, Compliance Side
TestParameter, Measurement.Monitor.RangingMode, LIMITED, LIMITED, LIMITED, LIMITED
TestParameter, Measurement.Monitor.RangeBoundary, 1nA, 1nA, 1nA, 1nA
TestParameter, Measurement.Monitor.RangeRating, BY FULL RANGE, BY FULL RANGE, BY FULL RANGE, BY FULL RANGE
TestParameter, Measurement.Monitor.RangeRatingCoeff, 50, 50, 50, 50
TestParameter, Measurement.Timing.Hold, 0
TestParameter, Measurement.Timing.Delay, 0
TestParameter, Measurement.Adc.HighSpeed.Mode, AUTO
TestParameter, Measurement.Adc.HighSpeed.Coeff, 1
TestParameter, Measurement.Adc.HighResolution.AutoZero, OFF
TestParameter, Measurement.Adc.HighResolution.Mode, AUTO
TestParameter, Measurement.Adc.HighResolution.Coeff, 6
TestParameter, Measurement.WaitTime.Source.Coeff, 1
TestParameter, Measurement.WaitTime.Source.Offset, 0
TestParameter, Measurement.WaitTime.Monitor.Coeff, 1
TestParameter, Measurement.WaitTime.Monitor.Offset, 0
TestParameter, Output.Graph.Enabled, true
TestParameter, Output.Graph.AutoScaling, false
TestParameter, Output.Graph.XAxis.Data, vd
TestParameter, Output.Graph.XAxis.Scale, Linear
TestParameter, Output.Graph.XAxis.Left, 0
TestParameter, Output.Graph.XAxis.Right, 1
TestParameter, Output.Graph.XAxis.RunTimeAutoScale, true
TestParameter, Output.Graph.YAxis.Data, id
TestParameter, Output.Graph.YAxis.Scale, Linear
TestParameter, Output.Graph.YAxis.Bottom, -0.1
TestParameter, Output.Graph.YAxis.Top, 0.1
TestParameter, Output.Graph.YAxis.Group, 
TestParameter, Output.Graph.YAxis.RunTimeAutoScale, true
TestParameter, AutoAnalysis.Interpolation, false
TestParameter, AutoAnalysis.Var2StepCount, 1
TestParameter, AutoAnalysis.Var2StepScript, 
TestParameter, AutoAnalysis.Line1.Enabled, false
TestParameter, AutoAnalysis.Line1.Type, 1
TestParameter, AutoAnalysis.Line1.Fix, True
TestParameter, AutoAnalysis.Line1.YAxis, 0
TestParameter, AutoAnalysis.Line1.Point1.Type, 0
TestParameter, AutoAnalysis.Line1.Point1.XY.X, 
TestParameter, AutoAnalysis.Line1.Point1.XY.Y, 
TestParameter, AutoAnalysis.Line1.Point1.Data.Var, 
TestParameter, AutoAnalysis.Line1.Point1.Data.Condition, 
TestParameter, AutoAnalysis.Line1.Point1.Data.Start, false
TestParameter, AutoAnalysis.Line1.Point1.Data.StartVar, 
TestParameter, AutoAnalysis.Line1.Point1.Data.StartCondition, 
TestParameter, AutoAnalysis.Line1.Point2.Type, 0
TestParameter, AutoAnalysis.Line1.Point2.XY.X, 
TestParameter, AutoAnalysis.Line1.Point2.XY.Y, 
TestParameter, AutoAnalysis.Line1.Point2.Data.Var, 
TestParameter, AutoAnalysis.Line1.Point2.Data.Condition, 
TestParameter, AutoAnalysis.Line1.Point2.Data.Start, false
TestParameter, AutoAnalysis.Line1.Point2.Data.StartVar, 
TestParameter, AutoAnalysis.Line1.Point2.Data.StartCondition, 
TestParameter, AutoAnalysis.Line1.GradientExpr, 0
TestParameter, AutoAnalysis.Line2.Enabled, false
TestParameter, AutoAnalysis.Line2.Type, 1
TestParameter, AutoAnalysis.Line2.Fix, True
TestParameter, AutoAnalysis.Line2.YAxis, 0
TestParameter, AutoAnalysis.Line2.Point1.Type, 0
TestParameter, AutoAnalysis.Line2.Point1.XY.X, 
TestParameter, AutoAnalysis.Line2.Point1.XY.Y, 
TestParameter, AutoAnalysis.Line2.Point1.Data.Var, 
TestParameter, AutoAnalysis.Line2.Point1.Data.Condition, 
TestParameter, AutoAnalysis.Line2.Point1.Data.Start, false
TestParameter, AutoAnalysis.Line2.Point1.Data.StartVar, 
TestParameter, AutoAnalysis.Line2.Point1.Data.StartCondition, 
TestParameter, AutoAnalysis.Line2.Point2.Type, 0
TestParameter, AutoAnalysis.Line2.Point2.XY.X, 
TestParameter, AutoAnalysis.Line2.Point2.XY.Y, 
TestParameter, AutoAnalysis.Line2.Point2.Data.Var, 
TestParameter, AutoAnalysis.Line2.Point2.Data.Condition, 
TestParameter, AutoAnalysis.Line2.Point2.Data.Start, false
TestParameter, AutoAnalysis.Line2.Point2.Data.StartVar, 
TestParameter, AutoAnalysis.Line2.Point2.Data.StartCondition, 
TestParameter, AutoAnalysis.Line2.GradientExpr, 0
TestParameter, AutoAnalysis.Marker.Enabled, false
TestParameter, AutoAnalysis.Marker.Data.Var, 
TestParameter, AutoAnalysis.Marker.Data.Condition, 
TestParameter, AutoAnalysis.Marker.Data.Start, false
TestParameter, AutoAnalysis.Marker.Data.StartVar, 
TestParameter, AutoAnalysis.Marker.Data.StartCondition, 
MetaData, TestRecord.EntryPoint, true
MetaData, TestRecord.RecordTime, 01/15/2024 18:58:52
MetaData, TestRecord.TestTarget, N-1-1-298K
MetaData, TestRecord.IterationIndex, 1
MetaData, TestRecord.Preservation, true
MetaData, TestRecord.Flag, 
MetaData, TestRecord.Remarks, 
MetaData, TestRecord.LinkKey, 63698178-0426-469c-908a-cf6a2cf0ecbf
MetaData, TestRecord.Parameters, 
Dimension1, 331, 331
Dimension2, 6, 6
DataName, vd, id
DataValue, 0, 1.633E-11
DataValue, 0.01, 6.1100000000000004E-12
DataValue, 0.02, 1.3070000000000002E-11
DataValue, 0.03, 8.5900000000000012E-12
DataValue, 0.04, 1.1340000000000001E-11
DataValue, 0.05, 9.94E-12
DataValue, 0.06, 1.0720000000000001E-11
DataValue, 0.07, 9.8100000000000012E-12
DataValue, 0.08, 1.1110000000000001E-11
DataValue, 0.09, 9.9900000000000009E-12
DataValue, 0.1, 1.065E-11
DataValue, 0.11, 1.0430000000000001E-11
DataValue, 0.12, 9.78E-12
DataValue, 0.13, 1.0020000000000001E-11
DataValue, 0.14, 1.049E-11
DataValue, 0.15, 1.066E-11
DataValue, 0.16, 1.038E-11
DataValue, 0.17, 1.0700000000000001E-11
DataValue, 0.18, 1.007E-11
DataValue, 0.19, 1.0200000000000001E-11
DataValue, 0.2, 1.0410000000000001E-11
DataValue, 0.21, 1.058E-11
DataValue, 0.22, 1.027E-11
DataValue, 0.23, 1.075E-11
DataValue, 0.24, 9.900000000000001E-12
DataValue, 0.25, 1.1440000000000001E-11
DataValue, 0.26, 9.14E-12
DataValue, 0.27, 1.219E-11
DataValue, 0.28, 8.24E-12
DataValue, 0.29, 1.3340000000000001E-11
DataValue, 0.3, 6.4E-12
DataValue, 0.31, 1.498E-11
DataValue, 0.32, 4.4900000000000005E-12
DataValue, 0.33, 1.664E-11
DataValue, 0.34, 3.2E-12
DataValue, 0.35000000000000003, 1.801E-11
DataValue, 0.36, 2.24E-12
DataValue, 0.37, 1.8840000000000003E-11
DataValue, 0.38, 1.4300000000000002E-12
DataValue, 0.39, 1.923E-11
DataValue, 0.4, 1.3500000000000001E-12
DataValue, 0.41000000000000003, 1.928E-11
DataValue, 0.42, 1.69E-12
DataValue, 0.43, 1.8620000000000003E-11
DataValue, 0.44, 3.53E-12
DataValue, 0.45, 1.668E-11
DataValue, 0.46, 5.9600000000000005E-12
DataValue, 0.47000000000000003, 1.4300000000000002E-11
DataValue, 0.48, 2.47E-12
DataValue, 0.49, 1.7450000000000002E-11
DataValue, 0.5, 4.58E-12
DataValue, 0.51, 1.5270000000000003E-11
DataValue, 0.52, 7.4800000000000012E-12
DataValue, 0.53, 1.8400000000000002E-11
DataValue, 0.54, 1.8700000000000003E-12
DataValue, 0.55, 1.957E-11
DataValue, 0.56, 1.4200000000000002E-12
DataValue, 0.57000000000000006, 1.901E-11
DataValue, 0.58, 2.6800000000000003E-12
DataValue, 0.59, 1.7250000000000002E-11
DataValue, 0.6, 5.1000000000000005E-12
DataValue, 0.61, 1.482E-11
DataValue, 0.62, 7.12E-12
DataValue, 0.63, 1.3150000000000001E-11
DataValue, 0.64, 9.27E-12
DataValue, 0.65, 1.188E-11
DataValue, 0.66, 1.058E-11
DataValue, 0.67, 1.137E-11
DataValue, 0.68, 1.0940000000000001E-11
DataValue, 0.69000000000000006, 1.1110000000000001E-11
DataValue, 0.70000000000000007, 1.0730000000000001E-11
DataValue, 0.71, 1.1340000000000001E-11
DataValue, 0.72, 1.059E-11
DataValue, 0.73, 1.12E-11
DataValue, 0.74, 1.0820000000000001E-11
DataValue, 0.75, 1.0710000000000001E-11
DataValue, 0.76, 1.137E-11
DataValue, 0.77, 9.97E-12
DataValue, 0.78, 1.1830000000000001E-11
DataValue, 0.79, 9.8900000000000009E-12
DataValue, 0.8, 1.3070000000000002E-11
DataValue, 0.81, 7.94E-12
DataValue, 0.82000000000000006, 1.46E-11
DataValue, 0.83000000000000007, 6.5200000000000005E-12
DataValue, 0.84, 1.6230000000000002E-11
DataValue, 0.85, 4.88E-12
DataValue, 0.86, 1.8220000000000003E-11
DataValue, 0.87, 3.56E-12
DataValue, 0.88, 1.9000000000000002E-11
DataValue, 0.89, 1.9200000000000003E-12
DataValue, 0.9, 2.008E-11
DataValue, 0.91, 1.7500000000000002E-12
DataValue, 0.92, 1.9860000000000003E-11
DataValue, 0.93, 1.8700000000000003E-12
DataValue, 0.94000000000000006, 1.999E-11
DataValue, 0.95000000000000007, 2.14E-12
DataValue, 0.96, 1.952E-11
DataValue, 0.97, 2.0200000000000003E-12
DataValue, 0.98, 2.01E-11
DataValue, 0.99, 1.7600000000000002E-12
DataValue, 1, 2.016E-11
DataValue, 1.01, 2.0200000000000003E-12
DataValue, 1.02, 1.9310000000000002E-11
DataValue, 1.03, 4.02E-12
DataValue, 1.04, 1.7160000000000002E-11
DataValue, 1.05, 6.7200000000000004E-12
DataValue, 1.06, 1.498E-11
DataValue, 1.07, 8.95E-12
DataValue, 1.08, 1.351E-11
DataValue, 1.09, 1.0410000000000001E-11
DataValue, 1.1, 1.2440000000000001E-11
DataValue, 1.11, 1.1030000000000001E-11
DataValue, 1.12, 1.22E-11
DataValue, 1.1300000000000001, 1.1360000000000002E-11
DataValue, 1.1400000000000001, 1.199E-11
DataValue, 1.1500000000000001, 1.1230000000000001E-11
DataValue, 1.16, 1.096E-11
DataValue, 1.17, 1.1410000000000001E-11
DataValue, 1.18, 1.1360000000000002E-11
DataValue, 1.19, 1.238E-11
DataValue, 1.2, 1.128E-11
DataValue, 1.21, 1.188E-11
DataValue, 1.22, 1.058E-11
DataValue, 1.23, 1.3E-11
DataValue, 1.24, 9.63E-12
DataValue, 1.25, 1.353E-11
DataValue, 1.26, 8.480000000000001E-12
DataValue, 1.27, 1.628E-11
DataValue, 1.28, 5.28E-12
DataValue, 1.29, 1.828E-11
DataValue, 1.3, 4.28E-12
DataValue, 1.31, 1.967E-11
DataValue, 1.32, 3.38E-12
DataValue, 1.33, 2.0510000000000002E-11
DataValue, 1.34, 2.79E-12
DataValue, 1.35, 2.0820000000000002E-11
DataValue, 1.36, 2.6600000000000004E-12
DataValue, 1.37, 2.0770000000000003E-11
DataValue, 1.3800000000000001, 4.3900000000000005E-12
DataValue, 1.3900000000000001, 1.8490000000000002E-11
DataValue, 1.4000000000000001, 6.36E-12
DataValue, 1.41, 1.6340000000000002E-11
DataValue, 1.42, 8.52E-12
DataValue, 1.43, 1.4500000000000002E-11
DataValue, 1.44, 1.0930000000000001E-11
DataValue, 1.45, 1.262E-11
DataValue, 1.46, 1.2020000000000001E-11
DataValue, 1.47, 1.2330000000000001E-11
DataValue, 1.48, 1.2160000000000002E-11
DataValue, 1.49, 1.26E-11
DataValue, 1.5, 1.2260000000000002E-11
DataValue, 1.51, 1.199E-11
DataValue, 1.52, 1.252E-11
DataValue, 1.53, 1.1210000000000001E-11
DataValue, 1.54, 1.353E-11
DataValue, 1.55, 1.059E-11
DataValue, 1.56, 1.4000000000000002E-11
DataValue, 1.57, 1.0130000000000002E-11
DataValue, 1.58, 1.5250000000000002E-11
DataValue, 1.59, 8.44E-12
DataValue, 1.6, 1.7160000000000002E-11
DataValue, 1.61, 6.8400000000000007E-12
DataValue, 1.62, 1.8400000000000002E-11
DataValue, 1.6300000000000001, 4.51E-12
DataValue, 1.6400000000000001, 2.065E-11
DataValue, 1.6500000000000001, 3.1900000000000003E-12
DataValue, 1.6600000000000001, 2.138E-11
DataValue, 1.67, 3.4400000000000003E-12
DataValue, 1.68, 2.141E-11
DataValue, 1.69, 3.5400000000000003E-12
DataValue, 1.7, 2.0130000000000002E-11
DataValue, 1.71, 5.2100000000000006E-12
DataValue, 1.72, 1.8640000000000003E-11
DataValue, 1.73, 7.7800000000000012E-12
DataValue, 1.74, 1.6290000000000003E-11
DataValue, 1.75, 1.0100000000000001E-11
DataValue, 1.76, 1.799E-11
DataValue, 1.77, 8.2900000000000012E-12
DataValue, 1.78, 1.6050000000000002E-11
DataValue, 1.79, 1.0900000000000001E-11
DataValue, 1.8, 1.3740000000000001E-11
DataValue, 1.81, 1.2050000000000001E-11
DataValue, 1.82, 1.363E-11
DataValue, 1.83, 1.271E-11
DataValue, 1.84, 1.2940000000000001E-11
DataValue, 1.85, 1.262E-11
DataValue, 1.86, 1.279E-11
DataValue, 1.87, 1.2750000000000001E-11
DataValue, 1.8800000000000001, 1.382E-11
DataValue, 1.8900000000000001, 1.252E-11
DataValue, 1.9000000000000001, 1.3480000000000002E-11
DataValue, 1.9100000000000001, 1.2990000000000002E-11
DataValue, 1.92, 1.2980000000000002E-11
DataValue, 1.93, 1.3380000000000002E-11
DataValue, 1.94, 1.279E-11
DataValue, 1.95, 1.3670000000000001E-11
DataValue, 1.96, 1.238E-11
DataValue, 1.97, 1.3500000000000002E-11
DataValue, 1.98, 1.2430000000000001E-11
DataValue, 1.99, 1.4460000000000001E-11
DataValue, 2, 1.167E-11
DataValue, 2.0100000000000002, 1.4740000000000002E-11
DataValue, 2.02, 1.0720000000000001E-11
DataValue, 2.0300000000000002, 1.703E-11
DataValue, 2.04, 8.53E-12
DataValue, 2.05, 1.85E-11
DataValue, 2.06, 1.015E-11
DataValue, 2.07, 1.642E-11
DataValue, 2.08, 9.02E-12
DataValue, 2.09, 1.8490000000000002E-11
DataValue, 2.1, 7.55E-12
DataValue, 2.11, 1.9620000000000002E-11
DataValue, 2.12, 6.1600000000000004E-12
DataValue, 2.13, 2.161E-11
DataValue, 2.14, 4.88E-12
DataValue, 2.15, 2.1970000000000003E-11
DataValue, 2.16, 4.2400000000000005E-12
DataValue, 2.17, 2.2530000000000002E-11
DataValue, 2.18, 4.3900000000000005E-12
DataValue, 2.19, 2.223E-11
DataValue, 2.2, 4.38E-12
DataValue, 2.21, 2.2170000000000003E-11
DataValue, 2.22, 4.9600000000000007E-12
DataValue, 2.23, 2.189E-11
DataValue, 2.24, 6.9000000000000009E-12
DataValue, 2.25, 1.9490000000000002E-11
DataValue, 2.2600000000000002, 1.016E-11
DataValue, 2.27, 1.6380000000000003E-11
DataValue, 2.2800000000000002, 1.1960000000000002E-11
DataValue, 2.29, 1.508E-11
DataValue, 2.3000000000000003, 1.312E-11
DataValue, 2.31, 1.4560000000000003E-11
DataValue, 2.32, 1.363E-11
DataValue, 2.33, 1.4400000000000002E-11
DataValue, 2.34, 1.3860000000000001E-11
DataValue, 2.35, 1.454E-11
DataValue, 2.36, 1.4450000000000001E-11
DataValue, 2.37, 1.4310000000000002E-11
DataValue, 2.38, 1.458E-11
DataValue, 2.39, 1.3550000000000001E-11
DataValue, 2.4, 1.529E-11
DataValue, 2.41, 1.2630000000000001E-11
DataValue, 2.42, 1.591E-11
DataValue, 2.43, 1.1530000000000001E-11
DataValue, 2.44, 1.788E-11
DataValue, 2.45, 9.3800000000000008E-12
DataValue, 2.46, 2.012E-11
DataValue, 2.47, 7.75E-12
DataValue, 2.48, 2.1200000000000002E-11
DataValue, 2.49, 6.1700000000000006E-12
DataValue, 2.5, 2.316E-11
DataValue, 2.5100000000000002, 5.6100000000000005E-12
DataValue, 2.52, 2.3410000000000003E-11
DataValue, 2.5300000000000002, 5.2700000000000008E-12
DataValue, 2.54, 2.2750000000000002E-11
DataValue, 2.5500000000000003, 5.4200000000000007E-12
DataValue, 2.56, 2.2730000000000002E-11
DataValue, 2.57, 6.97E-12
DataValue, 2.58, 2.0710000000000002E-11
DataValue, 2.59, 1.026E-11
DataValue, 2.6, 1.832E-11
DataValue, 2.61, 1.2230000000000001E-11
DataValue, 2.62, 1.6450000000000002E-11
DataValue, 2.63, 1.4080000000000001E-11
DataValue, 2.64, 1.8440000000000003E-11
DataValue, 2.65, 8.46E-12
DataValue, 2.66, 2.038E-11
DataValue, 2.67, 1.0510000000000001E-11
DataValue, 2.68, 1.8690000000000002E-11
DataValue, 2.69, 1.249E-11
DataValue, 2.7, 2.1480000000000003E-11
DataValue, 2.71, 9.24E-12
DataValue, 2.72, 1.957E-11
DataValue, 2.73, 1.2020000000000001E-11
DataValue, 2.74, 1.761E-11
DataValue, 2.75, 1.424E-11
DataValue, 2.7600000000000002, 1.6E-11
DataValue, 2.77, 1.504E-11
DataValue, 2.7800000000000002, 1.588E-11
DataValue, 2.79, 1.53E-11
DataValue, 2.8000000000000003, 1.549E-11
DataValue, 2.81, 1.555E-11
DataValue, 2.82, 1.5140000000000002E-11
DataValue, 2.83, 1.599E-11
DataValue, 2.84, 1.479E-11
DataValue, 2.85, 1.683E-11
DataValue, 2.86, 1.3350000000000001E-11
DataValue, 2.87, 1.8020000000000003E-11
DataValue, 2.88, 1.2260000000000002E-11
DataValue, 2.89, 1.967E-11
DataValue, 2.9, 1.069E-11
DataValue, 2.91, 2.149E-11
DataValue, 2.92, 8.75E-12
DataValue, 2.93, 2.3010000000000003E-11
DataValue, 2.94, 7.2300000000000005E-12
DataValue, 2.95, 2.4570000000000002E-11
DataValue, 2.96, 6.4400000000000008E-12
DataValue, 2.97, 2.4850000000000003E-11
DataValue, 2.98, 6.7900000000000008E-12
DataValue, 2.99, 2.4790000000000002E-11
DataValue, 3, 7.22E-12
DataValue, 3.0100000000000002, 2.3740000000000003E-11
DataValue, 3.02, 6.97E-12
DataValue, 3.0300000000000002, 2.478E-11
DataValue, 3.04, 7.0300000000000005E-12
DataValue, 3.0500000000000003, 2.5150000000000002E-11
DataValue, 3.06, 7.0800000000000005E-12
DataValue, 3.0700000000000003, 2.482E-11
DataValue, 3.08, 7.9900000000000013E-12
DataValue, 3.09, 2.369E-11
DataValue, 3.1, 7.2800000000000013E-12
DataValue, 3.11, 2.5060000000000002E-11
DataValue, 3.12, 7.9E-12
DataValue, 3.13, 2.387E-11
DataValue, 3.14, 9.48E-12
DataValue, 3.15, 2.2700000000000003E-11
DataValue, 3.16, 1.231E-11
DataValue, 3.17, 1.992E-11
DataValue, 3.18, 1.462E-11
DataValue, 3.19, 1.8290000000000002E-11
DataValue, 3.2, 1.373E-11
DataValue, 3.21, 1.85E-11
DataValue, 3.22, 1.613E-11
DataValue, 3.23, 1.779E-11
DataValue, 3.24, 1.666E-11
DataValue, 3.25, 1.753E-11
DataValue, 3.2600000000000002, 1.7290000000000002E-11
DataValue, 3.27, 1.786E-11
DataValue, 3.2800000000000002, 1.6960000000000002E-11
DataValue, 3.29, 1.754E-11
DataValue, 3.3000000000000003, 1.7160000000000002E-11
DataValue, 0, 1.279E-11
DataValue, 0.01, 8.77E-12
DataValue, 0.02, 1.0700000000000001E-11
DataValue, 0.03, 9.77E-12
DataValue, 0.04, 1.0800000000000001E-11
DataValue, 0.05, 9.96E-12
DataValue, 0.06, 1.049E-11
DataValue, 0.07, 1.025E-11
DataValue, 0.08, 1.0310000000000001E-11
DataValue, 0.09, 1.065E-11
DataValue, 0.1, 9.94E-12
DataValue, 0.11, 1.087E-11
DataValue, 0.12, 9.36E-12
DataValue, 0.13, 1.17E-11
DataValue, 0.14, 8.53E-12
DataValue, 0.15, 1.25E-11
DataValue, 0.16, 6.6E-12
DataValue, 0.17, 1.423E-11
DataValue, 0.18, 5.4500000000000004E-12
DataValue, 0.19, 1.601E-11
DataValue, 0.2, 3.5400000000000003E-12
DataValue, 0.21, 1.7290000000000002E-11
DataValue, 0.22, 2.11E-12
DataValue, 0.23, 1.4960000000000002E-11
DataValue, 0.24, 4.63E-12
DataValue, 0.25, 1.653E-11
DataValue, 0.26, 2.4800000000000003E-12
DataValue, 0.27, 1.8380000000000002E-11
DataValue, 0.28, 1.8700000000000003E-12
DataValue, 0.29, 1.8820000000000003E-11
DataValue, 0.3, 1.12E-12
DataValue, 0.31, 1.9730000000000003E-11
DataValue, 0.32, 1.4200000000000002E-12
DataValue, 0.33, 1.943E-11
DataValue, 0.34, 9.6000000000000015E-13
DataValue, 0.35000000000000003, 1.9530000000000003E-11
DataValue, 0.36, 1.59E-12
DataValue, 0.37, 1.8950000000000003E-11
DataValue, 0.38, 2.7100000000000004E-12
DataValue, 0.39, 1.7670000000000002E-11
DataValue, 0.4, 4.1400000000000005E-12
DataValue, 0.41000000000000003, 1.58E-11
DataValue, 0.42, 6.8800000000000006E-12
DataValue, 0.43, 1.3E-11
DataValue, 0.44, 8.65E-12
DataValue, 0.45, 1.137E-11
DataValue, 0.46, 8.77E-12
DataValue, 0.47000000000000003, 1.1970000000000002E-11
DataValue, 0.48, 9.68E-12
DataValue, 0.49, 1.12E-11
DataValue, 0.5, 1.038E-11
DataValue, 0.51, 1.137E-11
DataValue, 0.52, 1.1050000000000002E-11
DataValue, 0.53, 1.117E-11
DataValue, 0.54, 1.117E-11
DataValue, 0.55, 1.0530000000000001E-11
