
SetupTitle, NMOS-isub-vg-vds@vbs=0
PrimitiveTest, I/V Sweep
TestParameter, Context.MainFrame, B1500A
TestParameter, Channel.UnitType, SMU, SMU, SMU, SMU
TestParameter, Channel.Unit, SMU2:HR, SMU1:HR, SMU3:HR, SMU4:HR
TestParameter, Channel.IName, ib, is, ig, id
TestParameter, Channel.VName, vb, vs, vg, vd
TestParameter, Channel.Mode, V, COMMON, V, V
TestParameter, Channel.Func, CONST, CONST, VAR1, VAR2
TestParameter, Channel.Index, 
TestParameter, Channel.Time, 
TestParameter, Measurement.Port.Unit, SMU2:HR, SMU1:HR, SMU3:HR, SMU4:HR
TestParameter, Measurement.Port.SeriesResistor, NONE, NONE, NONE, NONE
TestParameter, Measurement.Port.Filter, ON, ON, ON, ON
TestParameter, Measurement.Port.OutputVoltageComparison, 0, 0, 0, 0
TestParameter, Measurement.Primary.Locus, Single
TestParameter, Measurement.Primary.Scale, LINEAR
TestParameter, Measurement.Primary.Start, 0
TestParameter, Measurement.Primary.Stop, 3.3000000000000003
TestParameter, Measurement.Primary.Step, 0.01
TestParameter, Measurement.Primary.Compliance, 0.001
TestParameter, Measurement.Primary.PowerCompliance, 0
TestParameter, Measurement.Aborting.Condition, SKIP AT ANY ABNORMAL
TestParameter, Measurement.PostOutput.Value, START
TestParameter, Measurement.PostOutput.Retention, OFF
TestParameter, Measurement.Secondary.Start, 0.3
TestParameter, Measurement.Secondary.Count, 6
TestParameter, Measurement.Secondary.Step, 0.6
TestParameter, Measurement.Secondary.Compliance, 0.1
TestParameter, Measurement.Secondary.PowerCompliance, 0
TestParameter, Measurement.Bias.Source, 0, 0, 0, 0.3
TestParameter, Measurement.Bias.Compliance, 0.1, 0.1, 0.001, 0.1
TestParameter, Measurement.Monitor.Unit, SMU2:HR, SMU1:HR, SMU3:HR, SMU4:HR
TestParameter, Measurement.Monitor.Adc, HR ADC, HR ADC, HR ADC, HR ADC
TestParameter, Measurement.Monitor.Measurement, Compliance Side, Compliance Side, Compliance Side, Compliance Side
TestParameter, Measurement.Monitor.RangingMode, LIMITED, LIMITED, LIMITED, LIMITED
TestParameter, Measurement.Monitor.RangeBoundary, 1nA, 1nA, 1nA, 1nA
TestParameter, Measurement.Monitor.RangeRating, BY FULL RANGE, BY FULL RANGE, BY FULL RANGE, BY FULL RANGE
TestParameter, Measurement.Monitor.RangeRatingCoeff, 50, 50, 50, 50
TestParameter, Measurement.Timing.Hold, 0
TestParameter, Measurement.Timing.Delay, 0
TestParameter, Measurement.Adc.HighSpeed.Mode, AUTO
TestParameter, Measurement.Adc.HighSpeed.Coeff, 1
TestParameter, Measurement.Adc.HighResolution.AutoZero, OFF
TestParameter, Measurement.Adc.HighResolution.Mode, AUTO
TestParameter, Measurement.Adc.HighResolution.Coeff, 6
TestParameter, Measurement.WaitTime.Source.Coeff, 1
TestParameter, Measurement.WaitTime.Source.Offset, 0
TestParameter, Measurement.WaitTime.Monitor.Coeff, 1
TestParameter, Measurement.WaitTime.Monitor.Offset, 0
TestParameter, Output.Graph.Enabled, true
TestParameter, Output.Graph.AutoScaling, false
TestParameter, Output.Graph.XAxis.Data, vg
TestParameter, Output.Graph.XAxis.Scale, Linear
TestParameter, Output.Graph.XAxis.Left, 0
TestParameter, Output.Graph.XAxis.Right, 0.9
TestParameter, Output.Graph.XAxis.RunTimeAutoScale, true
TestParameter, Output.Graph.YAxis.Data, ib
TestParameter, Output.Graph.YAxis.Scale, Linear
TestParameter, Output.Graph.YAxis.Bottom, -0.1
TestParameter, Output.Graph.YAxis.Top, 0.1
TestParameter, Output.Graph.YAxis.Group, 
TestParameter, Output.Graph.YAxis.RunTimeAutoScale, true
TestParameter, AutoAnalysis.Interpolation, false
TestParameter, AutoAnalysis.Var2StepCount, 1
TestParameter, AutoAnalysis.Var2StepScript, 
TestParameter, AutoAnalysis.Line1.Enabled, false
TestParameter, AutoAnalysis.Line1.Type, 1
TestParameter, AutoAnalysis.Line1.Fix, True
TestParameter, AutoAnalysis.Line1.YAxis, 0
TestParameter, AutoAnalysis.Line1.Point1.Type, 0
TestParameter, AutoAnalysis.Line1.Point1.XY.X, 
TestParameter, AutoAnalysis.Line1.Point1.XY.Y, 
TestParameter, AutoAnalysis.Line1.Point1.Data.Var, 
TestParameter, AutoAnalysis.Line1.Point1.Data.Condition, 
TestParameter, AutoAnalysis.Line1.Point1.Data.Start, false
TestParameter, AutoAnalysis.Line1.Point1.Data.StartVar, 
TestParameter, AutoAnalysis.Line1.Point1.Data.StartCondition, 
TestParameter, AutoAnalysis.Line1.Point2.Type, 0
TestParameter, AutoAnalysis.Line1.Point2.XY.X, 
TestParameter, AutoAnalysis.Line1.Point2.XY.Y, 
TestParameter, AutoAnalysis.Line1.Point2.Data.Var, 
TestParameter, AutoAnalysis.Line1.Point2.Data.Condition, 
TestParameter, AutoAnalysis.Line1.Point2.Data.Start, false
TestParameter, AutoAnalysis.Line1.Point2.Data.StartVar, 
TestParameter, AutoAnalysis.Line1.Point2.Data.StartCondition, 
TestParameter, AutoAnalysis.Line1.GradientExpr, 0
TestParameter, AutoAnalysis.Line2.Enabled, false
TestParameter, AutoAnalysis.Line2.Type, 1
TestParameter, AutoAnalysis.Line2.Fix, True
TestParameter, AutoAnalysis.Line2.YAxis, 0
TestParameter, AutoAnalysis.Line2.Point1.Type, 0
TestParameter, AutoAnalysis.Line2.Point1.XY.X, 
TestParameter, AutoAnalysis.Line2.Point1.XY.Y, 
TestParameter, AutoAnalysis.Line2.Point1.Data.Var, 
TestParameter, AutoAnalysis.Line2.Point1.Data.Condition, 
TestParameter, AutoAnalysis.Line2.Point1.Data.Start, false
TestParameter, AutoAnalysis.Line2.Point1.Data.StartVar, 
TestParameter, AutoAnalysis.Line2.Point1.Data.StartCondition, 
TestParameter, AutoAnalysis.Line2.Point2.Type, 0
TestParameter, AutoAnalysis.Line2.Point2.XY.X, 
TestParameter, AutoAnalysis.Line2.Point2.XY.Y, 
TestParameter, AutoAnalysis.Line2.Point2.Data.Var, 
TestParameter, AutoAnalysis.Line2.Point2.Data.Condition, 
TestParameter, AutoAnalysis.Line2.Point2.Data.Start, false
TestParameter, AutoAnalysis.Line2.Point2.Data.StartVar, 
TestParameter, AutoAnalysis.Line2.Point2.Data.StartCondition, 
TestParameter, AutoAnalysis.Line2.GradientExpr, 0
TestParameter, AutoAnalysis.Marker.Enabled, false
TestParameter, AutoAnalysis.Marker.Data.Var, 
TestParameter, AutoAnalysis.Marker.Data.Condition, 
TestParameter, AutoAnalysis.Marker.Data.Start, false
TestParameter, AutoAnalysis.Marker.Data.StartVar, 
TestParameter, AutoAnalysis.Marker.Data.StartCondition, 
MetaData, TestRecord.EntryPoint, true
MetaData, TestRecord.RecordTime, 01/15/2024 18:59:12
MetaData, TestRecord.TestTarget, N-1-1-298K
MetaData, TestRecord.IterationIndex, 1
MetaData, TestRecord.Preservation, true
MetaData, TestRecord.Flag, 
MetaData, TestRecord.Remarks, 
MetaData, TestRecord.LinkKey, cd05892f-1d08-4251-9e9b-6e1d8bd62981
MetaData, TestRecord.Parameters, 
Dimension1, 331, 331
Dimension2, 6, 6
DataName, vg, ib
DataValue, 0, -2.1128000000000002E-10
DataValue, 0.01, -1.6862E-10
DataValue, 0.02, -6.435E-11
DataValue, 0.03, -2.1900000000000002E-10
DataValue, 0.04, -2.0035E-10
DataValue, 0.05, -8.074000000000001E-11
DataValue, 0.06, -1.5052000000000001E-10
DataValue, 0.07, -2.1588E-10
DataValue, 0.08, -8.36E-11
DataValue, 0.09, -2.5133E-10
DataValue, 0.1, -2.0665E-10
DataValue, 0.11, -3.4980000000000005E-11
DataValue, 0.12, -2.8880000000000003E-10
DataValue, 0.13, -1.4558E-10
DataValue, 0.14, -1.0870000000000001E-10
DataValue, 0.15, -3.1139000000000005E-10
DataValue, 0.16, -1.1568000000000001E-10
DataValue, 0.17, -1.3369E-10
DataValue, 0.18, -2.3404E-10
DataValue, 0.19, -1.6794000000000002E-10
DataValue, 0.2, -1.0692E-10
DataValue, 0.21, -1.9232000000000001E-10
DataValue, 0.22, -2.2646E-10
DataValue, 0.23, -8.8790000000000011E-11
DataValue, 0.24, -1.8814E-10
DataValue, 0.25, -2.4792E-10
DataValue, 0.26, -4.898E-11
DataValue, 0.27, -1.425E-10
DataValue, 0.28, -3.0689E-10
DataValue, 0.29, -7.8750000000000012E-11
DataValue, 0.3, -1.3828E-10
DataValue, 0.31, -3.1819E-10
DataValue, 0.32, -1.2159000000000002E-10
DataValue, 0.33, -1.0581000000000001E-10
DataValue, 0.34, -2.4064E-10
DataValue, 0.35000000000000003, -1.849E-10
DataValue, 0.36, -9.2240000000000009E-11
DataValue, 0.37, -1.3129000000000002E-10
DataValue, 0.38, -2.4732000000000003E-10
DataValue, 0.39, -7.791E-11
DataValue, 0.4, -1.4481000000000002E-10
DataValue, 0.41000000000000003, -2.781E-10
DataValue, 0.42, -1.1726000000000002E-10
DataValue, 0.43, -1.0472000000000001E-10
DataValue, 0.44, -3.1108000000000003E-10
DataValue, 0.45, -8.707E-11
DataValue, 0.46, -1.0523000000000001E-10
DataValue, 0.47000000000000003, -1.4274000000000002E-10
DataValue, 0.48, -8.3440000000000011E-11
DataValue, 0.49, -2.5605E-10
DataValue, 0.5, -1.8575E-10
DataValue, 0.51, -1.0421000000000001E-10
DataValue, 0.52, -2.1514000000000002E-10
DataValue, 0.53, -1.8457000000000002E-10
DataValue, 0.54, -7.7760000000000011E-11
DataValue, 0.55, -2.9163E-10
DataValue, 0.56, -1.6877E-10
DataValue, 0.57000000000000006, -7.116E-11
DataValue, 0.58, -2.8263000000000004E-10
DataValue, 0.59, -2.0825E-10
DataValue, 0.6, -7.711E-11
DataValue, 0.61, -2.7629000000000004E-10
DataValue, 0.62, -1.2368E-10
DataValue, 0.63, -1.0471E-10
DataValue, 0.64, -2.3717E-10
DataValue, 0.65, -1.9604E-10
DataValue, 0.66, -7.7650000000000011E-11
DataValue, 0.67, -1.5619E-10
DataValue, 0.68, -2.5153E-10
DataValue, 0.69000000000000006, -1.0649000000000001E-10
DataValue, 0.70000000000000007, -5.95E-11
DataValue, 0.71, -2.9084E-10
DataValue, 0.72, -1.5690000000000002E-10
DataValue, 0.73, -1.2024000000000002E-10
DataValue, 0.74, -3.0565E-10
DataValue, 0.75, -5.3400000000000004E-11
DataValue, 0.76, -1.2093000000000002E-10
DataValue, 0.77, -2.9184E-10
DataValue, 0.78, -1.2321E-10
DataValue, 0.79, -9.589E-11
DataValue, 0.8, -2.2932000000000002E-10
DataValue, 0.81, -1.9259E-10
DataValue, 0.82000000000000006, -7.848000000000001E-11
DataValue, 0.83000000000000007, -1.2757E-10
DataValue, 0.84, -2.3448E-10
DataValue, 0.85, -8.5600000000000007E-11
DataValue, 0.86, -8.427000000000001E-11
DataValue, 0.87, -2.7901E-10
DataValue, 0.88, -1.3879000000000002E-10
DataValue, 0.89, -9.3E-11
DataValue, 0.9, -2.2123000000000002E-10
DataValue, 0.91, -6.268000000000001E-11
DataValue, 0.92, -2.5027E-10
DataValue, 0.93, -1.2630000000000002E-10
DataValue, 0.94000000000000006, -9.880000000000001E-11
DataValue, 0.95000000000000007, -2.6188000000000003E-10
DataValue, 0.96, -1.7148E-10
DataValue, 0.97, -1.1525E-10
DataValue, 0.98, -2.5071E-10
DataValue, 0.99, -1.6244E-10
DataValue, 1, -6.077E-11
DataValue, 1.01, -3.0421000000000003E-10
DataValue, 1.02, -1.5310000000000002E-10
DataValue, 1.03, -9.323000000000001E-11
DataValue, 1.04, -3.0206000000000004E-10
DataValue, 1.05, -1.0277000000000001E-10
DataValue, 1.06, -1.0002000000000001E-10
DataValue, 1.07, -2.6626E-10
DataValue, 1.08, -1.3464E-10
DataValue, 1.09, -6.836000000000001E-11
DataValue, 1.1, -1.9132000000000002E-10
DataValue, 1.11, -2.08E-10
DataValue, 1.12, -9.1330000000000009E-11
DataValue, 1.1300000000000001, -1.4909E-10
DataValue, 1.1400000000000001, -2.6785E-10
DataValue, 1.1500000000000001, -1.4561E-10
DataValue, 1.16, -6.593E-11
DataValue, 1.17, -3.0057000000000003E-10
DataValue, 1.18, -1.9904000000000002E-10
DataValue, 1.19, -3.82E-12
DataValue, 1.2, -2.6939000000000004E-10
DataValue, 1.21, -2.2612000000000002E-10
DataValue, 1.22, -5.23E-11
DataValue, 1.23, -2.0087000000000003E-10
DataValue, 1.24, -2.2427000000000002E-10
DataValue, 1.25, -6.625E-11
DataValue, 1.26, -1.8335000000000002E-10
DataValue, 1.27, -2.054E-10
DataValue, 1.28, -1.0020000000000001E-10
DataValue, 1.29, -1.5356E-10
DataValue, 1.3, -1.8325000000000001E-10
DataValue, 1.31, -8.4300000000000009E-11
DataValue, 1.32, -2.8861E-10
DataValue, 1.33, -1.6878E-10
DataValue, 1.34, -8.74E-11
DataValue, 1.35, -3.0317E-10
DataValue, 1.36, -5.7640000000000007E-11
DataValue, 1.37, -1.3474000000000002E-10
DataValue, 1.3800000000000001, -2.9803E-10
DataValue, 1.3900000000000001, -9.8420000000000008E-11
DataValue, 1.4000000000000001, -1.5002000000000002E-10
DataValue, 1.41, -2.0608000000000003E-10
DataValue, 1.42, -9.3290000000000008E-11
DataValue, 1.43, -1.5622E-10
DataValue, 1.44, -2.5537E-10
DataValue, 1.45, -7.801000000000001E-11
DataValue, 1.46, -1.3538E-10
DataValue, 1.47, -2.4764000000000004E-10
DataValue, 1.48, -1.544E-11
DataValue, 1.49, -1.6529E-10
DataValue, 1.5, -2.9064000000000004E-10
DataValue, 1.51, -2.2840000000000002E-11
DataValue, 1.52, -2.0632000000000002E-10
DataValue, 1.53, -1.5179E-10
DataValue, 1.54, -7.1840000000000007E-11
DataValue, 1.55, -2.306E-10
DataValue, 1.56, -1.9665000000000001E-10
DataValue, 1.57, -8.1290000000000011E-11
DataValue, 1.58, -1.7028E-10
DataValue, 1.59, -2.0400000000000002E-10
DataValue, 1.6, -8.644E-11
DataValue, 1.61, -2.6585E-10
DataValue, 1.62, -1.8329000000000002E-10
DataValue, 1.6300000000000001, -4.6420000000000006E-11
DataValue, 1.6400000000000001, -2.9959000000000005E-10
DataValue, 1.6500000000000001, -9.916000000000001E-11
DataValue, 1.6600000000000001, -1.2103000000000002E-10
DataValue, 1.67, -3.1022000000000004E-10
DataValue, 1.68, -1.0854000000000001E-10
DataValue, 1.69, -1.3848000000000002E-10
DataValue, 1.7, -2.1319000000000002E-10
DataValue, 1.71, -1.3380000000000002E-10
DataValue, 1.72, -1.6099E-10
DataValue, 1.73, -2.564E-10
DataValue, 1.74, -7.794E-11
DataValue, 1.75, -1.3983000000000002E-10
DataValue, 1.76, -2.4684E-10
DataValue, 1.77, 2.2500000000000003E-12
DataValue, 1.78, -2.0143000000000002E-10
DataValue, 1.79, -2.3786E-10
DataValue, 1.8, -3.5560000000000004E-11
DataValue, 1.81, -2.2386000000000002E-10
DataValue, 1.82, -1.3386000000000002E-10
DataValue, 1.83, -6.353E-11
DataValue, 1.84, -1.9333000000000002E-10
DataValue, 1.85, -2.0512E-10
DataValue, 1.86, -7.712E-11
DataValue, 1.87, -1.5178000000000002E-10
DataValue, 1.8800000000000001, -2.4708000000000004E-10
DataValue, 1.8900000000000001, -8.36E-11
DataValue, 1.9000000000000001, -1.6685000000000002E-10
DataValue, 1.9100000000000001, -2.5949E-10
DataValue, 1.92, 9.07E-12
DataValue, 1.93, -1.8901E-10
DataValue, 1.94, -2.5716E-10
DataValue, 1.95, -2.4170000000000002E-11
DataValue, 1.96, -1.4309000000000002E-10
DataValue, 1.97, -2.9806E-10
DataValue, 1.98, -1.1121000000000001E-10
DataValue, 1.99, -1.1087000000000001E-10
DataValue, 2, -2.6731000000000003E-10
DataValue, 2.0100000000000002, -1.9093E-10
DataValue, 2.02, -8.3220000000000011E-11
DataValue, 2.0300000000000002, -1.4306000000000002E-10
DataValue, 2.04, -2.3376000000000003E-10
DataValue, 2.05, -6.769E-11
DataValue, 2.06, -1.2021000000000002E-10
DataValue, 2.07, -2.3891E-10
DataValue, 2.08, -7.817E-11
DataValue, 2.09, -1.2189E-10
DataValue, 2.1, -2.6375000000000005E-10
DataValue, 2.11, -4.137E-11
DataValue, 2.12, -1.3651E-10
DataValue, 2.13, -3.0520000000000004E-10
DataValue, 2.14, -1.1757000000000001E-10
DataValue, 2.15, -1.1586000000000001E-10
DataValue, 2.16, -2.7243E-10
DataValue, 2.17, -1.9227000000000003E-10
DataValue, 2.18, -8.632E-11
DataValue, 2.19, -1.5065000000000002E-10
DataValue, 2.2, -2.3634000000000003E-10
DataValue, 2.21, -6.6520000000000007E-11
DataValue, 2.22, -1.0898000000000001E-10
DataValue, 2.23, -2.3983000000000004E-10
DataValue, 2.24, -6.8860000000000008E-11
DataValue, 2.25, -1.3316E-10
DataValue, 2.2600000000000002, -2.8695000000000003E-10
DataValue, 2.27, -9.6010000000000013E-11
DataValue, 2.2800000000000002, -1.368E-10
DataValue, 2.29, -3.0458000000000005E-10
DataValue, 2.3000000000000003, -1.1460000000000001E-10
DataValue, 2.31, -9.0150000000000007E-11
DataValue, 2.32, -2.3698000000000004E-10
DataValue, 2.33, -1.9329E-10
DataValue, 2.34, -6.105E-11
DataValue, 2.35, -1.3727E-10
DataValue, 2.36, -2.5581E-10
DataValue, 2.37, -9.505000000000001E-11
DataValue, 2.38, -9.46E-11
DataValue, 2.39, -2.8793E-10
DataValue, 2.4, -1.4665E-10
DataValue, 2.41, -8.186E-11
DataValue, 2.42, -2.8048E-10
DataValue, 2.43, -1.3063000000000002E-10
DataValue, 2.44, -8.224E-11
DataValue, 2.45, -2.2763000000000002E-10
DataValue, 2.46, -1.2507000000000001E-10
DataValue, 2.47, -7.8980000000000008E-11
DataValue, 2.48, -2.0859000000000003E-10
DataValue, 2.49, -2.0234000000000002E-10
DataValue, 2.5, -7.918E-11
DataValue, 2.5100000000000002, -1.4849000000000002E-10
DataValue, 2.52, -2.6941E-10
DataValue, 2.5300000000000002, -1.2183E-10
DataValue, 2.54, -5.419E-11
DataValue, 2.5500000000000003, -2.9034E-10
DataValue, 2.56, -1.9173000000000002E-10
DataValue, 2.57, -3.929E-11
DataValue, 2.58, -2.4475E-10
DataValue, 2.59, -1.6819000000000002E-10
DataValue, 2.6, -6.7750000000000012E-11
DataValue, 2.61, -2.0506000000000001E-10
DataValue, 2.62, -1.6936000000000002E-10
DataValue, 2.63, -7.378E-11
DataValue, 2.64, -1.9187E-10
DataValue, 2.65, -2.0801000000000001E-10
DataValue, 2.66, -9.5790000000000012E-11
DataValue, 2.67, -1.4453000000000002E-10
DataValue, 2.68, -2.6625000000000004E-10
DataValue, 2.69, -1.3793E-10
DataValue, 2.7, -7.2720000000000008E-11
DataValue, 2.71, -2.6884E-10
DataValue, 2.72, -2.0560000000000002E-10
DataValue, 2.73, -3.744E-11
DataValue, 2.74, -2.4509000000000003E-10
DataValue, 2.75, -2.0408E-10
DataValue, 2.7600000000000002, -4.803E-11
DataValue, 2.77, -1.925E-10
DataValue, 2.7800000000000002, -1.3594E-10
DataValue, 2.79, -6.9000000000000007E-11
DataValue, 2.8000000000000003, -2.6267000000000003E-10
DataValue, 2.81, -1.4575000000000001E-10
DataValue, 2.82, -2.4044E-10
DataValue, 2.83, -6.4170000000000009E-11
DataValue, 2.84, -1.6475000000000003E-10
DataValue, 2.85, -2.2252000000000002E-10
DataValue, 2.86, 1.1050000000000002E-11
DataValue, 2.87, -2.2082000000000002E-10
DataValue, 2.88, -2.2395E-10
DataValue, 2.89, -5.856E-11
DataValue, 2.9, -2.4117E-10
DataValue, 2.91, -1.2507000000000001E-10
DataValue, 2.92, -9.416E-11
DataValue, 2.93, -2.6292E-10
DataValue, 2.94, -1.6776000000000002E-10
DataValue, 2.95, -1.0167000000000001E-10
DataValue, 2.96, -2.5260000000000004E-10
DataValue, 2.97, -1.5359E-10
DataValue, 2.98, -6.0010000000000008E-11
DataValue, 2.99, -3.0471000000000003E-10
DataValue, 3, -1.4427E-10
DataValue, 3.0100000000000002, -9.8960000000000013E-11
DataValue, 3.02, -2.9202000000000004E-10
DataValue, 3.0300000000000002, -1.1205E-10
DataValue, 3.04, -9.2740000000000008E-11
DataValue, 3.0500000000000003, -2.3076E-10
DataValue, 3.06, -1.4555E-10
DataValue, 3.0700000000000003, -7.5800000000000012E-11
DataValue, 3.08, -2.033E-10
DataValue, 3.09, -2.0090000000000003E-10
DataValue, 3.1, -8.05E-11
DataValue, 3.11, -1.5268E-10
DataValue, 3.12, -2.6862E-10
DataValue, 3.13, -1.5019E-10
DataValue, 3.14, -5.16E-11
DataValue, 3.15, -3.0199E-10
DataValue, 3.16, -1.7893000000000002E-10
DataValue, 3.17, -1.2770000000000002E-11
DataValue, 3.18, -2.3298E-10
DataValue, 3.19, -2.0999000000000002E-10
DataValue, 3.2, -4.534E-11
DataValue, 3.21, -2.3260000000000003E-10
DataValue, 3.22, -1.7691E-10
DataValue, 3.23, -7.075E-11
DataValue, 3.24, -1.4079E-10
DataValue, 3.25, -2.1014E-10
DataValue, 3.2600000000000002, -1.2666E-10
DataValue, 3.27, -1.2446E-10
DataValue, 3.2800000000000002, -2.6237E-10
DataValue, 3.29, -1.474E-10
DataValue, 3.3000000000000003, -8.451E-11
DataValue, 0, -1.8726E-10
DataValue, 0.01, -1.9387000000000002E-10
DataValue, 0.02, -6.874E-11
DataValue, 0.03, -2.5737E-10
DataValue, 0.04, -1.0629E-10
DataValue, 0.05, -1.0850000000000001E-10
DataValue, 0.06, -2.1108E-10
DataValue, 0.07, 8.6000000000000013E-12
DataValue, 0.08, -2.7778E-10
DataValue, 0.09, -6.821E-11
DataValue, 0.1, -1.3505000000000001E-10
DataValue, 0.11, -2.8407000000000003E-10
DataValue, 0.12, -6.6930000000000008E-11
DataValue, 0.13, -1.7477E-10
DataValue, 0.14, -1.9070000000000002E-10
DataValue, 0.15, -7.792E-11
DataValue, 0.16, -2.6431000000000004E-10
DataValue, 0.17, -9.4560000000000007E-11
DataValue, 0.18, -1.2716E-10
DataValue, 0.19, -2.0984000000000002E-10
DataValue, 0.2, 7.9000000000000007E-13
DataValue, 0.21, -2.5526E-10
DataValue, 0.22, -9.068E-11
DataValue, 0.23, -1.201E-10
DataValue, 0.24, -2.9057E-10
DataValue, 0.25, -1.0691000000000001E-10
DataValue, 0.26, -1.1002000000000001E-10
DataValue, 0.27, -2.0243000000000002E-10
DataValue, 0.28, -8.7880000000000011E-11
DataValue, 0.29, -1.3642E-10
DataValue, 0.3, -2.4077000000000004E-10
DataValue, 0.31, -7.464E-11
DataValue, 0.32, -2.1241000000000002E-10
DataValue, 0.33, -1.4599E-10
DataValue, 0.34, -7.609E-11
DataValue, 0.35000000000000003, -2.8509000000000005E-10
DataValue, 0.36, -7.817E-11
DataValue, 0.37, -1.6871E-10
DataValue, 0.38, -1.4716E-10
DataValue, 0.39, -8.8840000000000013E-11
