
SetupTitle, NMOS-isub-vg-vds@vbs=0
PrimitiveTest, I/V Sweep
TestParameter, Context.MainFrame, B1500A
TestParameter, Channel.UnitType, SMU, SMU, SMU, SMU
TestParameter, Channel.Unit, SMU2:HR, SMU1:HR, SMU3:HR, SMU4:HR
TestParameter, Channel.IName, ib, is, ig, id
TestParameter, Channel.VName, vb, vs, vg, vd
TestParameter, Channel.Mode, V, COMMON, V, V
TestParameter, Channel.Func, CONST, CONST, VAR1, VAR2
TestParameter, Channel.Index, 
TestParameter, Channel.Time, 
TestParameter, Measurement.Port.Unit, SMU2:HR, SMU1:HR, SMU3:HR, SMU4:HR
TestParameter, Measurement.Port.SeriesResistor, NONE, NONE, NONE, NONE
TestParameter, Measurement.Port.Filter, ON, ON, ON, ON
TestParameter, Measurement.Port.OutputVoltageComparison, 0, 0, 0, 0
TestParameter, Measurement.Primary.Locus, Single
TestParameter, Measurement.Primary.Scale, LINEAR
TestParameter, Measurement.Primary.Start, 0
TestParameter, Measurement.Primary.Stop, 3.3000000000000003
TestParameter, Measurement.Primary.Step, 0.01
TestParameter, Measurement.Primary.Compliance, 0.001
TestParameter, Measurement.Primary.PowerCompliance, 0
TestParameter, Measurement.Aborting.Condition, SKIP AT ANY ABNORMAL
TestParameter, Measurement.PostOutput.Value, START
TestParameter, Measurement.PostOutput.Retention, OFF
TestParameter, Measurement.Secondary.Start, 0.3
TestParameter, Measurement.Secondary.Count, 6
TestParameter, Measurement.Secondary.Step, 0.6
TestParameter, Measurement.Secondary.Compliance, 0.1
TestParameter, Measurement.Secondary.PowerCompliance, 0
TestParameter, Measurement.Bias.Source, 0, 0, 0, 0.3
TestParameter, Measurement.Bias.Compliance, 0.1, 0.1, 0.001, 0.1
TestParameter, Measurement.Monitor.Unit, SMU2:HR, SMU1:HR, SMU3:HR, SMU4:HR
TestParameter, Measurement.Monitor.Adc, HR ADC, HR ADC, HR ADC, HR ADC
TestParameter, Measurement.Monitor.Measurement, Compliance Side, Compliance Side, Compliance Side, Compliance Side
TestParameter, Measurement.Monitor.RangingMode, LIMITED, LIMITED, LIMITED, LIMITED
TestParameter, Measurement.Monitor.RangeBoundary, 1nA, 1nA, 1nA, 1nA
TestParameter, Measurement.Monitor.RangeRating, BY FULL RANGE, BY FULL RANGE, BY FULL RANGE, BY FULL RANGE
TestParameter, Measurement.Monitor.RangeRatingCoeff, 50, 50, 50, 50
TestParameter, Measurement.Timing.Hold, 0
TestParameter, Measurement.Timing.Delay, 0
TestParameter, Measurement.Adc.HighSpeed.Mode, AUTO
TestParameter, Measurement.Adc.HighSpeed.Coeff, 1
TestParameter, Measurement.Adc.HighResolution.AutoZero, OFF
TestParameter, Measurement.Adc.HighResolution.Mode, AUTO
TestParameter, Measurement.Adc.HighResolution.Coeff, 6
TestParameter, Measurement.WaitTime.Source.Coeff, 1
TestParameter, Measurement.WaitTime.Source.Offset, 0
TestParameter, Measurement.WaitTime.Monitor.Coeff, 1
TestParameter, Measurement.WaitTime.Monitor.Offset, 0
TestParameter, Output.Graph.Enabled, true
TestParameter, Output.Graph.AutoScaling, false
TestParameter, Output.Graph.XAxis.Data, vg
TestParameter, Output.Graph.XAxis.Scale, Linear
TestParameter, Output.Graph.XAxis.Left, 0
TestParameter, Output.Graph.XAxis.Right, 0.9
TestParameter, Output.Graph.XAxis.RunTimeAutoScale, true
TestParameter, Output.Graph.YAxis.Data, ib
TestParameter, Output.Graph.YAxis.Scale, Linear
TestParameter, Output.Graph.YAxis.Bottom, -0.1
TestParameter, Output.Graph.YAxis.Top, 0.1
TestParameter, Output.Graph.YAxis.Group, 
TestParameter, Output.Graph.YAxis.RunTimeAutoScale, true
TestParameter, AutoAnalysis.Interpolation, false
TestParameter, AutoAnalysis.Var2StepCount, 1
TestParameter, AutoAnalysis.Var2StepScript, 
TestParameter, AutoAnalysis.Line1.Enabled, false
TestParameter, AutoAnalysis.Line1.Type, 1
TestParameter, AutoAnalysis.Line1.Fix, True
TestParameter, AutoAnalysis.Line1.YAxis, 0
TestParameter, AutoAnalysis.Line1.Point1.Type, 0
TestParameter, AutoAnalysis.Line1.Point1.XY.X, 
TestParameter, AutoAnalysis.Line1.Point1.XY.Y, 
TestParameter, AutoAnalysis.Line1.Point1.Data.Var, 
TestParameter, AutoAnalysis.Line1.Point1.Data.Condition, 
TestParameter, AutoAnalysis.Line1.Point1.Data.Start, false
TestParameter, AutoAnalysis.Line1.Point1.Data.StartVar, 
TestParameter, AutoAnalysis.Line1.Point1.Data.StartCondition, 
TestParameter, AutoAnalysis.Line1.Point2.Type, 0
TestParameter, AutoAnalysis.Line1.Point2.XY.X, 
TestParameter, AutoAnalysis.Line1.Point2.XY.Y, 
TestParameter, AutoAnalysis.Line1.Point2.Data.Var, 
TestParameter, AutoAnalysis.Line1.Point2.Data.Condition, 
TestParameter, AutoAnalysis.Line1.Point2.Data.Start, false
TestParameter, AutoAnalysis.Line1.Point2.Data.StartVar, 
TestParameter, AutoAnalysis.Line1.Point2.Data.StartCondition, 
TestParameter, AutoAnalysis.Line1.GradientExpr, 0
TestParameter, AutoAnalysis.Line2.Enabled, false
TestParameter, AutoAnalysis.Line2.Type, 1
TestParameter, AutoAnalysis.Line2.Fix, True
TestParameter, AutoAnalysis.Line2.YAxis, 0
TestParameter, AutoAnalysis.Line2.Point1.Type, 0
TestParameter, AutoAnalysis.Line2.Point1.XY.X, 
TestParameter, AutoAnalysis.Line2.Point1.XY.Y, 
TestParameter, AutoAnalysis.Line2.Point1.Data.Var, 
TestParameter, AutoAnalysis.Line2.Point1.Data.Condition, 
TestParameter, AutoAnalysis.Line2.Point1.Data.Start, false
TestParameter, AutoAnalysis.Line2.Point1.Data.StartVar, 
TestParameter, AutoAnalysis.Line2.Point1.Data.StartCondition, 
TestParameter, AutoAnalysis.Line2.Point2.Type, 0
TestParameter, AutoAnalysis.Line2.Point2.XY.X, 
TestParameter, AutoAnalysis.Line2.Point2.XY.Y, 
TestParameter, AutoAnalysis.Line2.Point2.Data.Var, 
TestParameter, AutoAnalysis.Line2.Point2.Data.Condition, 
TestParameter, AutoAnalysis.Line2.Point2.Data.Start, false
TestParameter, AutoAnalysis.Line2.Point2.Data.StartVar, 
TestParameter, AutoAnalysis.Line2.Point2.Data.StartCondition, 
TestParameter, AutoAnalysis.Line2.GradientExpr, 0
TestParameter, AutoAnalysis.Marker.Enabled, false
TestParameter, AutoAnalysis.Marker.Data.Var, 
TestParameter, AutoAnalysis.Marker.Data.Condition, 
TestParameter, AutoAnalysis.Marker.Data.Start, false
TestParameter, AutoAnalysis.Marker.Data.StartVar, 
TestParameter, AutoAnalysis.Marker.Data.StartCondition, 
MetaData, TestRecord.EntryPoint, true
MetaData, TestRecord.RecordTime, 01/16/2024 15:11:34
MetaData, TestRecord.TestTarget, N-5-0.35-298K
MetaData, TestRecord.IterationIndex, 1
MetaData, TestRecord.Preservation, true
MetaData, TestRecord.Flag, 
MetaData, TestRecord.Remarks, 
MetaData, TestRecord.LinkKey, 8142b67e-f927-484d-a2a2-3db829c9edac
MetaData, TestRecord.Parameters, 
Dimension1, 331, 331
Dimension2, 6, 6
DataName, vg, ib
DataValue, 0, -6.7620000000000008E-11
DataValue, 0.01, -7.7350000000000009E-11
DataValue, 0.02, -5.971E-11
DataValue, 0.03, -7.1400000000000007E-11
DataValue, 0.04, -6.719E-11
DataValue, 0.05, -6.301000000000001E-11
DataValue, 0.06, -7.280000000000001E-11
DataValue, 0.07, -7.1720000000000012E-11
DataValue, 0.08, -6.316E-11
DataValue, 0.09, -6.479E-11
DataValue, 0.1, -7.211000000000001E-11
DataValue, 0.11, -6.08E-11
DataValue, 0.12, -7.307E-11
DataValue, 0.13, -7.119E-11
DataValue, 0.14, -5.721E-11
DataValue, 0.15, -7.5580000000000012E-11
DataValue, 0.16, -6.3980000000000008E-11
DataValue, 0.17, -6.096E-11
DataValue, 0.18, -7.221E-11
DataValue, 0.19, -6.461000000000001E-11
DataValue, 0.2, -6.2740000000000008E-11
DataValue, 0.21, -7.0900000000000008E-11
DataValue, 0.22, -6.9000000000000007E-11
DataValue, 0.23, -6.353E-11
DataValue, 0.24, -7.177E-11
DataValue, 0.25, -6.923E-11
DataValue, 0.26, -5.568E-11
DataValue, 0.27, -7.665E-11
DataValue, 0.28, -6.939E-11
DataValue, 0.29, -6.54E-11
DataValue, 0.3, -7.868E-11
DataValue, 0.31, -5.9E-11
DataValue, 0.32, -7.017E-11
DataValue, 0.33, -7.609E-11
DataValue, 0.34, -6.341E-11
DataValue, 0.35000000000000003, -6.992E-11
DataValue, 0.36, -6.976E-11
DataValue, 0.37, -6.647E-11
DataValue, 0.38, -6.65E-11
DataValue, 0.39, -7.7650000000000011E-11
DataValue, 0.4, -6.989E-11
DataValue, 0.41000000000000003, -5.6750000000000004E-11
DataValue, 0.42, -7.693E-11
DataValue, 0.43, -7.411E-11
DataValue, 0.44, -5.95E-11
DataValue, 0.45, -7.624E-11
DataValue, 0.46, -7.868E-11
DataValue, 0.47000000000000003, -6.062E-11
DataValue, 0.48, -7.224E-11
DataValue, 0.49, -7.871E-11
DataValue, 0.5, -6.5820000000000012E-11
DataValue, 0.51, -7.1370000000000008E-11
DataValue, 0.52, -7.108E-11
DataValue, 0.53, -6.9570000000000012E-11
DataValue, 0.54, -6.5440000000000009E-11
DataValue, 0.55, -7.058E-11
DataValue, 0.56, -7.5310000000000009E-11
DataValue, 0.57000000000000006, -6.471E-11
DataValue, 0.58, -6.7920000000000009E-11
DataValue, 0.59, -8.009E-11
DataValue, 0.6, -6.736E-11
DataValue, 0.61, -7.132E-11
DataValue, 0.62, -8.0130000000000012E-11
DataValue, 0.63, -5.997E-11
DataValue, 0.64, -6.485E-11
DataValue, 0.65, -7.748E-11
DataValue, 0.66, -6.632000000000001E-11
DataValue, 0.67, -6.377E-11
DataValue, 0.68, -7.449E-11
DataValue, 0.69000000000000006, -7.5250000000000012E-11
DataValue, 0.70000000000000007, -6.461000000000001E-11
DataValue, 0.71, -6.5470000000000008E-11
DataValue, 0.72, -8.0770000000000009E-11
DataValue, 0.73, -6.5770000000000009E-11
DataValue, 0.74, -6.479E-11
DataValue, 0.75, -8.054E-11
DataValue, 0.76, -7.075E-11
DataValue, 0.77, -6.837E-11
DataValue, 0.78, -7.9860000000000009E-11
DataValue, 0.79, -5.92E-11
DataValue, 0.8, -6.515E-11
DataValue, 0.81, -7.759E-11
DataValue, 0.82000000000000006, -6.675E-11
DataValue, 0.83000000000000007, -6.405E-11
DataValue, 0.84, -7.4760000000000009E-11
DataValue, 0.85, -7.441E-11
DataValue, 0.86, -6.5160000000000011E-11
DataValue, 0.87, -6.493E-11
DataValue, 0.88, -7.999E-11
DataValue, 0.89, -6.487E-11
DataValue, 0.9, -6.6520000000000007E-11
DataValue, 0.91, -8.263E-11
DataValue, 0.92, -6.494000000000001E-11
DataValue, 0.93, -6.633E-11
DataValue, 0.94000000000000006, -8.043E-11
DataValue, 0.95000000000000007, -6.404E-11
DataValue, 0.96, -6.485E-11
DataValue, 0.97, -6.468E-11
DataValue, 0.98, -7.5390000000000011E-11
DataValue, 0.99, -7.5560000000000008E-11
DataValue, 1, -6.51E-11
DataValue, 1.01, -6.774E-11
DataValue, 1.02, -7.4650000000000008E-11
DataValue, 1.03, -6.261E-11
DataValue, 1.04, -7.4920000000000011E-11
DataValue, 1.05, -7.281E-11
DataValue, 1.06, -5.7130000000000007E-11
DataValue, 1.07, -7.7650000000000011E-11
DataValue, 1.08, -6.552000000000001E-11
DataValue, 1.09, -6.438E-11
DataValue, 1.1, -7.8070000000000008E-11
DataValue, 1.11, -6.5960000000000011E-11
DataValue, 1.12, -6.443E-11
DataValue, 1.1300000000000001, -7.3900000000000011E-11
DataValue, 1.1400000000000001, -7.067E-11
DataValue, 1.1500000000000001, -6.49E-11
DataValue, 1.16, -7.2990000000000011E-11
DataValue, 1.17, -7.0020000000000007E-11
DataValue, 1.18, -5.7410000000000005E-11
DataValue, 1.19, -7.9090000000000008E-11
DataValue, 1.2, -6.9820000000000011E-11
DataValue, 1.21, -6.546E-11
DataValue, 1.22, -8.001E-11
DataValue, 1.23, -5.864E-11
DataValue, 1.24, -7.064E-11
DataValue, 1.25, -7.857E-11
DataValue, 1.26, -6.472000000000001E-11
DataValue, 1.27, -7.29E-11
DataValue, 1.28, -7.3630000000000008E-11
DataValue, 1.29, -6.727E-11
DataValue, 1.3, -6.885E-11
DataValue, 1.31, -7.9220000000000012E-11
DataValue, 1.32, -6.5220000000000008E-11
DataValue, 1.33, -6.5660000000000009E-11
DataValue, 1.34, -8.1020000000000008E-11
DataValue, 1.35, -6.9990000000000009E-11
DataValue, 1.36, -6.178E-11
DataValue, 1.37, -7.9250000000000011E-11
DataValue, 1.3800000000000001, -6.0230000000000008E-11
DataValue, 1.3900000000000001, -6.826E-11
DataValue, 1.4000000000000001, -7.9880000000000013E-11
DataValue, 1.41, -6.461000000000001E-11
DataValue, 1.42, -6.9520000000000009E-11
DataValue, 1.43, -7.088E-11
DataValue, 1.44, -6.6050000000000007E-11
DataValue, 1.45, -7.009E-11
DataValue, 1.46, -7.8180000000000008E-11
DataValue, 1.47, -6.482E-11
DataValue, 1.48, -6.5710000000000011E-11
DataValue, 1.49, -7.9880000000000013E-11
DataValue, 1.5, -5.951000000000001E-11
DataValue, 1.51, -7.111E-11
DataValue, 1.52, -7.802E-11
DataValue, 1.53, -6.108000000000001E-11
DataValue, 1.54, -7.3320000000000012E-11
DataValue, 1.55, -6.774E-11
DataValue, 1.56, -6.519000000000001E-11
DataValue, 1.57, -7.438E-11
DataValue, 1.58, -7.4240000000000007E-11
DataValue, 1.59, -6.524E-11
DataValue, 1.6, -6.3780000000000011E-11
DataValue, 1.61, -7.8310000000000012E-11
DataValue, 1.62, -6.471E-11
DataValue, 1.6300000000000001, -6.069E-11
DataValue, 1.6400000000000001, -7.659E-11
DataValue, 1.6500000000000001, -6.8170000000000009E-11
DataValue, 1.6600000000000001, -6.188000000000001E-11
DataValue, 1.67, -7.56E-11
DataValue, 1.68, -7.0680000000000008E-11
DataValue, 1.69, -6.071E-11
DataValue, 1.7, -7.3190000000000008E-11
DataValue, 1.71, -7.168E-11
DataValue, 1.72, -6.418E-11
DataValue, 1.73, -7.2360000000000009E-11
DataValue, 1.74, -7.040000000000001E-11
DataValue, 1.75, -6.8720000000000009E-11
DataValue, 1.76, -6.7370000000000009E-11
DataValue, 1.77, -7.576E-11
DataValue, 1.78, -7.005E-11
DataValue, 1.79, -5.7950000000000004E-11
DataValue, 1.8, -7.499E-11
DataValue, 1.81, -7.323E-11
DataValue, 1.82, -5.7270000000000006E-11
DataValue, 1.83, -7.4460000000000007E-11
DataValue, 1.84, -6.939E-11
DataValue, 1.85, -6.021E-11
DataValue, 1.86, -7.2610000000000008E-11
DataValue, 1.87, -6.298E-11
DataValue, 1.8800000000000001, -6.336E-11
DataValue, 1.8900000000000001, -7.1390000000000011E-11
DataValue, 1.9000000000000001, -7.3380000000000009E-11
DataValue, 1.9100000000000001, -6.479E-11
DataValue, 1.92, -6.943E-11
DataValue, 1.93, -7.4E-11
DataValue, 1.94, -6.642E-11
DataValue, 1.95, -5.856E-11
DataValue, 1.96, -7.7520000000000007E-11
DataValue, 1.97, -6.9990000000000009E-11
DataValue, 1.98, -6.0450000000000008E-11
DataValue, 1.99, -7.5390000000000011E-11
DataValue, 2, -7.1040000000000007E-11
DataValue, 2.0100000000000002, -6.218E-11
DataValue, 2.02, -7.306E-11
DataValue, 2.0300000000000002, -6.526E-11
DataValue, 2.04, -6.4170000000000009E-11
DataValue, 2.05, -7.232E-11
DataValue, 2.06, -7.323E-11
DataValue, 2.07, -6.717E-11
DataValue, 2.08, -6.836000000000001E-11
DataValue, 2.09, -7.516E-11
DataValue, 2.1, -6.94E-11
DataValue, 2.11, -5.7800000000000003E-11
DataValue, 2.12, -7.607E-11
DataValue, 2.13, -7.0730000000000011E-11
DataValue, 2.14, -5.816E-11
DataValue, 2.15, -7.378E-11
DataValue, 2.16, -7.7650000000000011E-11
DataValue, 2.17, -6.0390000000000011E-11
DataValue, 2.18, -7.222000000000001E-11
DataValue, 2.19, -7.4560000000000012E-11
DataValue, 2.2, -6.463E-11
DataValue, 2.21, -7.1620000000000007E-11
DataValue, 2.22, -7.1340000000000009E-11
DataValue, 2.23, -6.407E-11
DataValue, 2.24, -6.812E-11
DataValue, 2.25, -7.599E-11
DataValue, 2.2600000000000002, -6.7760000000000007E-11
DataValue, 2.27, -5.893000000000001E-11
DataValue, 2.2800000000000002, -7.824E-11
DataValue, 2.29, -6.945E-11
DataValue, 2.3000000000000003, -6.0920000000000008E-11
DataValue, 2.31, -7.552E-11
DataValue, 2.32, -6.727E-11
DataValue, 2.33, -6.164E-11
DataValue, 2.34, -7.0820000000000007E-11
DataValue, 2.35, -6.292E-11
DataValue, 2.36, -6.3950000000000009E-11
DataValue, 2.37, -6.953E-11
DataValue, 2.38, -7.351E-11
DataValue, 2.39, -6.450000000000001E-11
DataValue, 2.4, -6.4640000000000009E-11
DataValue, 2.41, -7.6820000000000012E-11
DataValue, 2.42, -6.482E-11
DataValue, 2.43, -6.134E-11
DataValue, 2.44, -7.7710000000000009E-11
DataValue, 2.45, -6.7750000000000012E-11
DataValue, 2.46, -6.189E-11
DataValue, 2.47, -7.575000000000001E-11
DataValue, 2.48, -7.1610000000000012E-11
DataValue, 2.49, -6.0810000000000008E-11
DataValue, 2.5, -7.3410000000000008E-11
DataValue, 2.5100000000000002, -6.777E-11
DataValue, 2.52, -6.57E-11
DataValue, 2.5300000000000002, -7.158E-11
DataValue, 2.54, -7.1920000000000009E-11
DataValue, 2.5500000000000003, -6.622E-11
DataValue, 2.56, -7.1700000000000008E-11
DataValue, 2.57, -7.599E-11
DataValue, 2.58, -7.869E-11
DataValue, 2.59, -6.2850000000000008E-11
DataValue, 2.6, -7.1290000000000007E-11
DataValue, 2.61, -7.7070000000000011E-11
DataValue, 2.62, -6.035E-11
DataValue, 2.63, -7.0540000000000009E-11
DataValue, 2.64, -6.8560000000000007E-11
DataValue, 2.65, -6.4E-11
DataValue, 2.66, -7.313000000000001E-11
DataValue, 2.67, -7.144E-11
DataValue, 2.68, -6.2240000000000009E-11
DataValue, 2.69, -6.57E-11
DataValue, 2.7, -7.3380000000000009E-11
DataValue, 2.71, -6.413E-11
DataValue, 2.72, -7.5260000000000007E-11
DataValue, 2.73, -7.091E-11
DataValue, 2.74, -5.991E-11
DataValue, 2.75, -7.563E-11
DataValue, 2.7600000000000002, -6.559E-11
DataValue, 2.77, -6.6620000000000011E-11
DataValue, 2.7800000000000002, -7.7410000000000007E-11
DataValue, 2.79, -6.6180000000000011E-11
DataValue, 2.8000000000000003, -6.6840000000000012E-11
DataValue, 2.81, -6.9990000000000009E-11
DataValue, 2.82, -6.851E-11
DataValue, 2.83, -7.0380000000000007E-11
DataValue, 2.84, -7.329E-11
DataValue, 2.85, -6.894000000000001E-11
DataValue, 2.86, -6.086000000000001E-11
DataValue, 2.87, -7.4760000000000009E-11
DataValue, 2.88, -7.19E-11
DataValue, 2.89, -5.696E-11
DataValue, 2.9, -7.307E-11
DataValue, 2.91, -7.805E-11
DataValue, 2.92, -6.1830000000000008E-11
DataValue, 2.93, -7.1810000000000008E-11
DataValue, 2.94, -7.2610000000000008E-11
DataValue, 2.95, -6.593E-11
DataValue, 2.96, -6.9630000000000009E-11
DataValue, 2.97, -7.166E-11
DataValue, 2.98, -6.8000000000000011E-11
DataValue, 2.99, -6.8330000000000011E-11
DataValue, 3, -7.4810000000000011E-11
DataValue, 3.0100000000000002, -6.9690000000000007E-11
DataValue, 3.02, -5.823E-11
DataValue, 3.0300000000000002, -7.5250000000000012E-11
DataValue, 3.04, -7.064E-11
DataValue, 3.0500000000000003, -5.6570000000000005E-11
DataValue, 3.06, -7.367E-11
DataValue, 3.0700000000000003, -7.458E-11
DataValue, 3.08, -6.1610000000000007E-11
DataValue, 3.09, -7.089E-11
DataValue, 3.1, -6.7070000000000007E-11
DataValue, 3.11, -6.8780000000000007E-11
DataValue, 3.12, -7.088E-11
DataValue, 3.13, -7.011E-11
DataValue, 3.14, -6.948E-11
DataValue, 3.15, -7.615E-11
DataValue, 3.16, -6.683E-11
DataValue, 3.17, -6.28E-11
DataValue, 3.18, -7.841E-11
DataValue, 3.19, -6.606E-11
DataValue, 3.2, -7.0760000000000009E-11
DataValue, 3.21, -7.746000000000001E-11
DataValue, 3.22, -6.055E-11
DataValue, 3.23, -7.091E-11
DataValue, 3.24, -7.1810000000000008E-11
DataValue, 3.25, -6.5030000000000007E-11
DataValue, 3.2600000000000002, -7.2470000000000009E-11
DataValue, 3.27, -7.237E-11
DataValue, 3.2800000000000002, -6.297E-11
DataValue, 3.29, -6.59E-11
DataValue, 3.3000000000000003, -7.4240000000000007E-11
DataValue, 0, -6.0500000000000011E-11
DataValue, 0.01, -6.4250000000000011E-11
DataValue, 0.02, -6.826E-11
DataValue, 0.03, -5.853E-11
DataValue, 0.04, -7.43E-11
DataValue, 0.05, -6.4780000000000008E-11
DataValue, 0.06, -6.78E-11
DataValue, 0.07, -7.040000000000001E-11
DataValue, 0.08, -5.931E-11
DataValue, 0.09, -7.2640000000000007E-11
DataValue, 0.1, -6.2410000000000007E-11
DataValue, 0.11, -6.7200000000000011E-11
DataValue, 0.12, -7.0210000000000009E-11
DataValue, 0.13, -6.027E-11
DataValue, 0.14, -6.268000000000001E-11
DataValue, 0.15, -6.8310000000000008E-11
DataValue, 0.16, -5.9430000000000008E-11
DataValue, 0.17, -7.444E-11
DataValue, 0.18, -6.383E-11
DataValue, 0.19, -6.7370000000000009E-11
DataValue, 0.2, -7.226E-11
DataValue, 0.21, -5.914E-11
DataValue, 0.22, -7.293E-11
DataValue, 0.23, -6.2850000000000008E-11
DataValue, 0.24, -6.6850000000000007E-11
DataValue, 0.25, -6.95E-11
DataValue, 0.26, -5.835000000000001E-11
DataValue, 0.27, -6.5720000000000007E-11
DataValue, 0.28, -6.641E-11
DataValue, 0.29, -5.8170000000000004E-11
DataValue, 0.3, -7.392E-11
DataValue, 0.31, -6.181E-11
DataValue, 0.32, -6.805E-11
DataValue, 0.33, -7.383E-11
DataValue, 0.34, -5.7040000000000004E-11
DataValue, 0.35000000000000003, -6.76E-11
DataValue, 0.36, -6.4580000000000011E-11
DataValue, 0.37, -6.1110000000000009E-11
DataValue, 0.38, -7.168E-11
DataValue, 0.39, -6.589E-11
DataValue, 0.4, -6.8440000000000011E-11
DataValue, 0.41000000000000003, -7.4320000000000008E-11
DataValue, 0.42, -6.3900000000000007E-11
DataValue, 0.43, -6.739E-11
DataValue, 0.44, -6.996000000000001E-11
DataValue, 0.45, -5.379E-11
DataValue, 0.46, -7.2750000000000007E-11
DataValue, 0.47000000000000003, -6.653E-11
DataValue, 0.48, -6.5490000000000011E-11
