
SetupTitle, NMOS-id-vg-vbs@vds=3.3
PrimitiveTest, I/V Sweep
TestParameter, Context.MainFrame, B1500A
TestParameter, Channel.UnitType, SMU, SMU, SMU, SMU
TestParameter, Channel.Unit, SMU2:HR, SMU1:HR, SMU3:HR, SMU4:HR
TestParameter, Channel.IName, ib, is, ig, id
TestParameter, Channel.VName, vb, vs, vg, vd
TestParameter, Channel.Mode, V, COMMON, V, V
TestParameter, Channel.Func, VAR2, CONST, VAR1, CONST
TestParameter, Channel.Index, 
TestParameter, Channel.Time, 
TestParameter, Measurement.Port.Unit, SMU2:HR, SMU1:HR, SMU3:HR, SMU4:HR
TestParameter, Measurement.Port.SeriesResistor, NONE, NONE, NONE, NONE
TestParameter, Measurement.Port.Filter, ON, ON, ON, ON
TestParameter, Measurement.Port.OutputVoltageComparison, 0, 0, 0, 0
TestParameter, Measurement.Primary.Locus, Single
TestParameter, Measurement.Primary.Scale, LINEAR
TestParameter, Measurement.Primary.Start, -0.5
TestParameter, Measurement.Primary.Stop, 3.3000000000000003
TestParameter, Measurement.Primary.Step, 0.01
TestParameter, Measurement.Primary.Compliance, 0.001
TestParameter, Measurement.Primary.PowerCompliance, 0
TestParameter, Measurement.Aborting.Condition, SKIP AT ANY ABNORMAL
TestParameter, Measurement.PostOutput.Value, START
TestParameter, Measurement.PostOutput.Retention, OFF
TestParameter, Measurement.Secondary.Start, 0
TestParameter, Measurement.Secondary.Count, 7
TestParameter, Measurement.Secondary.Step, -0.6
TestParameter, Measurement.Secondary.Compliance, 0.1
TestParameter, Measurement.Secondary.PowerCompliance, 0
TestParameter, Measurement.Bias.Source, 0, 0, -0.5, 3.3000000000000003
TestParameter, Measurement.Bias.Compliance, 0.1, 0.1, 0.001, 0.1
TestParameter, Measurement.Monitor.Unit, SMU2:HR, SMU1:HR, SMU3:HR, SMU4:HR
TestParameter, Measurement.Monitor.Adc, HR ADC, HR ADC, HR ADC, HR ADC
TestParameter, Measurement.Monitor.Measurement, Compliance Side, Compliance Side, Compliance Side, Compliance Side
TestParameter, Measurement.Monitor.RangingMode, LIMITED, LIMITED, LIMITED, LIMITED
TestParameter, Measurement.Monitor.RangeBoundary, 1nA, 1nA, 1nA, 1nA
TestParameter, Measurement.Monitor.RangeRating, BY FULL RANGE, BY FULL RANGE, BY FULL RANGE, BY FULL RANGE
TestParameter, Measurement.Monitor.RangeRatingCoeff, 50, 50, 50, 50
TestParameter, Measurement.Timing.Hold, 0
TestParameter, Measurement.Timing.Delay, 0
TestParameter, Measurement.Adc.HighSpeed.Mode, AUTO
TestParameter, Measurement.Adc.HighSpeed.Coeff, 1
TestParameter, Measurement.Adc.HighResolution.AutoZero, OFF
TestParameter, Measurement.Adc.HighResolution.Mode, AUTO
TestParameter, Measurement.Adc.HighResolution.Coeff, 6
TestParameter, Measurement.WaitTime.Source.Coeff, 1
TestParameter, Measurement.WaitTime.Source.Offset, 0
TestParameter, Measurement.WaitTime.Monitor.Coeff, 1
TestParameter, Measurement.WaitTime.Monitor.Offset, 0
TestParameter, Output.Graph.Enabled, true
TestParameter, Output.Graph.AutoScaling, false
TestParameter, Output.Graph.XAxis.Data, vg
TestParameter, Output.Graph.XAxis.Scale, Linear
TestParameter, Output.Graph.XAxis.Left, 0
TestParameter, Output.Graph.XAxis.Right, 0.9
TestParameter, Output.Graph.XAxis.RunTimeAutoScale, true
TestParameter, Output.Graph.YAxis.Data, id
TestParameter, Output.Graph.YAxis.Scale, Linear
TestParameter, Output.Graph.YAxis.Bottom, -0.1
TestParameter, Output.Graph.YAxis.Top, 0.1
TestParameter, Output.Graph.YAxis.Group, 
TestParameter, Output.Graph.YAxis.RunTimeAutoScale, true
TestParameter, AutoAnalysis.Interpolation, false
TestParameter, AutoAnalysis.Var2StepCount, 1
TestParameter, AutoAnalysis.Var2StepScript, 
TestParameter, AutoAnalysis.Line1.Enabled, false
TestParameter, AutoAnalysis.Line1.Type, 1
TestParameter, AutoAnalysis.Line1.Fix, True
TestParameter, AutoAnalysis.Line1.YAxis, 0
TestParameter, AutoAnalysis.Line1.Point1.Type, 0
TestParameter, AutoAnalysis.Line1.Point1.XY.X, 
TestParameter, AutoAnalysis.Line1.Point1.XY.Y, 
TestParameter, AutoAnalysis.Line1.Point1.Data.Var, 
TestParameter, AutoAnalysis.Line1.Point1.Data.Condition, 
TestParameter, AutoAnalysis.Line1.Point1.Data.Start, false
TestParameter, AutoAnalysis.Line1.Point1.Data.StartVar, 
TestParameter, AutoAnalysis.Line1.Point1.Data.StartCondition, 
TestParameter, AutoAnalysis.Line1.Point2.Type, 0
TestParameter, AutoAnalysis.Line1.Point2.XY.X, 
TestParameter, AutoAnalysis.Line1.Point2.XY.Y, 
TestParameter, AutoAnalysis.Line1.Point2.Data.Var, 
TestParameter, AutoAnalysis.Line1.Point2.Data.Condition, 
TestParameter, AutoAnalysis.Line1.Point2.Data.Start, false
TestParameter, AutoAnalysis.Line1.Point2.Data.StartVar, 
TestParameter, AutoAnalysis.Line1.Point2.Data.StartCondition, 
TestParameter, AutoAnalysis.Line1.GradientExpr, 0
TestParameter, AutoAnalysis.Line2.Enabled, false
TestParameter, AutoAnalysis.Line2.Type, 1
TestParameter, AutoAnalysis.Line2.Fix, True
TestParameter, AutoAnalysis.Line2.YAxis, 0
TestParameter, AutoAnalysis.Line2.Point1.Type, 0
TestParameter, AutoAnalysis.Line2.Point1.XY.X, 
TestParameter, AutoAnalysis.Line2.Point1.XY.Y, 
TestParameter, AutoAnalysis.Line2.Point1.Data.Var, 
TestParameter, AutoAnalysis.Line2.Point1.Data.Condition, 
TestParameter, AutoAnalysis.Line2.Point1.Data.Start, false
TestParameter, AutoAnalysis.Line2.Point1.Data.StartVar, 
TestParameter, AutoAnalysis.Line2.Point1.Data.StartCondition, 
TestParameter, AutoAnalysis.Line2.Point2.Type, 0
TestParameter, AutoAnalysis.Line2.Point2.XY.X, 
TestParameter, AutoAnalysis.Line2.Point2.XY.Y, 
TestParameter, AutoAnalysis.Line2.Point2.Data.Var, 
TestParameter, AutoAnalysis.Line2.Point2.Data.Condition, 
TestParameter, AutoAnalysis.Line2.Point2.Data.Start, false
TestParameter, AutoAnalysis.Line2.Point2.Data.StartVar, 
TestParameter, AutoAnalysis.Line2.Point2.Data.StartCondition, 
TestParameter, AutoAnalysis.Line2.GradientExpr, 0
TestParameter, AutoAnalysis.Marker.Enabled, false
TestParameter, AutoAnalysis.Marker.Data.Var, 
TestParameter, AutoAnalysis.Marker.Data.Condition, 
TestParameter, AutoAnalysis.Marker.Data.Start, false
TestParameter, AutoAnalysis.Marker.Data.StartVar, 
TestParameter, AutoAnalysis.Marker.Data.StartCondition, 
MetaData, TestRecord.EntryPoint, true
MetaData, TestRecord.RecordTime, 01/16/2024 15:10:21
MetaData, TestRecord.TestTarget, N-5-0.35-298K
MetaData, TestRecord.IterationIndex, 1
MetaData, TestRecord.Preservation, true
MetaData, TestRecord.Flag, 
MetaData, TestRecord.Remarks, 
MetaData, TestRecord.LinkKey, 94628c8d-d3b8-475c-860a-6660bea1eb59
MetaData, TestRecord.Parameters, 
Dimension1, 381, 381
Dimension2, 7, 7
DataName, vg, id
DataValue, -0.5, 2.418E-11
DataValue, -0.49, 3.088E-11
DataValue, -0.48, 3.4030000000000004E-11
DataValue, -0.47000000000000003, 2.3010000000000003E-11
DataValue, -0.46, 3.1270000000000005E-11
DataValue, -0.45, 3.2680000000000004E-11
DataValue, -0.44, 2.245E-11
DataValue, -0.43, 3.098E-11
DataValue, -0.42, 3.131E-11
DataValue, -0.41000000000000003, 2.26E-11
DataValue, -0.4, 3.2290000000000006E-11
DataValue, -0.39, 3.067E-11
DataValue, -0.38, 2.3610000000000003E-11
DataValue, -0.37, 3.405E-11
DataValue, -0.36, 3.051E-11
DataValue, -0.35000000000000003, 2.456E-11
DataValue, -0.34, 3.579E-11
DataValue, -0.33, 3.047E-11
DataValue, -0.32, 2.604E-11
DataValue, -0.31, 3.725E-11
DataValue, -0.3, 2.9730000000000004E-11
DataValue, -0.29, 2.768E-11
DataValue, -0.28, 3.732E-11
DataValue, -0.27, 2.998E-11
DataValue, -0.26, 2.942E-11
DataValue, -0.25, 3.6770000000000006E-11
DataValue, -0.24, 2.7850000000000003E-11
DataValue, -0.23, 3.011E-11
DataValue, -0.22, 3.5890000000000005E-11
DataValue, -0.21, 2.562E-11
DataValue, -0.2, 3.0430000000000005E-11
DataValue, -0.19, 3.1850000000000005E-11
DataValue, -0.18, 2.258E-11
DataValue, -0.17, 3.0280000000000004E-11
DataValue, -0.16, 3.442E-11
DataValue, -0.15, 2.369E-11
DataValue, -0.14, 3.056E-11
DataValue, -0.13, 3.3050000000000005E-11
DataValue, -0.12, 2.2350000000000002E-11
DataValue, -0.11, 3.0500000000000005E-11
DataValue, -0.1, 3.165E-11
DataValue, -0.09, 2.218E-11
DataValue, -0.08, 3.1230000000000005E-11
DataValue, -0.07, 3.0750000000000004E-11
DataValue, -0.06, 2.2420000000000002E-11
DataValue, -0.05, 3.3270000000000005E-11
DataValue, -0.04, 3.0390000000000004E-11
DataValue, -0.03, 2.342E-11
DataValue, -0.02, 3.38E-11
DataValue, -0.01, 3.1080000000000004E-11
DataValue, 0, 2.2750000000000002E-11
DataValue, 0.01, 3.157E-11
DataValue, 0.02, 3.179E-11
DataValue, 0.03, 2.3790000000000003E-11
DataValue, 0.04, 2.989E-11
DataValue, 0.05, 3.6760000000000004E-11
DataValue, 0.06, 2.998E-11
DataValue, 0.07, 2.722E-11
DataValue, 0.08, 3.6030000000000004E-11
DataValue, 0.09, 3.0420000000000003E-11
DataValue, 0.1, 2.311E-11
DataValue, 0.11, 3.133E-11
DataValue, 0.12, 3.2760000000000005E-11
DataValue, 0.13, 2.396E-11
DataValue, 0.14, 3.117E-11
DataValue, 0.15, 3.602E-11
DataValue, 0.16, 2.8360000000000003E-11
DataValue, 0.17, 2.971E-11
DataValue, 0.18, 3.926E-11
DataValue, 0.19, 3.2350000000000003E-11
DataValue, 0.2, 2.7390000000000002E-11
DataValue, 0.21, 3.714E-11
DataValue, 0.22, 3.497E-11
DataValue, 0.23, 2.826E-11
DataValue, 0.24, 3.8690000000000004E-11
DataValue, 0.25, 4.2000000000000004E-11
DataValue, 0.26, 3.576E-11
DataValue, 0.27, 4.7480000000000007E-11
DataValue, 0.28, 5.474E-11
DataValue, 0.29, 5.2250000000000007E-11
DataValue, 0.3, 6.543E-11
DataValue, 0.31, 8.0800000000000008E-11
DataValue, 0.32, 8.6140000000000012E-11
DataValue, 0.33, 1.0017E-10
DataValue, 0.34, 1.3138000000000002E-10
DataValue, 0.35000000000000003, 1.5084000000000002E-10
DataValue, 0.36, 1.8039E-10
DataValue, 0.37, 2.3357E-10
DataValue, 0.38, 2.855E-10
DataValue, 0.39, 3.4956000000000003E-10
DataValue, 0.4, 4.5461000000000005E-10
DataValue, 0.41000000000000003, 5.7157E-10
DataValue, 0.42, 7.177E-10
DataValue, 0.43, 9.2621E-10
DataValue, 0.44, 1.2743E-09
DataValue, 0.45, 1.531E-09
DataValue, 0.46, 1.9673E-09
DataValue, 0.47000000000000003, 2.5181E-09
DataValue, 0.48, 3.2563E-09
DataValue, 0.49, 4.1896E-09
DataValue, 0.5, 5.5308E-09
DataValue, 0.51, 6.9108E-09
DataValue, 0.52, 8.9818E-09
DataValue, 0.53, 1.2111399999999999E-08
DataValue, 0.54, 1.5669399999999998E-08
DataValue, 0.55, 2.01078E-08
DataValue, 0.56, 2.5789199999999998E-08
DataValue, 0.57000000000000006, 3.3202999999999996E-08
DataValue, 0.58, 4.2838199999999994E-08
DataValue, 0.59, 5.5015599999999993E-08
DataValue, 0.6, 7.04602E-08
DataValue, 0.61, 9.0372E-08
DataValue, 0.62, 1.1588E-07
DataValue, 0.63, 1.4732E-07
DataValue, 0.64, 1.8762E-07
DataValue, 0.65, 2.3852E-07
DataValue, 0.66, 3.029E-07
DataValue, 0.67, 3.8604E-07
DataValue, 0.68, 4.8926E-07
DataValue, 0.69000000000000006, 6.1494E-07
DataValue, 0.70000000000000007, 7.6988E-07
DataValue, 0.71, 9.6304E-07
DataValue, 0.72, 1.1955E-06
DataValue, 0.73, 1.4804E-06
DataValue, 0.74, 1.8211000000000002E-06
DataValue, 0.75, 2.2346E-06
DataValue, 0.76, 2.7222000000000004E-06
DataValue, 0.77, 3.3135E-06
DataValue, 0.78, 3.9950000000000007E-06
DataValue, 0.79, 4.794E-06
DataValue, 0.8, 5.7128000000000006E-06
DataValue, 0.81, 6.7646E-06
DataValue, 0.82000000000000006, 7.9817E-06
DataValue, 0.83000000000000007, 9.3307E-06
DataValue, 0.84, 1.08977E-05
DataValue, 0.85, 1.2624E-05
DataValue, 0.86, 1.4536000000000001E-05
DataValue, 0.87, 1.6658000000000002E-05
DataValue, 0.88, 1.8984E-05
DataValue, 0.89, 2.1502000000000002E-05
DataValue, 0.9, 2.4266E-05
DataValue, 0.91, 2.7314E-05
DataValue, 0.92, 3.0536E-05
DataValue, 0.93, 3.3958E-05
DataValue, 0.94000000000000006, 3.7616E-05
DataValue, 0.95000000000000007, 4.1524000000000004E-05
DataValue, 0.96, 4.5614E-05
DataValue, 0.97, 5.002E-05
DataValue, 0.98, 5.4918000000000005E-05
DataValue, 0.99, 5.9418E-05
DataValue, 1, 6.4438000000000009E-05
DataValue, 1.01, 6.9512000000000008E-05
DataValue, 1.02, 7.4976000000000009E-05
DataValue, 1.03, 8.057000000000001E-05
DataValue, 1.04, 8.652E-05
DataValue, 1.05, 9.2526E-05
DataValue, 1.06, 9.8714E-05
DataValue, 1.07, 0.000105128
DataValue, 1.08, 0.000111718
DataValue, 1.09, 0.00011846
DataValue, 1.1, 0.00012574
DataValue, 1.11, 0.00013252
DataValue, 1.12, 0.00013978000000000002
DataValue, 1.1300000000000001, 0.00014726
DataValue, 1.1400000000000001, 0.00015476000000000002
DataValue, 1.1500000000000001, 0.00016240000000000002
DataValue, 1.16, 0.00017018
DataValue, 1.17, 0.00017842000000000002
DataValue, 1.18, 0.00018634
DataValue, 1.19, 0.00019456
DataValue, 1.2, 0.00020302000000000002
DataValue, 1.21, 0.00021146
DataValue, 1.22, 0.00022004000000000001
DataValue, 1.23, 0.0002287
DataValue, 1.24, 0.00023762000000000002
DataValue, 1.25, 0.00024646
DataValue, 1.26, 0.00025554
DataValue, 1.27, 0.00026464
DataValue, 1.28, 0.00027374
DataValue, 1.29, 0.000283
DataValue, 1.3, 0.00029266000000000003
DataValue, 1.31, 0.0003018
DataValue, 1.32, 0.00031136
DataValue, 1.33, 0.00032094000000000003
DataValue, 1.34, 0.00033072
DataValue, 1.35, 0.00034024
DataValue, 1.36, 0.00035008
DataValue, 1.37, 0.00036016000000000005
DataValue, 1.3800000000000001, 0.00037006
DataValue, 1.3900000000000001, 0.00038006000000000004
DataValue, 1.4000000000000001, 0.00039016
DataValue, 1.41, 0.00040038000000000004
DataValue, 1.42, 0.0004104
DataValue, 1.43, 0.00042080000000000004
DataValue, 1.44, 0.00043122
DataValue, 1.45, 0.00044142000000000004
DataValue, 1.46, 0.00045200000000000004
DataValue, 1.47, 0.0004624
DataValue, 1.48, 0.00047276
DataValue, 1.49, 0.00048332000000000003
DataValue, 1.5, 0.00049402000000000007
DataValue, 1.51, 0.0005048
DataValue, 1.52, 0.00051536000000000008
DataValue, 1.53, 0.00052608000000000006
DataValue, 1.54, 0.00053682
DataValue, 1.55, 0.0005475
DataValue, 1.56, 0.00055856
DataValue, 1.57, 0.00056942000000000006
DataValue, 1.58, 0.00058036
DataValue, 1.59, 0.00059108
DataValue, 1.6, 0.00060212
DataValue, 1.61, 0.00061318000000000006
DataValue, 1.62, 0.00062402000000000009
DataValue, 1.6300000000000001, 0.00063506
DataValue, 1.6400000000000001, 0.00064606000000000006
DataValue, 1.6500000000000001, 0.00065744
DataValue, 1.6600000000000001, 0.00066848
DataValue, 1.67, 0.00067962
DataValue, 1.68, 0.00069082000000000008
DataValue, 1.69, 0.00070204
DataValue, 1.7, 0.00071300000000000009
DataValue, 1.71, 0.00072418
DataValue, 1.72, 0.00073546000000000006
DataValue, 1.73, 0.0007469
DataValue, 1.74, 0.00075838
DataValue, 1.75, 0.00076956000000000008
DataValue, 1.76, 0.00078086000000000008
DataValue, 1.77, 0.00079218000000000008
DataValue, 1.78, 0.00080356
DataValue, 1.79, 0.00081506
DataValue, 1.8, 0.00082644
DataValue, 1.81, 0.00083740000000000008
DataValue, 1.82, 0.00084882
DataValue, 1.83, 0.00086054
DataValue, 1.84, 0.0008719200000000001
DataValue, 1.85, 0.0008834
DataValue, 1.86, 0.00089480000000000007
DataValue, 1.87, 0.00090618
DataValue, 1.8800000000000001, 0.00091764000000000006
DataValue, 1.8900000000000001, 0.00092904
DataValue, 1.9000000000000001, 0.00094076
DataValue, 1.9100000000000001, 0.00095222
DataValue, 1.92, 0.00096386000000000009
DataValue, 1.93, 0.00097554000000000011
DataValue, 1.94, 0.00098738000000000016
DataValue, 1.95, 0.00099884
DataValue, 1.96, 0.00101032
DataValue, 1.97, 0.00102172
DataValue, 1.98, 0.00103334
DataValue, 1.99, 0.00104466
DataValue, 2, 0.0010563600000000001
DataValue, 2.0100000000000002, 0.0010677800000000002
DataValue, 2.02, 0.00107964
DataValue, 2.0300000000000002, 0.00109146
DataValue, 2.04, 0.00110304
DataValue, 2.05, 0.0011147000000000002
DataValue, 2.06, 0.00112626
DataValue, 2.07, 0.0011379600000000001
DataValue, 2.08, 0.0011492400000000002
DataValue, 2.09, 0.001161
DataValue, 2.1, 0.0011724
DataValue, 2.11, 0.0011846
DataValue, 2.12, 0.0011962000000000001
DataValue, 2.13, 0.0012078
DataValue, 2.14, 0.0012194
DataValue, 2.15, 0.001231
DataValue, 2.16, 0.001243
DataValue, 2.17, 0.0012546
DataValue, 2.18, 0.0012664
DataValue, 2.19, 0.0012778
DataValue, 2.2, 0.0012900000000000001
DataValue, 2.21, 0.0013016
DataValue, 2.22, 0.0013132
DataValue, 2.23, 0.0013248000000000001
DataValue, 2.24, 0.0013364
DataValue, 2.25, 0.0013482000000000001
DataValue, 2.2600000000000002, 0.0013598
DataValue, 2.27, 0.0013716
DataValue, 2.2800000000000002, 0.0013832
DataValue, 2.29, 0.001395
DataValue, 2.3000000000000003, 0.0014066
DataValue, 2.31, 0.0014184
DataValue, 2.32, 0.00143
DataValue, 2.33, 0.0014416000000000001
DataValue, 2.34, 0.0014534
DataValue, 2.35, 0.0014652
DataValue, 2.36, 0.0014766
DataValue, 2.37, 0.0014882
DataValue, 2.38, 0.0015002
DataValue, 2.39, 0.0015118
DataValue, 2.4, 0.0015232
DataValue, 2.41, 0.0015354000000000001
DataValue, 2.42, 0.001547
DataValue, 2.43, 0.0015584
DataValue, 2.44, 0.00157
DataValue, 2.45, 0.001582
DataValue, 2.46, 0.0015936000000000001
DataValue, 2.47, 0.001605
DataValue, 2.48, 0.0016168
DataValue, 2.49, 0.0016282
DataValue, 2.5, 0.00164
DataValue, 2.5100000000000002, 0.0016522
DataValue, 2.52, 0.0016636
DataValue, 2.5300000000000002, 0.001675
DataValue, 2.54, 0.0016866000000000001
DataValue, 2.5500000000000003, 0.0016982
DataValue, 2.56, 0.0017098
DataValue, 2.57, 0.0017214
DataValue, 2.58, 0.0017334
DataValue, 2.59, 0.001745
DataValue, 2.6, 0.0017564
DataValue, 2.61, 0.0017682
DataValue, 2.62, 0.0017798
DataValue, 2.63, 0.0017914
DataValue, 2.64, 0.0018030000000000001
DataValue, 2.65, 0.0018144
DataValue, 2.66, 0.0018262
DataValue, 2.67, 0.0018378000000000001
DataValue, 2.68, 0.0018494
DataValue, 2.69, 0.0018608000000000001
DataValue, 2.7, 0.0018724
DataValue, 2.71, 0.0018842
DataValue, 2.72, 0.0018958
DataValue, 2.73, 0.0019072
DataValue, 2.74, 0.0019190000000000001
DataValue, 2.75, 0.0019306
DataValue, 2.7600000000000002, 0.001942
DataValue, 2.77, 0.0019534
DataValue, 2.7800000000000002, 0.001965
DataValue, 2.79, 0.0019768
DataValue, 2.8000000000000003, 0.0019882
DataValue, 2.81, 0.0019998
DataValue, 2.82, 0.0020108
DataValue, 2.83, 0.0020226
DataValue, 2.84, 0.0020338
DataValue, 2.85, 0.0020458
DataValue, 2.86, 0.0020572
DataValue, 2.87, 0.0020688
DataValue, 2.88, 0.0020802
DataValue, 2.89, 0.0020918
DataValue, 2.9, 0.0021034
DataValue, 2.91, 0.002115
DataValue, 2.92, 0.002126
DataValue, 2.93, 0.0021376
DataValue, 2.94, 0.0021488
DataValue, 2.95, 0.0021604000000000003
DataValue, 2.96, 0.0021716
DataValue, 2.97, 0.0021828
DataValue, 2.98, 0.0021946
DataValue, 2.99, 0.002206
DataValue, 3, 0.0022174
DataValue, 3.0100000000000002, 0.0022288
DataValue, 3.02, 0.0022408000000000003
DataValue, 3.0300000000000002, 0.0022518
DataValue, 3.04, 0.0022632
DataValue, 3.0500000000000003, 0.0022746
DataValue, 3.06, 0.0022868
DataValue, 3.0700000000000003, 0.0022978
DataValue, 3.08, 0.0023094
DataValue, 3.09, 0.0023206
DataValue, 3.1, 0.002332
DataValue, 3.11, 0.0023438
DataValue, 3.12, 0.0023544
DataValue, 3.13, 0.0023652
DataValue, 3.14, 0.0023766
DataValue, 3.15, 0.0023878000000000003
DataValue, 3.16, 0.0023992
DataValue, 3.17, 0.0024100000000000002
DataValue, 3.18, 0.0024214
DataValue, 3.19, 0.0024330000000000003
DataValue, 3.2, 0.0024442
DataValue, 3.21, 0.0024554
DataValue, 3.22, 0.0024666
DataValue, 3.23, 0.0024776
DataValue, 3.24, 0.002489
DataValue, 3.25, 0.0024998
DataValue, 3.2600000000000002, 0.0025112
DataValue, 3.27, 0.0025218000000000003
DataValue, 3.2800000000000002, 0.002533
DataValue, 3.29, 0.0025452
DataValue, 3.3000000000000003, 0.0025566
DataValue, -0.5, 3.475E-11
DataValue, -0.49, 3.2180000000000005E-11
DataValue, -0.48, 2.9220000000000004E-11
DataValue, -0.47000000000000003, 3.918E-11
DataValue, -0.46, 2.6190000000000002E-11
DataValue, -0.45, 3.2720000000000004E-11
DataValue, -0.44, 3.2760000000000005E-11
DataValue, -0.43, 3.0750000000000004E-11
DataValue, -0.42, 3.794E-11
DataValue, -0.41000000000000003, 2.4040000000000002E-11
DataValue, -0.4, 3.2800000000000006E-11
DataValue, -0.39, 3.3520000000000004E-11
DataValue, -0.38, 2.549E-11
DataValue, -0.37, 3.8880000000000006E-11
DataValue, -0.36, 2.9620000000000003E-11
DataValue, -0.35000000000000003, 3.237E-11
DataValue, -0.34, 3.3370000000000003E-11
DataValue, -0.33, 2.5190000000000002E-11
DataValue, -0.32, 3.8480000000000006E-11
DataValue, -0.31, 3.1810000000000004E-11
DataValue, -0.3, 3.226E-11
DataValue, -0.29, 3.253E-11
DataValue, -0.28, 2.5810000000000003E-11
DataValue, -0.27, 3.8950000000000005E-11
DataValue, -0.26, 3.062E-11
