
SetupTitle, NMOS-id-vg-vbs@vds=0.05
PrimitiveTest, I/V Sweep
TestParameter, Context.MainFrame, B1500A
TestParameter, Channel.UnitType, SMU, SMU, SMU, SMU
TestParameter, Channel.Unit, SMU2:HR, SMU1:HR, SMU3:HR, SMU4:HR
TestParameter, Channel.IName, ib, is, ig, id
TestParameter, Channel.VName, vb, vs, vg, vd
TestParameter, Channel.Mode, V, COMMON, V, V
TestParameter, Channel.Func, VAR2, CONST, VAR1, CONST
TestParameter, Channel.Index, 
TestParameter, Channel.Time, 
TestParameter, Measurement.Port.Unit, SMU2:HR, SMU1:HR, SMU3:HR, SMU4:HR
TestParameter, Measurement.Port.SeriesResistor, NONE, NONE, NONE, NONE
TestParameter, Measurement.Port.Filter, ON, ON, ON, ON
TestParameter, Measurement.Port.OutputVoltageComparison, 0, 0, 0, 0
TestParameter, Measurement.Primary.Locus, Single
TestParameter, Measurement.Primary.Scale, LINEAR
TestParameter, Measurement.Primary.Start, -0.5
TestParameter, Measurement.Primary.Stop, 3.3000000000000003
TestParameter, Measurement.Primary.Step, 0.01
TestParameter, Measurement.Primary.Compliance, 0.001
TestParameter, Measurement.Primary.PowerCompliance, 0
TestParameter, Measurement.Aborting.Condition, SKIP AT ANY ABNORMAL
TestParameter, Measurement.PostOutput.Value, START
TestParameter, Measurement.PostOutput.Retention, OFF
TestParameter, Measurement.Secondary.Start, 0
TestParameter, Measurement.Secondary.Count, 7
TestParameter, Measurement.Secondary.Step, -0.6
TestParameter, Measurement.Secondary.Compliance, 0.1
TestParameter, Measurement.Secondary.PowerCompliance, 0
TestParameter, Measurement.Bias.Source, 0, 0, -0.5, 0.05
TestParameter, Measurement.Bias.Compliance, 0.1, 0.1, 0.001, 0.1
TestParameter, Measurement.Monitor.Unit, SMU2:HR, SMU1:HR, SMU3:HR, SMU4:HR
TestParameter, Measurement.Monitor.Adc, HR ADC, HR ADC, HR ADC, HR ADC
TestParameter, Measurement.Monitor.Measurement, Compliance Side, Compliance Side, Compliance Side, Compliance Side
TestParameter, Measurement.Monitor.RangingMode, LIMITED, LIMITED, LIMITED, LIMITED
TestParameter, Measurement.Monitor.RangeBoundary, 1nA, 1nA, 1nA, 1nA
TestParameter, Measurement.Monitor.RangeRating, BY FULL RANGE, BY FULL RANGE, BY FULL RANGE, BY FULL RANGE
TestParameter, Measurement.Monitor.RangeRatingCoeff, 50, 50, 50, 50
TestParameter, Measurement.Timing.Hold, 0
TestParameter, Measurement.Timing.Delay, 0
TestParameter, Measurement.Adc.HighSpeed.Mode, AUTO
TestParameter, Measurement.Adc.HighSpeed.Coeff, 1
TestParameter, Measurement.Adc.HighResolution.AutoZero, OFF
TestParameter, Measurement.Adc.HighResolution.Mode, AUTO
TestParameter, Measurement.Adc.HighResolution.Coeff, 6
TestParameter, Measurement.WaitTime.Source.Coeff, 1
TestParameter, Measurement.WaitTime.Source.Offset, 0
TestParameter, Measurement.WaitTime.Monitor.Coeff, 1
TestParameter, Measurement.WaitTime.Monitor.Offset, 0
TestParameter, Output.Graph.Enabled, true
TestParameter, Output.Graph.AutoScaling, false
TestParameter, Output.Graph.XAxis.Data, vg
TestParameter, Output.Graph.XAxis.Scale, Linear
TestParameter, Output.Graph.XAxis.Left, 0
TestParameter, Output.Graph.XAxis.Right, 0.9
TestParameter, Output.Graph.XAxis.RunTimeAutoScale, true
TestParameter, Output.Graph.YAxis.Data, id
TestParameter, Output.Graph.YAxis.Scale, Linear
TestParameter, Output.Graph.YAxis.Bottom, -0.1
TestParameter, Output.Graph.YAxis.Top, 0.1
TestParameter, Output.Graph.YAxis.Group, 
TestParameter, Output.Graph.YAxis.RunTimeAutoScale, true
TestParameter, AutoAnalysis.Interpolation, false
TestParameter, AutoAnalysis.Var2StepCount, 1
TestParameter, AutoAnalysis.Var2StepScript, 
TestParameter, AutoAnalysis.Line1.Enabled, false
TestParameter, AutoAnalysis.Line1.Type, 1
TestParameter, AutoAnalysis.Line1.Fix, True
TestParameter, AutoAnalysis.Line1.YAxis, 0
TestParameter, AutoAnalysis.Line1.Point1.Type, 0
TestParameter, AutoAnalysis.Line1.Point1.XY.X, 
TestParameter, AutoAnalysis.Line1.Point1.XY.Y, 
TestParameter, AutoAnalysis.Line1.Point1.Data.Var, 
TestParameter, AutoAnalysis.Line1.Point1.Data.Condition, 
TestParameter, AutoAnalysis.Line1.Point1.Data.Start, false
TestParameter, AutoAnalysis.Line1.Point1.Data.StartVar, 
TestParameter, AutoAnalysis.Line1.Point1.Data.StartCondition, 
TestParameter, AutoAnalysis.Line1.Point2.Type, 0
TestParameter, AutoAnalysis.Line1.Point2.XY.X, 
TestParameter, AutoAnalysis.Line1.Point2.XY.Y, 
TestParameter, AutoAnalysis.Line1.Point2.Data.Var, 
TestParameter, AutoAnalysis.Line1.Point2.Data.Condition, 
TestParameter, AutoAnalysis.Line1.Point2.Data.Start, false
TestParameter, AutoAnalysis.Line1.Point2.Data.StartVar, 
TestParameter, AutoAnalysis.Line1.Point2.Data.StartCondition, 
TestParameter, AutoAnalysis.Line1.GradientExpr, 0
TestParameter, AutoAnalysis.Line2.Enabled, false
TestParameter, AutoAnalysis.Line2.Type, 1
TestParameter, AutoAnalysis.Line2.Fix, True
TestParameter, AutoAnalysis.Line2.YAxis, 0
TestParameter, AutoAnalysis.Line2.Point1.Type, 0
TestParameter, AutoAnalysis.Line2.Point1.XY.X, 
TestParameter, AutoAnalysis.Line2.Point1.XY.Y, 
TestParameter, AutoAnalysis.Line2.Point1.Data.Var, 
TestParameter, AutoAnalysis.Line2.Point1.Data.Condition, 
TestParameter, AutoAnalysis.Line2.Point1.Data.Start, false
TestParameter, AutoAnalysis.Line2.Point1.Data.StartVar, 
TestParameter, AutoAnalysis.Line2.Point1.Data.StartCondition, 
TestParameter, AutoAnalysis.Line2.Point2.Type, 0
TestParameter, AutoAnalysis.Line2.Point2.XY.X, 
TestParameter, AutoAnalysis.Line2.Point2.XY.Y, 
TestParameter, AutoAnalysis.Line2.Point2.Data.Var, 
TestParameter, AutoAnalysis.Line2.Point2.Data.Condition, 
TestParameter, AutoAnalysis.Line2.Point2.Data.Start, false
TestParameter, AutoAnalysis.Line2.Point2.Data.StartVar, 
TestParameter, AutoAnalysis.Line2.Point2.Data.StartCondition, 
TestParameter, AutoAnalysis.Line2.GradientExpr, 0
TestParameter, AutoAnalysis.Marker.Enabled, false
TestParameter, AutoAnalysis.Marker.Data.Var, 
TestParameter, AutoAnalysis.Marker.Data.Condition, 
TestParameter, AutoAnalysis.Marker.Data.Start, false
TestParameter, AutoAnalysis.Marker.Data.StartVar, 
TestParameter, AutoAnalysis.Marker.Data.StartCondition, 
MetaData, TestRecord.EntryPoint, true
MetaData, TestRecord.RecordTime, 01/16/2024 15:09:59
MetaData, TestRecord.TestTarget, N-5-0.35-298K
MetaData, TestRecord.IterationIndex, 1
MetaData, TestRecord.Preservation, true
MetaData, TestRecord.Flag, 
MetaData, TestRecord.Remarks, 
MetaData, TestRecord.LinkKey, 0c3e09bf-4a76-4b2b-b6f1-c37fdbc6db89
MetaData, TestRecord.Parameters, 
Dimension1, 381, 381
Dimension2, 7, 7
DataName, vg, id
DataValue, -0.5, 2.4650000000000003E-11
DataValue, -0.49, 2.1820000000000002E-11
DataValue, -0.48, 3.191E-11
DataValue, -0.47000000000000003, 2.396E-11
DataValue, -0.46, 2.3740000000000003E-11
DataValue, -0.45, 3.1410000000000004E-11
DataValue, -0.44, 2.265E-11
DataValue, -0.43, 2.429E-11
DataValue, -0.42, 3.0420000000000003E-11
DataValue, -0.41000000000000003, 1.9910000000000002E-11
DataValue, -0.4, 2.4900000000000003E-11
DataValue, -0.39, 2.8890000000000003E-11
DataValue, -0.38, 1.737E-11
DataValue, -0.37, 2.5260000000000002E-11
DataValue, -0.36, 2.6870000000000003E-11
DataValue, -0.35000000000000003, 1.661E-11
DataValue, -0.34, 2.5340000000000003E-11
DataValue, -0.33, 2.8140000000000002E-11
DataValue, -0.32, 1.755E-11
DataValue, -0.31, 2.416E-11
DataValue, -0.3, 2.8520000000000002E-11
DataValue, -0.29, 2.0490000000000002E-11
DataValue, -0.28, 2.378E-11
DataValue, -0.27, 3.0760000000000005E-11
DataValue, -0.26, 2.38E-11
DataValue, -0.25, 2.325E-11
DataValue, -0.24, 3.171E-11
DataValue, -0.23, 2.411E-11
DataValue, -0.22, 1.987E-11
DataValue, -0.21, 2.8090000000000003E-11
DataValue, -0.2, 2.453E-11
DataValue, -0.19, 2.3040000000000002E-11
DataValue, -0.18, 3.135E-11
DataValue, -0.17, 2.291E-11
DataValue, -0.16, 2.3570000000000002E-11
DataValue, -0.15, 3.147E-11
DataValue, -0.14, 2.4300000000000003E-11
DataValue, -0.13, 2.0440000000000003E-11
DataValue, -0.12, 3.1700000000000004E-11
DataValue, -0.11, 2.4630000000000003E-11
DataValue, -0.1, 1.768E-11
DataValue, -0.09, 3.1700000000000004E-11
DataValue, -0.08, 2.4720000000000003E-11
DataValue, -0.07, 2.249E-11
DataValue, -0.06, 3.212E-11
DataValue, -0.05, 2.3660000000000002E-11
DataValue, -0.04, 2.331E-11
DataValue, -0.03, 3.164E-11
DataValue, -0.02, 2.2370000000000003E-11
DataValue, -0.01, 2.4430000000000003E-11
DataValue, 0, 2.982E-11
DataValue, 0.01, 2.023E-11
DataValue, 0.02, 2.5E-11
DataValue, 0.03, 2.92E-11
DataValue, 0.04, 1.8620000000000003E-11
DataValue, 0.05, 2.4740000000000003E-11
DataValue, 0.06, 2.8400000000000003E-11
DataValue, 0.07, 1.713E-11
DataValue, 0.08, 2.5080000000000002E-11
DataValue, 0.09, 2.965E-11
DataValue, 0.1, 2.2790000000000003E-11
DataValue, 0.11, 2.449E-11
DataValue, 0.12, 3.029E-11
DataValue, 0.13, 1.9840000000000003E-11
DataValue, 0.14, 2.5340000000000003E-11
DataValue, 0.15, 3.008E-11
DataValue, 0.16, 2.003E-11
DataValue, 0.17, 2.5900000000000002E-11
DataValue, 0.18, 2.913E-11
DataValue, 0.19, 1.8560000000000002E-11
DataValue, 0.2, 2.644E-11
DataValue, 0.21, 2.942E-11
DataValue, 0.22, 1.9110000000000002E-11
DataValue, 0.23, 2.786E-11
DataValue, 0.24, 3.384E-11
DataValue, 0.25, 2.407E-11
DataValue, 0.26, 3.073E-11
DataValue, 0.27, 3.8590000000000006E-11
DataValue, 0.28, 3.3630000000000004E-11
DataValue, 0.29, 3.4730000000000006E-11
DataValue, 0.3, 4.7990000000000007E-11
DataValue, 0.31, 4.5400000000000006E-11
DataValue, 0.32, 4.429E-11
DataValue, 0.33, 6.0370000000000007E-11
DataValue, 0.34, 6.846E-11
DataValue, 0.35000000000000003, 7.174E-11
DataValue, 0.36, 9.517E-11
DataValue, 0.37, 1.1630000000000002E-10
DataValue, 0.38, 1.3342000000000002E-10
DataValue, 0.39, 1.7098000000000001E-10
DataValue, 0.4, 2.1913000000000002E-10
DataValue, 0.41000000000000003, 2.6287000000000004E-10
DataValue, 0.42, 3.2780000000000005E-10
DataValue, 0.43, 4.2130000000000003E-10
DataValue, 0.44, 5.3729E-10
DataValue, 0.45, 6.5999E-10
DataValue, 0.46, 8.4762E-10
DataValue, 0.47000000000000003, 1.0779900000000001E-09
DataValue, 0.48, 1.5089E-09
DataValue, 0.49, 1.777E-09
DataValue, 0.5, 2.277E-09
DataValue, 0.51, 2.909E-09
DataValue, 0.52, 3.705E-09
DataValue, 0.53, 4.7562E-09
DataValue, 0.54, 6.0642E-09
DataValue, 0.55, 7.9878E-09
DataValue, 0.56, 9.9451E-09
DataValue, 0.57000000000000006, 1.3430399999999999E-08
DataValue, 0.58, 1.73192E-08
DataValue, 0.59, 2.19972E-08
DataValue, 0.6, 2.8041399999999998E-08
DataValue, 0.61, 3.57456E-08
DataValue, 0.62, 4.55716E-08
DataValue, 0.63, 5.8001199999999995E-08
DataValue, 0.64, 7.36494E-08
DataValue, 0.65, 9.3447399999999985E-08
DataValue, 0.66, 1.1848E-07
DataValue, 0.67, 1.5054E-07
DataValue, 0.68, 2.0006E-07
DataValue, 0.69000000000000006, 2.3712E-07
DataValue, 0.70000000000000007, 2.9853999999999997E-07
DataValue, 0.71, 3.7284E-07
DataValue, 0.72, 4.6347999999999997E-07
DataValue, 0.73, 5.7198E-07
DataValue, 0.74, 7.0232E-07
DataValue, 0.75, 8.6062E-07
DataValue, 0.76, 1.04786E-06
DataValue, 0.77, 1.3011000000000001E-06
DataValue, 0.78, 1.5311000000000003E-06
DataValue, 0.79, 1.8356000000000003E-06
DataValue, 0.8, 2.1824E-06
DataValue, 0.81, 2.5820000000000004E-06
DataValue, 0.82000000000000006, 3.0337000000000003E-06
DataValue, 0.83000000000000007, 3.5380000000000003E-06
DataValue, 0.84, 4.1212000000000005E-06
DataValue, 0.85, 4.7418E-06
DataValue, 0.86, 5.4239000000000007E-06
DataValue, 0.87, 6.1731E-06
DataValue, 0.88, 6.9753000000000008E-06
DataValue, 0.89, 7.8309000000000015E-06
DataValue, 0.9, 8.7444E-06
DataValue, 0.91, 9.7202E-06
DataValue, 0.92, 1.07145E-05
DataValue, 0.93, 1.1778E-05
DataValue, 0.94000000000000006, 1.285E-05
DataValue, 0.95000000000000007, 1.3962000000000001E-05
DataValue, 0.96, 1.513E-05
DataValue, 0.97, 1.6332000000000002E-05
DataValue, 0.98, 1.7522E-05
DataValue, 0.99, 1.8732E-05
DataValue, 1, 1.9968E-05
DataValue, 1.01, 2.1182E-05
DataValue, 1.02, 2.2424E-05
DataValue, 1.03, 2.3708E-05
DataValue, 1.04, 2.4934000000000002E-05
DataValue, 1.05, 2.6178000000000002E-05
DataValue, 1.06, 2.7422E-05
DataValue, 1.07, 2.8666E-05
DataValue, 1.08, 2.9896E-05
DataValue, 1.09, 3.1126E-05
DataValue, 1.1, 3.2362E-05
DataValue, 1.11, 3.3604E-05
DataValue, 1.12, 3.4792E-05
DataValue, 1.1300000000000001, 3.5996E-05
DataValue, 1.1400000000000001, 3.7172E-05
DataValue, 1.1500000000000001, 3.8364E-05
DataValue, 1.16, 3.9500000000000005E-05
DataValue, 1.17, 4.0676E-05
DataValue, 1.18, 4.181E-05
DataValue, 1.19, 4.2942E-05
DataValue, 1.2, 4.4028E-05
DataValue, 1.21, 4.512E-05
DataValue, 1.22, 4.6238E-05
DataValue, 1.23, 4.7282E-05
DataValue, 1.24, 4.8346E-05
DataValue, 1.25, 4.939E-05
DataValue, 1.26, 5.047E-05
DataValue, 1.27, 5.1432000000000005E-05
DataValue, 1.28, 5.2454E-05
DataValue, 1.29, 5.3448E-05
DataValue, 1.3, 5.448E-05
DataValue, 1.31, 5.542E-05
DataValue, 1.32, 5.6374E-05
DataValue, 1.33, 5.7284E-05
DataValue, 1.34, 5.8266E-05
DataValue, 1.35, 5.9202E-05
DataValue, 1.36, 6.0072000000000004E-05
DataValue, 1.37, 6.0996000000000004E-05
DataValue, 1.3800000000000001, 6.1916000000000008E-05
DataValue, 1.3900000000000001, 6.2774E-05
DataValue, 1.4000000000000001, 6.3618E-05
DataValue, 1.41, 6.4508E-05
DataValue, 1.42, 6.535E-05
DataValue, 1.43, 6.6222E-05
DataValue, 1.44, 6.6994E-05
DataValue, 1.45, 6.7866E-05
DataValue, 1.46, 6.8708000000000007E-05
DataValue, 1.47, 6.9464E-05
DataValue, 1.48, 7.0202E-05
DataValue, 1.49, 7.1012E-05
DataValue, 1.5, 7.1846E-05
DataValue, 1.51, 7.2562E-05
DataValue, 1.52, 7.3298E-05
DataValue, 1.53, 7.4082E-05
DataValue, 1.54, 7.4828000000000009E-05
DataValue, 1.55, 7.553E-05
DataValue, 1.56, 7.6228E-05
DataValue, 1.57, 7.6982E-05
DataValue, 1.58, 7.7686E-05
DataValue, 1.59, 7.8350000000000007E-05
DataValue, 1.6, 7.901E-05
DataValue, 1.61, 7.9736E-05
DataValue, 1.62, 8.0414E-05
DataValue, 1.6300000000000001, 8.1054E-05
DataValue, 1.6400000000000001, 8.1708E-05
DataValue, 1.6500000000000001, 8.239E-05
DataValue, 1.6600000000000001, 8.3018E-05
DataValue, 1.67, 8.3690000000000007E-05
DataValue, 1.68, 8.426000000000001E-05
DataValue, 1.69, 8.487800000000001E-05
DataValue, 1.7, 8.5492E-05
DataValue, 1.71, 8.6142E-05
DataValue, 1.72, 8.672600000000001E-05
DataValue, 1.73, 8.7266E-05
DataValue, 1.74, 8.7948E-05
DataValue, 1.75, 8.8502E-05
DataValue, 1.76, 8.9018000000000007E-05
DataValue, 1.77, 8.9588E-05
DataValue, 1.78, 9.0192E-05
DataValue, 1.79, 9.0730000000000007E-05
DataValue, 1.8, 9.1264E-05
DataValue, 1.81, 9.1872E-05
DataValue, 1.82, 9.238E-05
DataValue, 1.83, 9.291E-05
DataValue, 1.84, 9.342600000000001E-05
DataValue, 1.85, 9.397000000000001E-05
DataValue, 1.86, 9.4488000000000007E-05
DataValue, 1.87, 9.4974E-05
DataValue, 1.8800000000000001, 9.556E-05
DataValue, 1.8900000000000001, 9.603E-05
DataValue, 1.9000000000000001, 9.6506E-05
DataValue, 1.9100000000000001, 9.6954000000000007E-05
DataValue, 1.92, 9.751E-05
DataValue, 1.93, 9.7942E-05
DataValue, 1.94, 9.8424E-05
DataValue, 1.95, 9.8874E-05
DataValue, 1.96, 9.9382E-05
DataValue, 1.97, 9.9796E-05
DataValue, 1.98, 0.000100196
DataValue, 1.99, 0.000100702
DataValue, 2, 0.00010118800000000001
DataValue, 2.0100000000000002, 0.000101618
DataValue, 2.02, 0.000102
DataValue, 2.0300000000000002, 0.000102496
DataValue, 2.04, 0.00010293
DataValue, 2.05, 0.000103372
DataValue, 2.06, 0.00010376600000000001
DataValue, 2.07, 0.00010418000000000001
DataValue, 2.08, 0.000104616
DataValue, 2.09, 0.00010505
DataValue, 2.1, 0.00010536600000000001
DataValue, 2.11, 0.00010577
DataValue, 2.12, 0.00010623800000000001
DataValue, 2.13, 0.000106586
DataValue, 2.14, 0.000106972
DataValue, 2.15, 0.00010734400000000001
DataValue, 2.16, 0.000107812
DataValue, 2.17, 0.000108116
DataValue, 2.18, 0.00010846400000000001
DataValue, 2.19, 0.000108868
DataValue, 2.2, 0.00010928600000000001
DataValue, 2.21, 0.000109618
DataValue, 2.22, 0.000109948
DataValue, 2.23, 0.00011028000000000001
DataValue, 2.24, 0.00011069400000000001
DataValue, 2.25, 0.000110994
DataValue, 2.2600000000000002, 0.000111284
DataValue, 2.27, 0.000111722
DataValue, 2.2800000000000002, 0.00011207
DataValue, 2.29, 0.00011237600000000001
DataValue, 2.3000000000000003, 0.000112688
DataValue, 2.31, 0.00011304400000000001
DataValue, 2.32, 0.000113434
DataValue, 2.33, 0.000113706
DataValue, 2.34, 0.00011397000000000001
DataValue, 2.35, 0.00011436000000000001
DataValue, 2.36, 0.00011467400000000001
DataValue, 2.37, 0.000114936
DataValue, 2.38, 0.00011514000000000001
DataValue, 2.39, 0.00011548000000000001
DataValue, 2.4, 0.00011572000000000001
DataValue, 2.41, 0.00011598000000000001
DataValue, 2.42, 0.00011628
DataValue, 2.43, 0.00011662
DataValue, 2.44, 0.00011682000000000001
DataValue, 2.45, 0.00011710000000000001
DataValue, 2.46, 0.00011752000000000001
DataValue, 2.47, 0.0001177
DataValue, 2.48, 0.00011794000000000001
DataValue, 2.49, 0.00011828000000000001
DataValue, 2.5, 0.00011852000000000001
DataValue, 2.5100000000000002, 0.00011872
DataValue, 2.52, 0.00011904000000000001
DataValue, 2.5300000000000002, 0.00011942
DataValue, 2.54, 0.00011958
DataValue, 2.5500000000000003, 0.00011988000000000001
DataValue, 2.56, 0.00012014000000000001
DataValue, 2.57, 0.00012040000000000001
DataValue, 2.58, 0.00012062000000000001
DataValue, 2.59, 0.00012086
DataValue, 2.6, 0.00012112
DataValue, 2.61, 0.00012144
DataValue, 2.62, 0.0001216
DataValue, 2.63, 0.00012182000000000001
DataValue, 2.64, 0.00012212
DataValue, 2.65, 0.00012236000000000001
DataValue, 2.66, 0.00012254
DataValue, 2.67, 0.00012276
DataValue, 2.68, 0.00012306
DataValue, 2.69, 0.00012326
DataValue, 2.7, 0.00012350000000000002
DataValue, 2.71, 0.00012364
DataValue, 2.72, 0.000124
DataValue, 2.73, 0.0001242
DataValue, 2.74, 0.00012436
DataValue, 2.75, 0.00012458
DataValue, 2.7600000000000002, 0.00012486000000000002
DataValue, 2.77, 0.00012504
DataValue, 2.7800000000000002, 0.00012522
DataValue, 2.79, 0.00012542
DataValue, 2.8000000000000003, 0.00012564
DataValue, 2.81, 0.00012586000000000002
DataValue, 2.82, 0.000126
DataValue, 2.83, 0.0001262
DataValue, 2.84, 0.00012646
DataValue, 2.85, 0.00012664000000000002
DataValue, 2.86, 0.00012678
DataValue, 2.87, 0.00012692
DataValue, 2.88, 0.00012714
DataValue, 2.89, 0.00012736
DataValue, 2.9, 0.00012752
DataValue, 2.91, 0.00012770000000000001
DataValue, 2.92, 0.00012794
DataValue, 2.93, 0.0001281
DataValue, 2.94, 0.0001282
DataValue, 2.95, 0.00012842000000000002
DataValue, 2.96, 0.0001287
DataValue, 2.97, 0.00012878
DataValue, 2.98, 0.00012900000000000002
DataValue, 2.99, 0.00012914
DataValue, 3, 0.0001293
DataValue, 3.0100000000000002, 0.00012946
DataValue, 3.02, 0.00012966
DataValue, 3.0300000000000002, 0.00012982
DataValue, 3.04, 0.0001299
DataValue, 3.0500000000000003, 0.00013018
DataValue, 3.06, 0.00013028
DataValue, 3.0700000000000003, 0.00013036000000000002
DataValue, 3.08, 0.0001306
DataValue, 3.09, 0.00013076
DataValue, 3.1, 0.0001309
DataValue, 3.11, 0.00013102
DataValue, 3.12, 0.00013120000000000002
DataValue, 3.13, 0.00013138
DataValue, 3.14, 0.00013146000000000002
DataValue, 3.15, 0.00013156000000000002
DataValue, 3.16, 0.00013186
DataValue, 3.17, 0.00013194000000000001
DataValue, 3.18, 0.00013202
DataValue, 3.19, 0.00013226
DataValue, 3.2, 0.00013238
DataValue, 3.21, 0.00013246000000000002
DataValue, 3.22, 0.0001326
DataValue, 3.23, 0.00013276
DataValue, 3.24, 0.0001329
DataValue, 3.25, 0.00013296
DataValue, 3.2600000000000002, 0.0001332
DataValue, 3.27, 0.00013332
DataValue, 3.2800000000000002, 0.00013334000000000002
DataValue, 3.29, 0.00013350000000000002
DataValue, 3.3000000000000003, 0.00013366000000000002
DataValue, -0.5, 3.2430000000000005E-11
DataValue, -0.49, 2.0220000000000002E-11
DataValue, -0.48, 2.626E-11
DataValue, -0.47000000000000003, 2.602E-11
DataValue, -0.46, 2.003E-11
DataValue, -0.45, 3.2430000000000005E-11
DataValue, -0.44, 2.311E-11
DataValue, -0.43, 2.602E-11
DataValue, -0.42, 2.7230000000000003E-11
DataValue, -0.41000000000000003, 1.865E-11
DataValue, -0.4, 3.165E-11
DataValue, -0.39, 2.5350000000000002E-11
DataValue, -0.38, 2.5280000000000002E-11
DataValue, -0.37, 2.8920000000000002E-11
DataValue, -0.36, 1.753E-11
DataValue, -0.35000000000000003, 2.8300000000000002E-11
DataValue, -0.34, 2.569E-11
